# GHz S RI R 50
50  0.0211  -0.01828  0.2959  -0.1004  0.1437  -0.244  0.01633  -0.004356
50.1  -0.01773  -0.02225  0.1313  -0.2978  0.07804  -0.2684  0.003117  -0.0189
50.2  -0.02679  0.01665  -0.07884  -0.3212  -0.0376  -0.2855  -0.01787  -0.007107
50.3  0.0104  0.02994  -0.2152  -0.2453  -0.1973  -0.2177  -0.006923  0.01804
50.4  0.02658  -0.004776  -0.3041  -0.1268  -0.2796  -0.06997  0.01623  0.008702
50.5  -0.006025  -0.02126  -0.3011  0.1389  -0.2871  0.05086  0.006292  -0.009675
50.6  -0.02086  0.006446  -0.1028  0.3051  -0.2634  0.108  -0.00101  0.001691
50.7  0.003003  0.0239  0.1245  0.3011  -0.2019  0.2118  0.0106  -0.002359
50.8  0.02393  0.00489  0.259  0.1969  -0.05047  0.2769  -0.004256  -0.01252
50.9  0.01029  -0.01695  0.3197  0.02753  0.08431  0.2564  -0.01277  0.007871
51  -0.01289  -0.01057  0.2596  -0.2055  0.1597  0.2209  0.007493  0.01457
51.1  -0.01134  0.01514  0.01155  -0.3361  0.2156  0.1951  0.01326  5.958e-05
51.2  0.01576  0.01866  -0.2169  -0.2684  0.2862  0.09521  0.007137  -0.007245
51.3  0.02637  -0.008769  -0.3584  -0.1379  0.2874  -0.07664  -0.005399  -0.01166
51.4  0.001781  -0.02733  -0.3806  0.03502  0.206  -0.2263  -0.01704  0.01055
51.5  -0.01988  -0.004279  -0.2495  0.2647  0.1061  -0.2723  0.01663  0.02409
51.6  0.0001517  0.01818  0.02988  0.3423  0.029  -0.288  0.02819  -0.02144
51.7  0.02301  -0.0007685  0.2277  0.2123  -0.04069  -0.2778  -0.02028  -0.03183
51.8  0.008031  -0.02424  0.3045  0.07381  -0.1816  -0.2246  -0.0371  0.02299
51.9  -0.01545  -0.01387  0.3025  -0.09429  -0.2685  -0.0934  0.02106  0.03743
52  -0.01062  0.007344  0.1693  -0.2653  -0.2866  0.02179  0.03332  -0.01675
52.1  0.00904  0.006726  -0.01179  -0.3504  -0.2602  0.1335  -0.002494  -0.04023
52.2  0.01453  -0.009651  -0.2322  -0.2776  -0.193  0.183  -0.03838  -0.02386
52.3  0.0003461  -0.02611  -0.3336  -0.09439  -0.08229  0.2615  -0.04345  0.02771
52.4  -0.02667  -0.01837  -0.3121  0.1022  0.08528  0.2834  0.0224  0.04586
52.5  -0.02344  0.01298  -0.1973  0.2741  0.1896  0.2136  0.04579  -0.02682
52.6  0.009983  0.01835  0.02007  0.3547  0.2467  0.1369  -0.03271  -0.05122
52.7  0.01932  -0.01476  0.203  0.2878  0.2378  0.06728  -0.0579  0.01533
52.8  -0.01165  -0.03006  0.2624  0.1687  0.2422  0.0487  -0.01951  0.04228
52.9  -0.02983  -0.01243  0.3217  0.09074  0.2503  -0.05302  0.03517  0.01669
53  -0.02307  0.01415  0.3296  -0.0831  0.2231  -0.1646  0.01315  -0.03333
53.1  0.008194  0.01617  0.1978  -0.2909  0.1609  -0.2751  -0.03032  -0.031
53.2  0.01388  -0.01694  -0.09708  -0.3606  -0.02733  -0.3335  -0.04976  0.02374
53.3  -0.02238  -0.02  -0.2832  -0.1552  -0.2324  -0.2251  0.01417  0.05077
53.4  -0.02667  0.01863  -0.3044  0.01662  -0.3026  -0.01569  0.04402  -0.004497
53.5  0.0006884  0.02832  -0.2315  0.176  -0.2947  0.04371  0.001105  -0.04394
53.6  0.02096  0.006202  -0.07277  0.2759  -0.2742  0.1092  -0.04461  -0.01195
53.7  0.007406  -0.02122  0.07654  0.2853  -0.216  0.2003  -0.02473  0.03241
53.8  -0.0283  -0.01848  0.2478  0.2782  -0.1116  0.3137  0.01408  0.02843
53.9  -0.02574  0.01649  0.3436  0.07563  0.01998  0.2916  0.01982  -0.001024
54  0.003423  0.02669  0.2713  -0.1691  0.08251  0.2882  0.002713  -0.02109
54.1  0.02249  0.0024  0.1092  -0.3244  0.1369  0.2481  -0.02617  -0.01174
54.2  0.0005942  -0.0211  -0.04044  -0.3014  0.2369  0.1487  -0.02125  0.0236
54.3  -0.02746  -0.001253  -0.1729  -0.2441  0.3016  0.02322  0.0199  0.02473
54.4  -0.005596  0.02743  -0.2988  -0.07717  0.2988  -0.03658  0.02702  -0.01877
54.5  0.0229  0.005673  -0.2625  0.1866  0.2954  -0.08646  -0.01949  -0.03202
54.6  0.005189  -0.02258  -0.07541  0.3226  0.2655  -0.2076  -0.03387  0.01328
54.7  -0.02124  -0.007027  0.1003  0.3087  0.08552  -0.3335  0.003888  0.02763
54.8  -0.007906  0.01534  0.202  0.2219  -0.08726  -0.3179  0.01772  0.009015
54.9  0.009903  0.006537  0.3085  0.07762  -0.1131  -0.2886  0.01732  -0.005758
55  0.008696  -0.009006  0.3331  -0.2255  -0.136  -0.2888  0.003305  -0.01804
55.1  -0.003676  -0.01539  0.04895  -0.36  -0.2316  -0.2238  -0.01201  -0.006632
55.2  -0.01562  -0.00475  -0.05394  -0.3264  -0.305  0.002834  -0.01375  0.01066
55.3  -0.008917  0.009512  -0.2051  -0.2918  -0.2779  0.1318  0.009267  0.02529
55.4  0.006229  0.004035  -0.3917  -0.02294  -0.2667  0.1565  0.03095  -0.008125
55.5  0.002035  -0.01147  -0.2592  0.2473  -0.235  0.1852  -0.006409  -0.02473
55.6  -0.01302  -0.01126  -0.09533  0.355  -0.1205  0.2636  -0.02096  0.008658
55.7  -0.01916  0.001732  0.01965  0.3977  0.07252  0.2716  0.004649  0.02357
55.8  -0.01084  0.01356  0.1902  0.3267  0.2053  0.2391  0.02362  0.01111
55.9  0.005714  0.01118  0.3528  0.05613  0.2239  0.2317  0.02538  -0.01208
56  0.01038  -0.007471  0.2843  -0.1931  0.2593  0.1791  -0.002368  -0.02974
56.1  -0.008536  -0.01832  0.2294  -0.2624  0.3176  -0.02148  -0.0373  -0.004722
56.2  -0.02372  -0.00191  0.1384  -0.3188  0.2244  -0.1884  -0.01954  0.04191
56.3  -0.01457  0.0155  -0.07782  -0.3311  0.1577  -0.245  0.03477  0.03599
56.4  0.004024  0.0146  -0.3321  -0.1622  0.1238  -0.2993  0.04354  -0.02235
56.5  0.007782  -8.396e-05  -0.3291  -0.03937  0.009719  -0.3042  -0.007653  -0.03147
56.6  -0.002651  -0.0113  -0.3212  0.06851  -0.1807  -0.2504  -0.02811  0.006813
56.7  -0.01818  -0.005508  -0.2697  0.215  -0.2963  -0.1305  -0.00504  0.03524
56.8  -0.02043  0.01232  -0.08626  0.3406  -0.2826  -0.1077  0.01831  0.03057
56.9  -0.0002429  0.02294  0.146  0.2737  -0.3076  -0.02102  0.03122  0.0002771
57  0.01609  0.006379  0.3208  0.1723  -0.2802  0.1386  -0.0002139  -0.03474
57.1  0.004115  -0.01653  0.3756  0.08473  -0.1246  0.3001  -0.04781  0.00179
57.2  -0.02144  -0.009552  0.356  -0.09062  0.03162  0.3142  -0.01334  0.06291
57.3  -0.02325  0.01944  0.1628  -0.2982  0.04482  0.3033  0.04402  0.04026
57.4  0.002321  0.02847  -0.1055  -0.3194  0.07826  0.2946  0.04356  -0.02159
57.5  0.01847  0.01141  -0.2513  -0.2642  0.2318  0.2168  -0.0144  -0.03783
57.6  0.01337  -0.01056  -0.3268  -0.1945  0.2944  0.04558  -0.0372  0.00864
57.7  -0.01074  -0.01499  -0.3613  0.02774  0.2796  -0.007852  -0.01374  0.0351
57.8  -0.02364  0.009164  -0.1886  0.2764  0.3057  -0.04049  0.01796  0.03495
57.9  -0.004481  0.02733  0.08401  0.3343  0.2895  -0.06331  0.03803  0.005264
58  0.01766  0.01513  0.2145  0.2983  0.2142  -0.1908  0.01444  -0.03115
58.1  0.01394  -0.008637  0.2654  0.2067  0.07568  -0.287  -0.0287  -0.01322
58.2  -0.009378  -0.01063  0.3538  -0.1009  0.04044  -0.2991  -0.01747  0.03724
58.3  -0.01636  0.009491  0.1519  -0.3377  0.04214  -0.2781  0.03038  0.02799
58.4  0.0002338  0.024  -0.06609  -0.3756  -0.04163  -0.2905  0.03016  -0.01913
58.5  0.02454  0.01322  -0.1342  -0.3091  -0.2145  -0.2276  -0.007735  -0.02303
58.6  0.01964  -0.0131  -0.2821  -0.2072  -0.2602  -0.1248  -0.02202  0.0002538
58.7  -0.007921  -0.01801  -0.3363  0.09147  -0.2752  -0.1258  -0.01361  0.01657
58.8  -0.01995  0.007044  -0.1456  0.3036  -0.3115  -0.1098  0.005717  0.02289
58.9  0.005258  0.02404  -0.02788  0.3116  -0.3152  0.07706  0.02292  0.005296
59  0.02371  0.005542  0.07586  0.3136  -0.2316  0.2152  0.01032  -0.02476
59.1  0.01094  -0.01873  0.2246  0.2407  -0.1292  0.2857  -0.02387  -0.01642
59.2  -0.01229  -0.01189  0.3462  -0.03414  -0.1175  0.2852  -0.01705  0.02052
59.3  -0.01089  0.009397  0.2268  -0.2841  -0.06291  0.2998  0.01731  0.01069
59.4  0.007025  0.01007  0.1357  -0.328  0.1001  0.2814  0.007933  -0.01792
59.5  0.01252  -0.004325  0.07801  -0.3262  0.2151  0.1926  -0.009948  -0.01446
59.6  0.002688  -0.01886  -0.1237  -0.3448  0.2953  0.1507  -0.01493  0.0003051
59.7  -0.02122  -0.01122  -0.3495  -0.06617  0.3661  0.04416  -0.004246  0.007843
59.8  -0.02093  0.01076  -0.3507  0.04673  0.3456  -0.09285  0.002661  0.007809
59.9  -0.002483  0.01899  -0.3336  0.1329  0.2249  -0.2312  0.01572  -0.001369
60  0.01486  0.00503  -0.2755  0.2258  0.0527  -0.3128  0.007773  -0.02605
60.1  0.006847  -0.01817  -0.07863  0.3406  -0.007526  -0.3146  -0.02389  -0.02155
60.2  -0.02044  -0.0189  0.188  0.3053  -0.04085  -0.3059  -0.02358  0.01462
60.3  -0.03067  0.008267  0.3092  0.1662  -0.1486  -0.2772  0.009182  0.01819
60.4  -0.009141  0.02565  0.3412  0.07817  -0.2904  -0.1421  0.0158  -0.005225
60.5  0.01286  0.0103  0.3467  -0.05909  -0.3034  0.005042  0.005381  -0.01131
60.6  0.004427  -0.01237  0.2295  -0.2629  -0.2994  0.06176  -0.001214  -0.01244
60.7  -0.01738  -0.01207  0.007668  -0.3568  -0.2943  0.1149  -0.01178  -0.005355
60.8  -0.02556  0.006154  -0.1563  -0.3205  -0.2047  0.2334  -0.004474  0.01391
60.9  -0.01711  0.0206  -0.2361  -0.2466  -0.05988  0.3066  0.02023  0.01022
61  0.001275  0.02574  -0.3311  -0.07954  0.05594  0.3223  0.02196  -0.01773
61.1  0.01757  0.01015  -0.2985  0.1776  0.08316  0.3109  -0.003697  -0.02546
61.2  0.009775  -0.01352  -0.1399  0.3268  0.1443  0.2805  -0.01887  -0.001999
61.3  -0.01859  -0.01382  0.0131  0.3389  0.2593  0.1754  -0.001572  0.01944
61.4  -0.02893  0.01662  0.1386  0.313  0.3227  0.0237  0.02384  0.01297
61.5  0.001313  0.03209  0.324  0.1646  0.3146  -0.05718  0.02913  -0.01295
61.6  0.02034  0.01418  0.3423  -0.1325  0.3016  -0.08806  0.007114  -0.02684
61.7  0.01586  -0.0073  0.2053  -0.2938  0.2689  -0.169  -0.01205  -0.01457
61.8  -0.001677  -0.01313  0.05812  -0.359  0.166  -0.2786  -0.01301  0.01002
61.9  -0.01438  -0.0014  -0.1371  -0.3391  0.03593  -0.3178  0.01221  0.02353
62  -0.01005  0.01614  -0.3224  -0.1537  -0.00373  -0.3273  0.03567  0.00352
62.1  0.01133  0.01973  -0.3337  0.1255  -0.04066  -0.3205  0.02204  -0.02722
62.2  0.02431  -0.002317  -0.1916  0.2959  -0.127  -0.291  -0.0102  -0.02137
62.3  0.006778  -0.02196  -0.05822  0.3885  -0.2421  -0.19  -0.01603  0.0109
62.4  -0.02095  -0.0116  0.1382  0.2994  -0.3033  -0.1166  0.01089  0.02108
62.5  -0.01611  0.01695  0.2754  0.1385  -0.3173  -0.05858  0.02666  0.003285
62.6  0.01125  0.02163  0.317  -0.06463  -0.3118  0.006595  0.01995  -0.01509
62.7  0.02582  -0.001285  0.2393  -0.2061  -0.2836  0.1185  0.001746  -0.01998
62.8  0.01197  -0.02366  0.143  -0.2801  -0.2031  0.226  -0.01644  -0.006995
62.9  -0.01224  -0.02117  -0.011  -0.3333  -0.1173  0.2701  -0.01304  0.02241
63  -0.02254  -0.0007213  -0.2224  -0.2855  -0.0803  0.281  0.02236  0.02938
63.1  -0.007064  0.0191  -0.3584  -0.1184  -0.02096  0.3104  0.03866  -0.008332
63.2  0.01768  0.008213  -0.3749  0.06225  0.1029  0.2809  0.0008488  -0.03095
63.3  0.01469  -0.01759  -0.3435  0.2372  0.1961  0.2374  -0.02852  -0.0032
63.4  -0.01083  -0.02172  -0.1797  0.4321  0.2183  0.1489  -0.01494  0.02722
63.5  -0.02616  -0.001256  0.1095  0.4551  0.2909  0.1086  0.01486  0.0357
63.6  -0.01294  0.02174  0.3333  0.3141  0.299  0.01213  0.03549  0.005712
63.7  0.01582  0.02016  0.426  0.1577  0.2791  -0.1123  0.01346  -0.02553
63.8  0.02451  -0.01036  0.4431  -0.02907  0.201  -0.1961  -0.02565  -0.01632
63.9  -0.005319  -0.03046  0.3234  -0.2184  0.1599  -0.2757  -0.03474  0.02412
64  -0.03288  -0.008823  0.1761  -0.3223  0.07895  -0.3105  0.004064  0.04516
64.1  -0.02662  0.02535  0.02698  -0.3778  -0.0406  -0.3233  0.0378  0.01384
64.2  0.006897  0.03422  -0.132  -0.358  -0.1782  -0.2657  0.01334  -0.02921
64.3  0.02989  0.008019  -0.2984  -0.2325  -0.2439  -0.1876  -0.02811  -0.01366
64.4  0.01084  -0.02569  -0.3716  -0.01177  -0.2809  -0.1365  -0.02606  0.0194
64.5  -0.02734  -0.01278  -0.3055  0.1883  -0.3118  -0.05546  -0.002036  0.02798
64.6  -0.02491  0.02202  -0.1781  0.306  -0.3114  0.06249  0.01451  0.01699
64.7  0.005304  0.03426  -0.01199  0.3443  -0.2574  0.1745  0.01812  -0.003167
64.8  0.02603  0.01068  0.187  0.2939  -0.1772  0.2365  0.0001096  -0.02198
64.9  0.01408  -0.01224  0.2862  0.1028  -0.1159  0.2674  -0.02657  -0.007639
65  -0.008818  -0.01169  0.3131  -0.01718  -0.04074  0.2718  -0.02489  0.01935
65.1  -0.0194  0.007612  0.3014  -0.1574  0.04882  0.3005  0.004704  0.03397
65.2  -0.007621  0.02669  0.1968  -0.2925  0.1521  0.2743  0.03038  0.005573
65.3  0.01561  0.02832  -0.01296  -0.3827  0.2386  0.2209  0.01097  -0.02887
65.4  0.02904  0.009118  -0.2502  -0.305  0.2928  0.1449  -0.0221  -0.0201
65.5  0.01853  -0.01444  -0.3783  -0.09022  0.3296  0.03386  -0.02401  0.005513
65.6  -0.006328  -0.01431  -0.3423  0.1013  0.3227  -0.06037  -0.008979  0.01594
65.7  -0.01713  0.009725  -0.2552  0.2468  0.2946  -0.1542  0.009192  0.01435
65.8  0.002058  0.02813  -0.1106  0.3335  0.29  -0.2859  0.0288  -0.008128
65.9  0.02502  0.01461  0.04673  0.3294  0.1632  -0.3018  0.01079  -0.03225
66  0.02109  -0.007877  0.1821  0.2645  0.01814  -0.3082  -0.02086  -0.02399
66.1  0.003111  -0.01348  0.2783  0.1238  -0.07008  -0.3026  -0.02039  0.004968
66.2  -0.006603  -0.001425  0.3023  -0.02345  -0.1489  -0.287  0.001448  0.0128
66.3  -0.001156  0.009066  0.2816  -0.1802  -0.2637  -0.2223  0.01677  0.0007126
66.4  0.004543  0.009754  0.1205  -0.3329  -0.296  -0.1487  0.017  -0.01797
66.5  0.01228  0.01163  -0.07114  -0.3299  -0.2879  -0.08683  0.005095  -0.02447
66.6  0.02522  -0.002345  -0.2607  -0.2639  -0.3225  0.005611  -0.01086  -0.02417
66.7  0.008987  -0.02512  -0.3799  -0.07828  -0.312  0.1189  -0.02087  -0.008346
66.8  -0.02098  -0.01425  -0.3741  0.2037  -0.2707  0.2079  -0.00591  0.01297
66.9  -0.01774  0.01602  -0.1434  0.3717  -0.1958  0.2656  0.02493  -0.002636
67  0.004088  0.01981  0.06483  0.366  -0.1233  0.2179  0.01544  -0.03233
67.1  0.01844  0.008821  0.1947  0.2993  -0.06523  0.2902  -0.01908  -0.03534
67.2  0.0153  -0.01282  0.3073  0.1856  0.02156  0.3119  -0.02589  -0.00542
67.3  -0.003596  -0.01724  0.3643  0.03293  0.1133  0.275  0.001169  0.01452
67.4  -0.01705  -0.001454  0.3026  -0.1878  0.1487  0.2415  0.02365  -0.005032
67.5  -0.006888  0.01671  0.1853  -0.2989  0.2659  0.2169  0.014  -0.02823
67.6  0.01354  0.009783  0.01964  -0.3831  0.3234  0.1081  -0.005796  -0.02687
67.7  0.01207  -0.0104  -0.1769  -0.3367  0.3075  0.03884  -0.01264  -0.01532
67.8  -0.006101  -0.02003  -0.2865  -0.2183  0.3319  -0.06985  -0.01395  0.005378
67.9  -0.02764  -0.00216  -0.3444  -0.06075  0.2963  -0.1814  0.01152  0.01844
68  -0.01103  0.02645  -0.3317  0.1306  0.1861  -0.306  0.0362  -0.008329
68.1  0.0172  0.01772  -0.2181  0.3023  0.06683  -0.3139  0.01004  -0.03818
68.2  0.01914  -0.009255  -0.01954  0.3652  -0.001344  -0.3247  -0.02354  -0.01969
68.3  -0.002672  -0.01993  0.136  0.3256  -0.07464  -0.3082  -0.01575  0.01789
68.4  -0.02254  -0.005779  0.25  0.2179  -0.1564  -0.2685  0.01823  0.02175
68.5  -0.0173  0.02232  0.3378  0.04688  -0.2524  -0.1789  0.02893  -0.00762
68.6  0.01253  0.02607  0.2966  -0.1559  -0.2908  -0.1027  0.00943  -0.02118
68.7  0.02746  7.679e-05  0.1968  -0.2607  -0.324  -0.02804  -0.004615  -0.01292
68.8  0.00673  -0.02664  0.02944  -0.343  -0.3173  0.0741  -0.00993  0.00194
68.9  -0.0264  -0.01371  -0.1774  -0.3342  -0.2891  0.1602  -0.001761  0.02135
69  -0.02662  0.02603  -0.2821  -0.1862  -0.211  0.257  0.02116  0.02298
69.1  0.01462  0.04051  -0.3619  -0.06474  -0.0935  0.3282  0.04312  0.001162
69.2  0.04087  0.009288  -0.3473  0.1537  -0.006395  0.3203  0.01967  -0.0322
69.3  0.02673  -0.0265  -0.2056  0.3131  0.06895  0.3158  -0.01665  -0.01709
69.4  -0.009258  -0.0315  -0.01247  0.3674  0.1667  0.2927  -0.01392  0.0173
69.5  -0.02806  -0.002452  0.1744  0.3182  0.2403  0.2079  0.01358  0.02365
69.6  -0.01451  0.03329  0.2693  0.2286  0.3294  0.0801  0.02256  0.009036
69.7  0.02639  0.03304  0.3539  0.06452  0.3333  -0.017  0.02199  -0.002284
69.8  0.04109  -0.001059  0.3099  -0.1514  0.3043  -0.08676  0.01089  -0.01413
69.9  0.02071  -0.02812  0.2256  -0.2632  0.2643  -0.1921  -0.008843  -0.0108
70  -0.01024  -0.02317  0.08162  -0.3508  0.1817  -0.2815  -0.01334  0.01542
70.1  -0.01945  0.003268  -0.1017  -0.3496  0.09245  -0.3236  0.01471  0.02396
70.2  -0.0005728  0.02502  -0.266  -0.2273  0.003878  -0.3448  0.02684  -0.002008
70.3  0.03022  0.01747  -0.3053  -0.07318  -0.1082  -0.3204  0.007689  -0.01554
70.4  0.03462  -0.01269  -0.347  0.002645  -0.2015  -0.2545  -0.007274  -0.01243
70.5  0.01361  -0.02965  -0.3741  0.1674  -0.2793  -0.1503  -0.01538  0.001775
70.6  -0.01067  -0.02014  -0.1717  0.3352  -0.3039  -0.07272  -0.007313  0.01274
70.7  -0.01528  0.002288  0.06268  0.3285  -0.3048  -0.04538  0.002303  0.01186
70.8  -0.00217  0.01668  0.2004  0.2758  -0.3472  0.03598  0.009982  0.008024
70.9  0.01535  0.0161  0.3994  0.1905  -0.3  0.1688  0.01527  -0.009633
71  0.02768  0.003993  0.4398  -0.07504  -0.201  0.1818  -0.006725  -0.01841
71.1  0.02524  -0.01611  0.2932  -0.2735  -0.1852  0.2662  -0.02623  -0.003325
71.2  0.005552  -0.02644  0.1098  -0.3447  -0.1331  0.2809  -0.01459  0.01381
71.3  -0.0173  -0.01357  -0.06292  -0.3692  -0.0684  0.3303  0.001244  0.009239
71.4  -0.01593  0.0125  -0.1898  -0.3686  0.07364  0.3254  -0.0005723  -0.007242
71.5  0.006118  0.02245  -0.3707  -0.2331  0.1829  0.2878  -0.01686  -0.007944
71.6  0.02455  0.009553  -0.4907  0.1101  0.2128  0.23  -0.0206  0.005399
71.7  0.02387  -0.01342  -0.2905  0.3229  0.2267  0.2063  -0.01375  0.007101
71.8  -0.001302  -0.0243  -0.0941  0.3804  0.3136  0.1237  -0.007877  0.009391
71.9  -0.01909  -0.006482  0.05073  0.3644  0.3032  0.01067  0.002001  0.00256
72  -0.01524  0.02151  0.2138  0.3207  0.3076  -0.117  -0.0001947  -0.01637
72.1  0.01468  0.02866  0.402  0.1636  0.2616  -0.1838  -0.02864  -0.02301
72.2  0.03457  0.002064  0.4212  -0.1101  0.2188  -0.2431  -0.04392  0.009854
72.3  0.01462  -0.029  0.2603  -0.2634  0.1415  -0.2952  -0.01467  0.02772
72.4  -0.02285  -0.02233  0.1782  -0.3578  -0.01348  -0.3628  0.01399  0.01462
72.5  -0.02721  0.01395  -0.08387  -0.4411  -0.1235  -0.3141  0.009901  -0.02267
72.6  -0.004249  0.03157  -0.3274  -0.2558  -0.135  -0.2934  -0.02123  -0.02533
72.7  0.02213  0.02309  -0.366  -0.06519  -0.2214  -0.2585  -0.03242  -0.004955
72.8  0.025  -0.004879  -0.3302  0.04042  -0.2915  -0.09239  -0.02215  0.01395
72.9  0.004322  -0.02077  -0.285  0.1807  -0.3107  -0.01914  -0.001688  0.02106
73  -0.01829  -0.00569  -0.1272  0.3415  -0.2702  0.05789  0.02532  0.001289
73.1  -0.01727  0.02101  0.05452  0.3852  -0.2921  0.1054  0.02139  -0.03907
73.2  0.01235  0.03252  0.2276  0.3427  -0.2421  0.233  -0.02991  -0.0538
73.3  0.03355  0.00584  0.3568  0.1905  -0.1129  0.3232  -0.06162  0.0001091
73.4  0.0184  -0.0217  0.3683  0.0277  -0.03746  0.3474  -0.02545  0.03832
73.5  -0.01484  -0.01875  0.2818  -0.2149  0.03109  0.3219  0.02615  0.02326
73.6  -0.02327  0.01022  0.131  -0.3244  0.096  0.3008  0.03718  -0.018
73.7  -0.003029  0.03299  0.02755  -0.4009  0.2184  0.268  0.02128  -0.05301
73.8  0.02669  0.02608  -0.161  -0.4139  0.2916  0.1539  -0.02483  -0.0562
73.9  0.03389  -0.001796  -0.3888  -0.2255  0.3203  0.09927  -0.05577  -0.01316
74  0.01561  -0.02158  -0.392  0.09523  0.3317  0.06216  -0.02083  0.03279
74.1  -0.009814  -0.01761  -0.2704  0.2704  0.315  -0.0214  0.02861  0.01714
74.2  -0.0183  0.00697  -0.1719  0.3061  0.2876  -0.1369  0.03852  -0.02377
74.3  -0.002292  0.02796  -0.05454  0.3625  0.2702  -0.2239  0.01243  -0.05449
74.4  0.02778  0.01902  0.1081  0.3688  0.1797  -0.2906  -0.0235  -0.04363
74.5  0.02737  -0.007217  0.2743  0.2092  0.1576  -0.2421  -0.02584  -0.00888
74.6  0.006037  -0.02141  0.3012  0.067  0.09136  -0.2932  -0.008121  0.00883
74.7  -0.01433  -0.006652  0.3347  -0.04402  -0.04834  -0.3372  0.01441  0.01151
74.8  -0.007058  0.01607  0.2659  -0.2013  -0.1507  -0.3241  0.03577  -0.005298
74.9  0.01365  0.01829  0.1269  -0.3695  -0.2115  -0.255  0.03238  -0.04517
75  0.02381  0.003165  -0.08125  -0.3834  -0.2571  -0.2218  -0.006905  -0.06186