# GHZ S RI R 50
50	6.32092789991273E-18	-1.02321348546574E-17	0.828472721702175	-0.594099931915288	0.828472721702174	-0.594099931915287	-1.44945201491369E-18	-2.39447057129741E-18
50.1	1.65810032311526E-18	-1.2903142688818E-17	0.695699779936569	-0.710526704194582	0.695699779936569	-0.710526704194582	-2.44589898291141E-18	6.05673137092873E-18
50.2	1.1247503088677E-18	1.14586502977821E-17	0.582064011537157	-0.810037601684081	0.582064011537157	-0.810037601684081	1.62003697936235E-18	-6.00853953540388E-18
50.3	-3.610692398149E-17	-8.09127659983859E-18	0.450917600824119	-0.922078695625394	0.450917600824119	-0.922078695625395	1.86733430557485E-17	-8.73783554905798E-18
50.4	-1.90368432262962E-17	2.18068848648815E-17	0.249530476841557	-0.948237535590466	0.249530476841557	-0.948237535590467	-6.84839452635731E-18	-4.83048692480419E-18
50.5	1.16245483817363E-17	1.19188021983079E-18	0.128601431731186	-1.00386920725282	0.128601431731186	-1.00386920725282	-1.30764420673674E-18	1.49553293308987E-18
50.6	3.45609880792005E-18	-3.94528824910881E-19	-0.0568750185178889	-0.999693666657786	-0.0568750185178893	-0.999693666657786	-5.7759414492464E-18	-4.59235497451375E-18
50.7	-2.44065503330342E-17	2.10591904513829E-17	-0.204879461346358	-0.972288248017106	-0.204879461346358	-0.972288248017105	5.71381753348327E-18	8.71145044338778E-18
50.8	2.45531184794989E-17	-5.85185804588722E-18	-0.380572948784377	-0.950011311207195	-0.380572948784377	-0.950011311207196	5.88468769266671E-18	-4.36030723270553E-18
50.9	1.06493939622858E-17	-1.33974286820611E-17	-0.51266588299319	-0.83939841613837	-0.512665882993191	-0.83939841613837	1.21424042963741E-17	-1.26310913526502E-17
51	-2.77258878971331E-17	-4.26675443874208E-17	-0.660331792240081	-0.765695904993519	-0.660331792240081	-0.765695904993518	-2.47491048821018E-17	-1.44348809594169E-17
51.1	2.35133772053305E-19	1.29150532034116E-18	-0.771269840872765	-0.643529315001924	-0.771269840872765	-0.643529315001925	1.03320425627293E-17	-1.88107017642644E-18
51.2	8.1669738406762E-18	1.37667629382648E-18	-0.85951934604573	-0.50537034764615	-0.85951934604573	-0.50537034764615	-5.52964846953141E-18	-2.84408765362328E-18
51.3	1.35465824771342E-18	8.8844459224983E-18	-0.935264376427992	-0.361232895678027	-0.935264376427992	-0.361232895678027	1.18887072152416E-19	2.46318029642909E-18
51.4	3.43407953699863E-18	8.64921829739309E-18	-0.997785337328921	-0.224127979609292	-0.997785337328921	-0.224127979609292	-1.68956311963741E-17	9.06572875234599E-18
51.5	-7.0089502456162E-18	-1.10826149431492E-17	-0.987084411710052	-0.0273441336859077	-0.987084411710051	-0.0273441336859081	-2.1579541727426E-17	7.27398257624267E-18
51.6	-1.56028305368539E-17	2.68316949503739E-18	-1.00187264566412	0.0995470116821769	-1.00187264566412	0.0995470116821772	-3.09021358391408E-17	7.99564573268796E-18
51.7	3.82335836432393E-18	3.03475014451848E-18	-0.988005979700796	0.262501953496567	-0.988005979700796	0.262501953496567	-5.65544878989656E-18	-2.49583715974929E-17
51.8	1.09875751064687E-17	6.3066935597748E-19	-0.872903186468823	0.413435619450293	-0.872903186468823	0.413435619450293	1.95027989223697E-17	-9.12970123477722E-18
51.9	-1.7541077416356E-17	-6.00299109462747E-18	-0.870662990595263	0.55135718884108	-0.870662990595263	0.55135718884108	-7.35948745356915E-18	2.63348355799203E-18
52	-1.14675244182752E-17	1.63464644941769E-17	-0.709092989925356	0.692449572952907	-0.709092989925356	0.692449572952908	1.30263805938196E-17	2.56638339320261E-17
52.1	9.66954876563322E-18	6.9644581236385E-18	-0.598885534818164	0.779741581054741	-0.598885534818164	0.779741581054741	5.18302151559636E-18	-6.59054047513904E-18
52.2	-3.47307989540009E-18	-5.01800017605328E-18	-0.496077580991386	0.869759496802128	-0.496077580991386	0.869759496802127	-1.89947604157331E-17	-1.50335122616073E-17
52.3	-2.82544986114838E-18	-6.01609001031761E-18	-0.356567929989956	0.937578060380761	-0.356567929989956	0.937578060380761	-3.42023162991105E-17	-3.50851273035783E-17
52.4	2.55659739964796E-17	1.58326574147582E-17	-0.189379905047902	1.01440449079871	-0.189379905047902	1.01440449079871	4.61145716074421E-17	-4.75227283062212E-17
52.5	9.40205021324575E-18	1.85748333401941E-18	-0.053571378628821	0.956414199145237	-0.0535713786288212	0.956414199145237	2.23052315866845E-17	1.53210059871525E-17
52.6	-1.26665384580898E-17	2.25397602563189E-18	0.0905163914027277	1.02533024703672	0.0905163914027278	1.02533024703672	2.68660111295982E-17	2.5088129003122E-17
52.7	1.81518070180227E-17	3.17182043217272E-18	0.312252166059885	0.987683224763344	0.312252166059885	0.987683224763344	-3.62493763676883E-18	2.07449223063117E-17
52.8	-1.53719177880139E-17	1.19003386888187E-17	0.346930495275522	0.819787470683494	0.346930495275522	0.819787470683494	1.56096140106112E-17	3.64985126614319E-18
52.9	-2.23602818591359E-17	2.3681561686468E-17	0.63556213148555	0.910339324688572	0.63556213148555	0.910339324688572	7.88199699948125E-17	3.34896126978213E-17
53	-1.71333902495026E-17	-2.86770733420078E-18	0.647510806686776	0.698115559682323	0.647510806686777	0.698115559682324	-1.64214851717558E-17	8.6207364444672E-18
53.1	-5.63172837950339E-19	-1.47531790393006E-17	0.770079300216529	0.656579635850764	0.770079300216528	0.656579635850764	2.52529760925525E-18	-6.70154786941915E-18
53.2	-4.58324860019017E-18	1.63143869980257E-17	0.917317679220397	0.512684039767493	0.917317679220396	0.512684039767493	1.12978180123166E-18	-1.81958776780475E-18
53.3	9.44150493216718E-18	1.40847746707101E-17	0.92944638353477	0.37812774432271	0.92944638353477	0.37812774432271	-4.81492206525677E-18	9.94193926999334E-18
53.4	2.15495935317771E-17	-6.3492342820087E-18	0.961521197182117	0.166175395450278	0.961521197182116	0.166175395450277	-3.3675198363089E-17	-1.37516387483907E-17
53.5	5.24375276197319E-18	-1.51207819444243E-17	1.03215716950932	0.112276289080192	1.03215716950932	0.112276289080192	-1.89827142897122E-17	-9.44479016931289E-18
53.6	8.89233023075781E-19	1.28814602020795E-17	1.02029047581704	-0.107948785783036	1.02029047581704	-0.107948785783036	2.30255729289879E-17	-1.8932914754169E-17
53.7	6.10093669346465E-18	-1.23951741235152E-19	0.921110216348285	-0.270847788973218	0.921110216348286	-0.270847788973218	3.59837617396466E-17	3.4601374837809E-18
53.8	-6.32534206378606E-18	-1.49375241757076E-18	1.02267801012712	-0.352665627135871	1.02267801012712	-0.352665627135871	-1.04233980280705E-17	2.62054302529148E-17
53.9	-4.02667177491785E-17	-3.99468733264651E-18	0.866451373505408	-0.535967400037919	0.866451373505408	-0.53596740003792	-1.77070954539E-17	1.12877280887955E-17
54	-6.85602200165838E-18	-9.70479596144021E-19	0.754243795440475	-0.654998361401291	0.754243795440475	-0.654998361401291	-7.32559559256783E-18	1.46981898066233E-17
54.1	-3.3127082066164E-18	-8.72703226598381E-18	0.671697710895107	-0.730989831605499	0.671697710895107	-0.730989831605499	-2.69954355539689E-17	-1.48710195983896E-17
54.2	-2.76337935782899E-17	2.27115584482374E-17	0.564719817203924	-0.83887797519133	0.564719817203924	-0.83887797519133	-1.48427679207863E-17	-3.54517746901329E-18
54.3	-9.54780994997506E-18	-1.42745338780936E-17	0.381010281992427	-0.935177470703796	0.381010281992427	-0.935177470703796	-1.30964879230388E-17	3.27953736932011E-18
54.4	-4.07128435814101E-17	9.31833828841415E-18	0.319238114330179	-0.915481463807529	0.319238114330179	-0.915481463807529	-2.64017098956837E-17	2.27630544030998E-17
54.5	1.48813777922877E-17	-5.05817955933749E-18	0.101348532269605	-1.05524863102333	0.101348532269604	-1.05524863102333	-2.56812048647035E-17	-1.09363484292789E-17
54.6	-2.11924700486343E-17	-1.508476858704E-18	-0.0430662059140643	-0.982671106269753	-0.0430662059140642	-0.982671106269753	-1.61317464948486E-17	8.15588836777556E-18
54.7	-5.89940779745632E-18	8.33240169632073E-21	-0.166835873384322	-1.02351697372969	-0.166835873384322	-1.02351697372969	8.54455904436089E-18	-6.79640094953443E-18
54.8	-6.26457343529587E-18	-9.31773043566254E-18	-0.343349811574167	-0.978326151774944	-0.343349811574167	-0.978326151774944	2.91167425634909E-18	-2.33083066646105E-18
54.9	-3.42672114713928E-18	6.75127716301486E-18	-0.480668651297187	-0.889172960219953	-0.480668651297188	-0.889172960219953	-2.14609679132551E-17	-9.28308047964451E-18
55	-4.64488907669111E-19	-9.8712841309993E-18	-0.596479217946959	-0.837892551188779	-0.596479217946958	-0.837892551188779	6.30728617580541E-18	-1.82067822047764E-17
55.1	-3.72762105298871E-18	1.21900523515444E-18	-0.73245824043078	-0.733189788749533	-0.73245824043078	-0.733189788749533	-5.58123087647773E-18	-8.38998089783718E-18
55.2	-1.03424403062565E-17	2.83758167895563E-18	-0.807160121304243	-0.615533684316587	-0.807160121304243	-0.615533684316587	-1.19292122139953E-17	-9.7015289581696E-18
55.3	1.60724747115416E-18	-8.76745121638437E-19	-0.910745867027067	-0.466681670217388	-0.910745867027068	-0.466681670217389	1.586976579288E-17	-2.14907660472418E-17
55.4	1.08229800461042E-17	4.17368407741129E-19	-0.963802265229372	-0.370103976231427	-0.963802265229372	-0.370103976231426	-1.31191437604527E-17	-1.30626584893691E-17
55.5	-2.36649468823965E-18	1.13211734034347E-17	-1.02896227950406	-0.193206462418967	-1.02896227950406	-0.193206462418967	1.95326884390139E-18	1.07072455417274E-17
55.6	4.73851542951653E-18	2.33836976408206E-18	-1.01874717069778	-0.0559079376320069	-1.01874717069778	-0.0559079376320069	-1.21529615326691E-17	1.13790367108336E-17
55.7	-2.04549277823376E-18	-3.49315075434815E-18	-1.04139264351643	0.089242391657023	-1.04139264351643	0.089242391657023	7.88139763602255E-18	2.48553261002869E-18
55.8	-4.64781753810967E-18	-6.69428747743158E-19	-1.0081566933269	0.257668500486053	-1.0081566933269	0.257668500486054	6.5918580466138E-18	-3.60503603947404E-18
55.9	3.85690429989544E-18	8.03727371709628E-18	-0.964834931328549	0.390506684934584	-0.96483493132855	0.390506684934584	6.57912422123492E-18	4.09411205258607E-18
56	1.44921239750105E-17	5.40070874210875E-18	-0.870920658614368	0.532149580377518	-0.870920658614368	0.532149580377519	2.06976208599222E-17	3.09213668197629E-17
56.1	7.89493260408051E-18	9.63343161137241E-18	-0.818294374589279	0.646711096812124	-0.818294374589279	0.646711096812124	2.4832324718508E-17	9.77687788444621E-18
56.2	-1.39031860000128E-17	-4.78637855390269E-18	-0.718137358431757	0.772832239818569	-0.718137358431757	0.772832239818568	-3.39799133677051E-17	-1.37546522717247E-18
56.3	9.33426254642571E-18	1.57585525432179E-18	-0.545506374631356	0.866836495979006	-0.545506374631357	0.866836495979007	3.38577525939831E-17	2.00832308483706E-17
56.4	1.31216279245185E-17	-9.5988343052474E-18	-0.475184728575923	0.936366928967793	-0.475184728575923	0.936366928967793	1.75816942709546E-17	1.35740322475049E-18
56.5	-6.52714846998969E-18	1.8128642757226E-17	-0.31571982225344	1.01538270536378	-0.31571982225344	1.01538270536378	2.25127379090659E-17	2.26423314278082E-17
56.6	-1.44178452869651E-17	3.12497166965601E-18	-0.156376004332119	1.01507424678048	-0.156376004332118	1.01507424678048	2.17692218404392E-17	2.22207249446625E-17
56.7	-2.10737411718565E-17	9.71510631440955E-18	-0.016519016526835	1.04279782781632	-0.0165190165268348	1.04279782781632	1.3918562295393E-17	-2.2212595058044E-17
56.8	1.28533811429734E-18	-1.22868846222724E-17	0.115181657575957	1.05486974360896	0.115181657575957	1.05486974360896	-1.04141588366213E-17	-1.77029795701579E-17
56.9	-1.40587359553549E-18	1.60165830622756E-17	0.273211471789818	1.00139341445481	0.273211471789818	1.00139341445481	1.69416665828581E-17	2.68966451345945E-17
57	-2.19156937941715E-17	7.08634058328303E-18	0.437898771812121	0.918299533063815	0.437898771812121	0.918299533063814	-2.52182371165159E-17	-3.09889407812322E-18
57.1	-8.91572018702586E-18	-1.56867728699548E-17	0.549432765369812	0.87721964426547	0.549432765369812	0.877219644265471	2.51324429987622E-17	1.6323921225017E-17
57.2	6.77275242005715E-18	6.24389790229274E-18	0.6772607178151	0.816750473298502	0.677260717815101	0.816750473298502	2.58101813960868E-17	-2.09720895064349E-17
57.3	2.36186637721475E-17	-6.10602906547389E-18	0.822350071856345	0.636788167905521	0.822350071856345	0.636788167905521	4.31959503042934E-17	-5.35251362995824E-18
57.4	3.29755953724687E-18	-3.29151558671654E-18	0.833542224156631	0.550183218296682	0.833542224156631	0.550183218296682	-1.62762594176728E-18	-2.14160051405137E-17
57.5	2.11784951985074E-17	7.42789500261665E-18	0.962821526920292	0.44107948561438	0.962821526920292	0.44107948561438	3.31853759314877E-17	1.76268555263603E-17
57.6	-2.17007385326878E-17	1.63706198094413E-17	1.01763023671109	0.273032060989689	1.01763023671109	0.273032060989689	-2.22223973983692E-17	2.4967010583625E-17
57.7	8.96126670222872E-18	1.31999813601615E-17	1.0014112170926	0.124683319753573	1.0014112170926	0.124683319753573	8.99646854832531E-18	4.53307971648448E-19
57.8	1.32667598996599E-17	8.6304807194329E-18	1.04707273766018	0.00283399737224728	1.04707273766018	0.00283399737224728	5.61295217642099E-18	1.71477137801919E-17
57.9	6.32402719150987E-18	-2.0139826386769E-17	1.05054289234993	-0.130417223600707	1.05054289234993	-0.130417223600707	2.10260709613581E-17	-3.58765106073841E-17
58	6.11878603386106E-19	6.62008042442887E-18	0.979086288623325	-0.338430899247478	0.979086288623325	-0.338430899247478	-6.4317492323694E-18	3.86632944634857E-18
58.1	2.26391713048194E-17	1.36817275623618E-17	0.909786446940902	-0.41837310464168	0.909786446940903	-0.418373104641681	2.53438741658343E-17	2.63114429916567E-17
58.2	-6.10328626481436E-18	-2.68841015181901E-18	0.877843956413937	-0.572556198795219	0.877843956413937	-0.572556198795219	4.08979885942093E-18	-2.11020497978587E-17
58.3	-4.3419695831384E-18	-1.55043420814874E-17	0.767893250374926	-0.704739819163002	0.767893250374926	-0.704739819163002	-2.33371793522266E-17	7.45172591855222E-18
58.4	6.59035629516015E-18	1.29111599240848E-17	0.658620592253828	-0.737733870654365	0.658620592253828	-0.737733870654365	7.2789796966662E-18	-1.10727252412889E-17
58.5	-3.70787260017622E-18	-9.0070439352014E-18	0.589704027756195	-0.880476828803828	0.589704027756194	-0.880476828803827	1.27303898787917E-18	-1.73775683764632E-17
58.6	8.52661713521765E-18	-1.00784680153548E-17	0.424948203280756	-0.946389744498409	0.424948203280756	-0.946389744498408	-1.98455383300177E-17	1.56555120899554E-19
58.7	-1.06037199934774E-18	-4.82276129522962E-18	0.281562036279918	-0.962873845058344	0.281562036279918	-0.962873845058344	-1.51437882098224E-17	5.85758964549496E-18
58.8	-1.139305786134E-18	-8.03051436735478E-18	0.164273321521209	-1.0092162810514	0.164273321521209	-1.0092162810514	7.20372195996268E-19	-3.58386447404588E-18
58.9	-9.86789138051998E-18	-1.87311964578864E-17	0.0408683356316097	-1.04140299171153	0.0408683356316097	-1.04140299171153	-7.07079783473289E-18	-6.22598009052386E-18
59	1.09908977828259E-17	-4.18000954144375E-18	-0.145648749011584	-1.00924222906765	-0.145648749011584	-1.00924222906765	1.8521520725224E-17	-7.34003728863001E-18
59.1	-1.89446677071277E-19	6.19046909531628E-18	-0.249601841641764	-0.982681503841787	-0.249601841641764	-0.982681503841787	-8.10518055584078E-18	-3.7153834799192E-18
59.2	-2.71806734820401E-17	-3.09945745459991E-18	-0.386138197285315	-0.977493176693663	-0.386138197285315	-0.977493176693663	-2.43979139111661E-17	-1.26871420428991E-19
59.3	-7.89068870128535E-18	-2.15119819352914E-18	-0.545160939699077	-0.857359536074846	-0.545160939699077	-0.857359536074846	-1.62448317320399E-17	3.01937567272979E-18
59.4	-9.65773478793716E-18	-1.8458347698406E-17	-0.622483472958335	-0.809083736369721	-0.622483472958335	-0.80908373636972	-6.77695487009378E-18	-1.6759241522652E-17
59.5	9.77113006936885E-18	5.87067222923415E-18	-0.758829857911883	-0.707696949902755	-0.758829857911882	-0.707696949902755	-3.54747152793221E-18	2.82202194693532E-18
59.6	4.10301165551437E-18	-1.68425002076481E-17	-0.83520755794769	-0.575984536204959	-0.835207557947691	-0.575984536204959	-9.53827216101456E-18	5.05928776352874E-18
59.7	-1.64278028318764E-18	-5.66471493160654E-18	-0.918104559201926	-0.481941792280825	-0.918104559201925	-0.481941792280825	-3.85343819967699E-18	-6.40537219918203E-18
59.8	2.31315753154547E-18	-1.50514500873184E-17	-0.985183428315779	-0.343867184154563	-0.985183428315779	-0.343867184154563	3.69644309557873E-18	2.93838088731122E-18
59.9	-1.05215089423232E-17	-1.2729669565695E-17	-1.01030972852136	-0.216769303520656	-1.01030972852136	-0.216769303520656	-8.65771763788685E-18	-8.97180549277777E-18
60	6.76065105667174E-18	6.20871985869632E-18	-1.02745320784326	-0.0510891061458778	-1.02745320784326	-0.0510891061458781	3.00772135784974E-18	-2.09165728239815E-17
60.1	-7.21697928324944E-18	6.55048480576854E-18	-1.01641329162823	0.0758746872286499	-1.01641329162823	0.0758746872286501	-2.22768637572342E-17	3.34454862231202E-18
60.2	8.18915548420755E-18	-1.14022530681153E-17	-1.02564707206323	0.196530857109643	-1.02564707206323	0.196530857109643	2.4628784491908E-17	-1.99786701669201E-17
60.3	-7.98187742750209E-18	2.2539509230504E-18	-0.964214511320798	0.373354034378839	-0.964214511320799	0.373354034378839	1.28252860546494E-17	6.5049185504257E-18
60.4	-9.38142228176825E-18	-6.97640354293377E-18	-0.901197111575852	0.45290045804407	-0.901197111575853	0.45290045804407	-8.17496628401811E-20	1.58856882759141E-18
60.5	-2.07767483641657E-18	2.78386625209083E-19	-0.846026925653736	0.604206529221149	-0.846026925653736	0.60420652922115	-3.38200203383864E-18	-3.14230594661546E-18
60.6	-6.99379022625645E-18	8.81229110478988E-18	-0.750484593498933	0.706665720164006	-0.750484593498932	0.706665720164006	-1.44653283390599E-19	-1.29353292709581E-17
60.7	1.27495331405757E-17	1.03642966469009E-17	-0.643983691500747	0.805760375456993	-0.643983691500747	0.805760375456992	5.83825955768273E-18	9.08785612057982E-18
60.8	-6.74722781648848E-18	-4.60364392190529E-18	-0.532119677747789	0.892544308272079	-0.532119677747789	0.89254430827208	4.38662100380101E-18	-3.70212100465916E-18
60.9	-2.11533455565453E-18	2.4651399864817E-17	-0.415508711080876	0.955302252755552	-0.415508711080876	0.955302252755552	3.30257552759076E-18	7.82107569800862E-19
61	-1.85758685908895E-17	2.26651113003005E-18	-0.268060939473499	1.00344939311665	-0.268060939473499	1.00344939311665	-6.73537609474088E-18	1.12377671823794E-17
61.1	-1.08322551482417E-17	5.63856781280629E-18	-0.129000124442928	1.01482617140448	-0.129000124442928	1.01482617140448	-1.04888783799444E-17	1.79150756671857E-17
61.2	-5.32663403826209E-18	-1.49453110867037E-17	-0.00713900556043928	1.03109066415888	-0.00713900556043946	1.03109066415888	-9.54012738806552E-19	2.2924549037012E-18
61.3	-2.59200846634615E-18	-7.71142164965017E-18	0.138922420686935	1.04031854013678	0.138922420686935	1.04031854013678	-9.35920942097088E-18	-7.10892968199746E-18
61.4	5.43365559626466E-18	6.94135390520083E-18	0.307870953682855	0.986485694703741	0.307870953682855	0.986485694703741	6.80262838749383E-18	1.47227158022604E-17
61.5	-2.87509107458907E-17	2.17447747377146E-17	0.387680290270701	0.937565356008932	0.387680290270701	0.937565356008932	-2.36912207041425E-18	1.4175328135251E-18
61.6	-2.66706042742175E-18	-3.24046480905138E-17	0.546324849884874	0.909778634211418	0.546324849884874	0.909778634211418	-5.4648061730547E-18	-8.44236456145564E-18
61.7	3.31488442640136E-17	-1.12064914596496E-17	0.669025415933247	0.806977999648829	0.669025415933247	0.806977999648829	1.66440263197173E-17	-1.62586028737642E-17
61.8	5.45732287705551E-18	-3.56426888387661E-19	0.748119987177451	0.700852916909592	0.748119987177452	0.700852916909592	7.34705063296416E-18	1.4591806542117E-17
61.9	-1.03389687680444E-18	-1.35967560067309E-17	0.844384187301004	0.590937566510877	0.844384187301004	0.590937566510877	-7.90124651885146E-18	1.19507852700156E-17
62	1.66773418689278E-17	4.90302651623914E-18	0.916273346539348	0.497333060582023	0.916273346539347	0.497333060582023	2.39486760994539E-17	9.17237333199023E-18
62.1	1.54922695392175E-17	1.16314330663724E-17	0.993167968235045	0.359141894440981	0.993167968235046	0.359141894440981	1.73546513109079E-17	-2.70751621822309E-18
