# GHZ S RI R 50
50	1.5775298699726E-18	1.11576487446209E-17	0.834233165267383	-0.60036745808062	0.834233165267383	-0.60036745808062	1.33095445967973E-17	-1.19692053067869E-17
50.1	-4.78647734290254E-17	4.66445090673836E-18	0.700276073284939	-0.717678373710179	0.70027607328494	-0.71767837371018	6.54654673288282E-18	-1.76077252527797E-17
50.2	6.74658481756664E-18	1.29955417724703E-17	0.58533904981649	-0.817898384318575	0.585339049816489	-0.817898384318575	-3.88808328644902E-18	-5.28784999442215E-19
50.3	1.78416416745977E-17	1.10870244843952E-17	0.452745200273327	-0.930437198606918	0.452745200273326	-0.930437198606917	-1.16345294862723E-17	3.22338701903935E-18
50.4	-1.45447163018542E-19	-4.94279521210838E-18	0.249900677785224	-0.956704727458014	0.249900677785224	-0.956704727458014	6.09725013477984E-18	-4.70422684441045E-19
50.5	4.00937510593399E-18	-1.20239189220798E-17	0.127490486215143	-1.01236363085243	0.127490486215143	-1.01236363085243	-1.34337053485267E-18	5.24906314766652E-18
50.6	-4.74814999909201E-18	5.01319708859682E-18	-0.0594334326504834	-1.00783855236485	-0.0594334326504833	-1.00783855236485	1.75589788319791E-18	-2.07817460200685E-19
50.7	-1.75118771446727E-17	-5.05475694111347E-18	-0.208780242312682	-0.979905977042098	-0.208780242312682	-0.979905977042098	3.00968722788513E-18	2.47039030527929E-18
50.8	-2.96541522778848E-17	-2.01480689163841E-17	-0.385793739737898	-0.956849030449525	-0.385793739737898	-0.956849030449526	-4.77848267135633E-18	1.10095344880444E-17
50.9	-1.43010368122826E-18	-1.60350586242761E-17	-0.518896767872758	-0.84525319519822	-0.518896767872758	-0.84525319519822	6.10968415218154E-18	-7.26500941416144E-19
51	-1.14110908949668E-17	3.36716562090997E-18	-0.667539374046685	-0.77040268136179	-0.667539374046686	-0.77040268136179	-4.59483561773092E-18	6.62381614548788E-18
51.1	1.18018025856741E-17	5.03319039690215E-18	-0.779168773941823	-0.646959207171444	-0.779168773941823	-0.646959207171444	-4.15198634857449E-18	-2.84367342847576E-18
51.2	2.00179693811219E-18	-1.52101359643055E-17	-0.867881433460424	-0.507430179858277	-0.867881433460424	-0.507430179858277	-6.30363986961397E-18	-4.75936203924888E-19
51.3	-3.76464820771932E-18	-1.47049916570145E-17	-0.94387987173333	-0.361848829162339	-0.94387987173333	-0.361848829162339	6.05819083917755E-18	-4.08842212771314E-18
51.4	7.07286000858375E-18	2.28320249157407E-18	-1.00646816204276	-0.22327335803449	-1.00646816204276	-0.22327335803449	1.03029103919514E-17	-2.78670591903336E-19
51.5	-1.00098885341358E-17	-1.49270828033628E-17	-0.995391901240988	-0.0250881319897395	-0.995391901240988	-0.0250881319897396	-1.64912502215676E-17	2.61227376671261E-18
51.6	-1.22630168830138E-17	8.00777947356507E-18	-1.00981835975083	0.10317766030465	-1.00981835975083	0.10317766030465	-8.35288577639428E-18	2.63747882569886E-18
51.7	6.31909100553898E-18	1.55027494297019E-17	-0.995269449351645	0.267459202616156	-0.995269449351646	0.267459202616156	1.66743013484602E-17	9.86971637060657E-19
51.8	-7.10931031188959E-18	-2.58764705687461E-17	-0.879181569182267	0.419369081171499	-0.879181569182268	0.419369081171499	-7.92380877912979E-19	3.5941667571848E-18
51.9	1.81254288748139E-17	-1.45372891646607E-17	-0.875996506791799	0.558478876807356	-0.875996506791799	0.558478876807356	7.57948493148002E-18	1.46312442350154E-18
52	-1.18196414281184E-17	3.05423361134599E-17	-0.713066185189324	0.700196871267303	-0.713066185189324	0.700196871267303	-1.28040808402349E-17	3.70224936283992E-17
52.1	1.43997024914376E-17	1.06484331661861E-17	-0.601602758386268	0.788054994920721	-0.601602758386268	0.78805499492072	8.89276824283593E-19	-1.61520856499569E-17
52.2	1.73595870802422E-17	4.01853654044738E-18	-0.497436226790072	0.878521395071765	-0.497436226790072	0.878521395071766	-2.89595849940674E-17	3.07762855930699E-17
52.3	3.78948843868249E-18	5.09736180847159E-18	-0.356488512465105	0.946482309946797	-0.356488512465105	0.946482309946797	6.72798610611023E-18	-3.18725888213562E-17
52.4	-9.86391995987318E-18	-5.75333364318846E-18	-0.187714675414087	1.02320784579959	-0.187714675414087	1.02320784579959	-2.73680125730965E-17	2.97699571041754E-17
52.5	1.30973621795997E-17	-8.38653836759828E-18	-0.0507950875316624	0.964805855267611	-0.0507950875316623	0.964805855267611	-2.55042850741641E-18	2.41543815532662E-17
52.6	1.57834019734255E-17	-2.76187907103744E-17	0.0948568105788958	1.03335398190651	0.0948568105788956	1.03335398190651	-4.68029675858545E-17	-6.53225612313894E-18
52.7	8.69712950693099E-18	-7.35323206541492E-18	0.317919490045244	0.99467044388519	0.317919490045244	0.99467044388519	-7.72960378675216E-18	2.1757904218215E-17
52.8	1.94342579238698E-17	-1.62780643756108E-17	0.353075408177376	0.82598324721039	0.353075408177375	0.82598324721039	-1.30040433489378E-17	-2.79232619859078E-17
52.9	6.95844377740126E-18	2.55745916807187E-17	0.643537455682096	0.915172148862635	0.643537455682097	0.915172148862635	-1.69870640328068E-17	2.15819427048583E-17
53	-1.15964814793677E-18	-6.49495805029123E-18	0.655548252392486	0.701920119446935	0.655548252392486	0.701920119446935	2.02016241076866E-18	-2.95341403799048E-17
53.1	-1.43217179043677E-18	-1.94477647691413E-17	0.778948023126146	0.659121134835973	0.778948023126145	0.659121134835972	-1.64922464960445E-17	-1.09682432510718E-17
53.2	-4.0241002548513E-18	-1.01111069914801E-17	0.926551183828938	0.513523691640441	0.926551183828938	0.513523691640441	2.95079291632676E-17	-1.15564022302633E-17
53.3	-2.55262528276885E-18	1.35544091152364E-17	0.938667735041778	0.377758722288923	0.938667735041778	0.377758722288923	-4.34954599107934E-18	-2.88021215831455E-17
53.4	1.43502903357838E-17	-3.34892715794767E-19	0.9703010169059	0.164281157519237	0.9703010169059	0.164281157519237	-1.87602485666213E-17	-7.42964728477734E-18
53.5	1.05873875373927E-17	-1.33024853683551E-17	1.04109174212402	0.108973730721868	1.04109174212402	0.108973730721867	-2.03031661729751E-17	-9.64051584388661E-18
53.6	1.80210160029594E-17	-1.9471443080059E-19	1.02831138064877	-0.112688397391681	1.02831138064877	-0.112688397391681	2.01332766807188E-18	5.04119814161613E-19
53.7	2.02167330589249E-17	1.01077542692493E-17	0.928133240791902	-0.27651127593947	0.928133240791902	-0.27651127593947	1.23208404345664E-17	-9.02832221000673E-18
53.8	-2.49141077825966E-17	-2.79553531472716E-17	1.02935801188213	-0.359970086663099	1.02935801188213	-0.359970086663099	6.45316753737422E-18	-5.14224902582136E-18
53.9	-1.16009568466925E-17	-1.5866714286716E-17	0.871564363071823	-0.543884052277674	0.871564363071823	-0.543884052277674	-1.34998887303754E-17	-2.24008993000613E-17
54	1.22060599075222E-17	4.15964944280551E-17	0.758061992574404	-0.663531338984109	0.758061992574403	-0.663531338984108	1.25622799364683E-17	1.23357016299038E-17
54.1	1.41135396688563E-17	-7.86431104962135E-18	0.674362422786715	-0.74009382730055	0.674362422786714	-0.740093827300549	-1.73157136708308E-17	1.61284520359975E-18
54.2	-1.03439320393913E-17	9.1894460419482E-18	0.565905806117371	-0.848411036921516	0.565905806117371	-0.848411036921516	-5.70480721663938E-19	3.15038390509983E-17
54.3	9.37564673711983E-18	2.39909198697788E-17	0.380489627833299	-0.944608000487794	0.380489627833299	-0.944608000487794	1.78556091791038E-17	2.19537103545299E-18
54.4	-2.03985298456965E-18	2.61818265956717E-18	0.317806576745289	-0.925008536730064	0.317806576745289	-0.925008536730064	2.00622676419628E-17	2.8253077824398E-17
54.5	2.61966452808291E-17	1.08981659266494E-17	0.0977348259229437	-1.06433078563611	0.0977348259229437	-1.06433078563611	1.3856543966112E-17	-9.52575057310104E-18
54.6	-8.82645251406842E-18	-2.58111734851572E-18	-0.0476105562008945	-0.991030100902681	-0.0476105562008945	-0.991030100902682	3.03319871949448E-17	-2.35080349873824E-17
54.7	2.69870890237325E-18	7.09644694181474E-18	-0.172883948756219	-1.03137720094288	-0.172883948756219	-1.03137720094288	5.82869296297714E-18	-2.01055432808523E-18
54.8	1.08634518811151E-17	5.82481387952948E-18	-0.350567687056261	-0.98503562686493	-0.350567687056261	-0.98503562686493	1.17600024577448E-17	-9.58460148409315E-18
54.9	-1.42422302985876E-18	-1.01887055689806E-17	-0.488693504451242	-0.894689265890372	-0.488693504451241	-0.894689265890371	-1.66462435897046E-19	-9.74914960966431E-18
55	1.04094664024104E-18	-3.09610887059125E-18	-0.605426545153666	-0.842279953832895	-0.605426545153666	-0.842279953832895	8.9223997734946E-19	-2.65380760336393E-18
55.1	1.04593180393876E-17	4.56449653308291E-18	-0.742010527828489	-0.736060750518891	-0.742010527828489	-0.736060750518891	3.85842951567871E-18	8.4964935159565E-18
55.2	-4.77595164047703E-18	-1.00521409655045E-18	-0.817006703294392	-0.617082366845681	-0.817006703294392	-0.617082366845681	-2.864024387827E-18	-6.74795078964193E-18
55.3	2.73207140104663E-18	3.72562694204476E-18	-0.92067230751862	-0.466545521631124	-0.92067230751862	-0.466545521631124	-5.91144913224065E-18	1.69390077558477E-17
55.4	-5.65517045555099E-18	-1.06443833839299E-17	-0.973879684199234	-0.368610905222966	-0.973879684199234	-0.368610905222966	-1.36855295476429E-17	-5.8170846264001E-18
55.5	-1.3150900831448E-17	7.42859788772447E-18	-1.03860465278528	-0.189996350987204	-1.03860465278528	-0.189996350987204	-7.28566255547728E-18	1.3784365841289E-17
55.6	-4.10568908197757E-18	-1.88782732003699E-17	-1.02786872950882	-0.0514797858968713	-1.02786872950882	-0.0514797858968713	-2.74608214292602E-18	8.95722881193175E-18
55.7	7.01983981237967E-18	-7.16226692069573E-18	-1.04988124063721	0.0951567982285571	-1.04988124063721	0.095156798228557	3.99397689994402E-18	7.10898186668097E-18
55.8	-4.35744737578128E-18	1.66702092850225E-17	-1.01556872561199	0.264799321984554	-1.01556872561199	0.264799321984554	-2.38266220404043E-19	1.32706698111424E-17
55.9	2.68691705622847E-18	2.72109556560806E-18	-0.971218201303145	0.398700885530179	-0.971218201303145	0.398700885530179	-6.64893562181199E-18	-1.76187641576932E-17
56	-1.31576338592634E-17	-4.17240448784671E-19	-0.87593630103037	0.541079757140568	-0.875936301030369	0.541079757140569	1.31585804958578E-17	-1.63866942411881E-18
56.1	-7.23965466271837E-18	-1.14857556129388E-17	-0.82207702791008	0.656536050042521	-0.822077027910079	0.656536050042521	2.90901532036637E-17	-3.27801095060718E-17
56.2	6.93159517701374E-18	-2.55175192759742E-18	-0.72034576151077	0.783208066321376	-0.72034576151077	0.783208066321376	7.18386901689508E-18	1.51672757655759E-17
56.3	8.69664365438306E-18	-1.50353894972955E-19	-0.546040628446341	0.877107565874036	-0.546040628446341	0.877107565874037	-8.11929851971682E-18	-2.48976757439706E-17
56.4	7.79311467927885E-18	-5.82800352966342E-18	-0.474352089893626	0.947065449171179	-0.474352089893625	0.947065449171179	3.46423288672403E-17	8.264424113559E-19
56.5	4.55502593470066E-18	-2.82057026992857E-17	-0.313119736333429	1.02580723574249	-0.313119736333429	1.02580723574249	1.5568941686732E-17	-1.5979925207873E-17
56.6	-1.67141353134753E-17	-2.65234433644091E-18	-0.152477606099769	1.02489054473717	-0.152477606099769	1.02489054473717	2.86618408769539E-18	-3.02146624232115E-18
56.7	-4.05519096834368E-20	1.91988383987373E-18	-0.0111097553483349	1.05207466908613	-0.0111097553483346	1.05207466908613	-2.73092203354247E-18	3.83571248877912E-17
56.8	-6.75324763260555E-19	-2.90419258192442E-18	0.122020162804548	1.06348058148905	0.122020162804548	1.06348058148906	2.39893275907916E-18	-5.77007728061021E-17
56.9	1.65561295204513E-17	2.55623099420615E-17	0.281101677207001	1.00882172438315	0.281101677207001	1.00882172438315	1.29258139152731E-17	1.21958357896913E-17
57	6.2720483635015E-18	-2.02505908416092E-18	0.446645576523346	0.924264136050378	0.446645576523347	0.924264136050377	-3.31635466634562E-17	-1.11356310563562E-17
57.1	-7.46703182130881E-18	1.582906574539E-17	0.559183647161685	0.882061438705634	0.559183647161685	0.882061438705634	-7.55549110271311E-18	2.7120110024047E-18
57.2	2.78625534291458E-17	7.95322445522824E-18	0.687883227549445	0.82015040595049	0.687883227549445	0.82015040595049	4.27156848304139E-17	9.56965270334801E-18
57.3	-2.75904181042631E-17	1.13922557716266E-17	0.832927489239245	0.638162185416533	0.832927489239246	0.638162185416533	-2.58834041184855E-17	2.87352347759726E-17
57.4	2.24822803256538E-18	1.05667423272605E-17	0.844348680305204	0.55063725753112	0.844348680305204	0.55063725753112	3.55378317530355E-19	8.06524711119551E-19
57.5	-5.04451011739374E-18	-3.47290647240366E-18	0.973901763883834	0.439547460801353	0.973901763883834	0.439547460801353	-4.43315196083481E-18	-2.03146447204687E-18
57.6	-6.62128785959302E-18	7.6844813118536E-19	1.02821791361963	0.269818906696976	1.02821791361963	0.269818906696976	-1.51676513271301E-17	4.95232335447909E-18
57.7	-5.24761510738941E-18	-1.26632960589708E-18	1.01134570760665	0.120299997615231	1.01134570760665	0.120299997615232	-7.39017176130316E-18	-2.30706269920859E-17
57.8	2.85203542987258E-18	-8.73213269062167E-18	1.05658050813565	-0.00320128031786363	1.05658050813565	-0.00320128031786352	-3.40541303929642E-17	-2.69065071337838E-17
57.9	8.09426135998405E-18	5.91954101042775E-18	1.05927956442023	-0.137858809925786	1.05927956442023	-0.137858809925786	6.19716183183598E-19	1.00742379037512E-17
58	-3.42897160781571E-18	-3.32430179289412E-18	0.986099911956239	-0.34690224020906	0.98609991195624	-0.34690224020906	-7.7471645178599E-18	-2.78140174636972E-17
58.1	-1.13109118387008E-17	-1.40997770861786E-17	0.915947133163342	-0.427567629709869	0.915947133163343	-0.42756762970987	-5.0513649663515E-18	-1.57928191848401E-17
58.2	-8.68228666710875E-19	1.43978525074562E-17	0.882498172312908	-0.582953575153093	0.882498172312907	-0.582953575153093	1.90273059351672E-17	2.71054647246188E-17
58.3	1.69080608691804E-18	2.89928903564471E-17	0.770857805808337	-0.715610423649878	0.770857805808337	-0.715610423649878	1.40287621636778E-17	1.83644725893357E-17
58.4	4.37809069728122E-17	2.93605503737171E-17	0.660562510615074	-0.748764512967551	0.660562510615074	-0.748764512967551	1.75822795061085E-17	-1.26680425151371E-17
58.5	7.3336557167805E-18	-1.82217543441427E-17	0.58968798722469	-0.892220682092984	0.589687987224691	-0.892220682092985	3.02407841380005E-18	-1.31505107031805E-17
58.6	2.38256502002977E-17	3.74673645688116E-17	0.423230601722667	-0.957741245312227	0.423230601722667	-0.957741245312226	2.17570957239477E-17	9.77035037582846E-18
58.7	8.33153522276662E-18	2.19623910234214E-17	0.278502864429506	-0.973769565646903	0.278502864429506	-0.973769565646903	1.60322294405573E-17	-4.95007520250592E-19
58.8	8.16943645789356E-18	-1.26128365263697E-18	0.159595349924376	-1.01982872352502	0.159595349924376	-1.01982872352502	3.76939731578754E-18	-2.67300094079188E-18
58.9	-1.28492955106687E-18	-9.70597336993501E-18	0.0345941916756354	-1.05150790478673	0.0345941916756358	-1.05150790478673	-1.78458269671146E-17	-3.58123174679485E-17
59	3.00697773213433E-17	-1.16642005695271E-17	-0.153189061113449	-1.017969164717	-0.153189061113449	-1.017969164717	4.31114052009351E-17	-1.61611670696585E-17
59.1	6.29911552456482E-18	-4.56579075832481E-18	-0.258273011869241	-0.990607182372324	-0.258273011869241	-0.990607182372325	6.94565175697843E-18	4.96764360970355E-18
59.2	1.01616108882759E-17	9.87043718165311E-18	-0.396236355253305	-0.98423348396032	-0.396236355253305	-0.98423348396032	2.39005031780376E-17	1.78268356720648E-17
59.3	-1.45429603286357E-17	1.43876628018344E-17	-0.555717632815331	-0.862242545798563	-0.555717632815331	-0.862242545798563	1.53416040286989E-18	5.45623672359627E-18
59.4	6.76429890779305E-18	-2.10151826643412E-18	-0.633891946781762	-0.812870637603689	-0.633891946781763	-0.812870637603689	-1.42858454763485E-17	-1.68935558733762E-17
59.5	8.37206769257547E-19	-1.29642124708171E-17	-0.770723888618523	-0.709561044170398	-0.770723888618522	-0.709561044170398	-5.32603882917048E-18	-1.81851031555276E-17
59.6	6.97381532128854E-18	-9.60524453137858E-18	-0.847079359146479	-0.576241339042037	-0.84707935914648	-0.576241339042036	6.43969682020263E-18	-3.52162671189989E-18
59.7	8.44261616755412E-19	4.06448047508312E-18	-0.930224260778689	-0.480496574161298	-0.930224260778689	-0.480496574161298	-5.62784083952966E-18	-3.0013441327639E-18
59.8	2.56907425557551E-17	7.70172096512197E-18	-0.996996169469705	-0.340624058661268	-0.996996169469705	-0.340624058661268	-1.21557324833018E-17	1.55168728779538E-18
59.9	-1.98440815562255E-17	2.20168655211298E-17	-1.02168194201119	-0.212040184891426	-1.02168194201119	-0.212040184891426	2.49452865010102E-18	1.0861294347674E-17
60	-7.25239681464754E-19	8.39295112268449E-18	-1.0378633592685	-0.0447577878408592	-1.0378633592685	-0.0447577878408592	2.44674048590464E-18	2.60480393645719E-17
60.1	9.03960001412067E-18	9.69497233265512E-18	-1.02600008836204	0.08350917306548	-1.02600008836204	0.0835091730654798	2.0205679443057E-17	1.53160401607721E-17
60.2	4.11809144432436E-17	-3.16708250403724E-17	-1.03436964807338	0.205694098570637	-1.03436964807338	0.205694098570638	8.32806542006099E-18	-7.62518879492726E-18
60.3	-7.39949223261701E-18	-1.89792772376479E-17	-0.971181787072332	0.383546230423609	-0.971181787072332	0.383546230423609	4.81130275016143E-18	-3.8548741447239E-18
60.4	-2.28517279552745E-17	1.26739170971547E-18	-0.90717389356063	0.463850859959076	-0.90717389356063	0.463850859959076	-6.20461602105345E-18	5.51526474329349E-18
60.5	2.44443138687078E-18	4.82544554313448E-18	-0.85017678642273	0.61616577739344	-0.85017678642273	0.616165777393439	-1.13591827031332E-18	-3.72033461916203E-19
60.6	2.76038865079629E-18	2.17771867836451E-17	-0.75301207561053	0.719069265409406	-0.753012075610529	0.719069265409405	-1.02455885147977E-17	-2.35532402033573E-18
60.7	-1.98839293289885E-17	1.8829402128296E-18	-0.644737362639676	0.818428272482609	-0.644737362639676	0.818428272482608	5.52582608236964E-18	-5.20446557394619E-18
60.8	-1.75995446471943E-18	1.25757792281295E-18	-0.531060430026867	0.905307508080755	-0.531060430026866	0.905307508080755	-1.5571978180337E-17	-1.42012061589517E-18
60.9	1.44604287464406E-18	-1.65268433429512E-17	-0.412728921382753	0.967948256362512	-0.412728921382753	0.967948256362512	6.20908055985618E-18	-4.62618557696937E-18
61	-1.86797317431236E-17	-7.66261579581247E-18	-0.26350725525626	1.01550952116056	-0.26350725525626	1.01550952116056	2.03854493075086E-18	2.2268543551161E-18
61.1	1.620372249373E-17	3.93997382131364E-18	-0.122964250260981	1.0261520312113	-0.122964250260981	1.0261520312113	2.1305940422259E-17	-6.26056739625012E-18
61.2	6.58074583839044E-18	-8.9477308946915E-18	0.000465074961713158	1.04172178923708	0.000465074961713761	1.04172178923708	6.57948518347341E-18	-1.03596016060197E-17
61.3	1.5994303005142E-17	2.73545510711695E-17	0.148150913236999	1.04983095615242	0.148150913236999	1.04983095615242	9.35584801709484E-18	6.94464515954253E-18
61.4	2.1344390433431E-18	-6.16587475381022E-18	0.318172968366113	0.994311508435695	0.318172968366113	0.994311508435696	2.77075614047119E-18	4.7002642556467E-18
61.5	-1.64098469991084E-17	-2.10492834700148E-17	0.398890756327002	0.944467690732581	0.398890756327002	0.944467690732581	-5.46470841928762E-19	7.09970285215309E-18
61.6	4.54989585135819E-18	-8.86901171670498E-18	0.558866837257414	0.914822069509333	0.558866837257414	0.914822069509333	-6.68637578543044E-18	-6.92339958034232E-20
61.7	6.08270429599691E-18	-9.21562182039734E-19	0.681988596244725	0.810172294165206	0.681988596244725	0.810172294165205	6.08270429599691E-18	-9.21562182039734E-19
61.8	5.90248102661331E-18	3.72674274360727E-18	0.761303963422056	0.702484451333507	0.761303963422057	0.702484451333507	4.9058176809513E-18	1.45450813059935E-17
61.9	-3.62465204790207E-18	2.47945658704938E-17	0.857717754420809	0.590658842105456	0.857717754420809	0.590658842105456	-9.24298482031109E-19	2.5274087701426E-17
62	1.61110401925775E-18	2.39660584263911E-18	0.929774217496146	0.495299174439357	0.929774217496146	0.495299174439357	1.78904106171406E-17	7.3203466005465E-19
62.1	-6.42634696805236E-18	-1.40591196721467E-17	1.00625675236093	0.35505066727337	1.00625675236093	0.35505066727337	-2.92222901895778E-17	-1.51464730246907E-18
