# GHZ S RI R 50
50	2.04181525444078E-17	1.22751317090597E-17	0.796929695981564	-0.569294900918981	0.796929695981565	-0.569294900918982	-8.22572779684148E-18	1.21318027100565E-17
50.1	2.19091876627708E-17	-1.14745702245422E-18	0.669350198361582	-0.680353951733611	0.669350198361582	-0.680353951733611	-5.36242680900195E-18	1.03599716023134E-17
50.2	1.77098791008152E-17	9.24879367096634E-18	0.561463912182277	-0.776082449132016	0.561463912182277	-0.776082449132017	2.48986806144805E-19	7.55892376583357E-19
50.3	2.77954787099623E-18	2.92341472899145E-18	0.436085104209434	-0.885187120498353	0.436085104209434	-0.885187120498353	4.09551541636746E-19	6.0765169744741E-18
50.4	-1.79034091276906E-17	6.54197081472128E-18	0.242069442363759	-0.908914550685405	0.242069442363759	-0.908914550685405	7.04774371517209E-18	-3.03574795759894E-18
50.5	1.28082594728974E-17	1.87434304527075E-17	0.127411427198851	-0.964398085200941	0.127411427198852	-0.964398085200941	-1.07303847059137E-17	-1.18576915395032E-18
50.6	8.06368374447316E-18	-5.19462368406959E-20	-0.0510053377059447	-0.96045992495502	-0.0510053377059449	-0.96045992495502	3.36144412928043E-18	1.25581384123031E-18
50.7	1.29610115505853E-17	-9.87205678397792E-18	-0.192421891124373	-0.934949183703007	-0.192421891124373	-0.934949183703007	-1.4521435996781E-18	6.24169778478267E-19
50.8	4.69905306437653E-18	-1.70835983640665E-17	-0.362180924886441	-0.914977644599744	-0.362180924886441	-0.914977644599744	1.454676739472E-17	-9.04785076010574E-18
50.9	5.9066444436949E-18	-1.78751144866776E-17	-0.488225837597301	-0.808510181544547	-0.488225837597301	-0.808510181544547	1.72667083220253E-18	-1.65770317480959E-17
51	2.72965267911483E-19	8.7535416300277E-18	-0.631227124570381	-0.739048483381308	-0.631227124570381	-0.739048483381308	-9.11780096356251E-18	5.19260798021061E-18
51.1	-8.33166519165604E-18	8.81040305385696E-18	-0.738083864099876	-0.622297245257141	-0.738083864099877	-0.622297245257141	2.14002941890972E-18	2.91384328575814E-18
51.2	5.36421321942853E-18	-1.01533812322031E-17	-0.823245270846186	-0.490152707781874	-0.823245270846186	-0.490152707781875	1.51782440444249E-18	2.79995400943784E-18
51.3	9.12665601409875E-18	2.33144401387886E-17	-0.896964570798324	-0.352247879799971	-0.896964570798324	-0.352247879799972	4.13203072303233E-18	-1.15515085639661E-17
51.4	-1.14249863248327E-17	2.83447596093766E-18	-0.958647862913001	-0.221347222533849	-0.958647862913002	-0.221347222533849	2.65259430094951E-18	-7.11361504643053E-18
51.5	-5.23088842714684E-18	-9.44156639736019E-18	-0.947899271334934	-0.0317835816630729	-0.947899271334933	-0.0317835816630729	-6.73933389076266E-19	-1.6091823471523E-18
51.6	1.53420373498671E-17	-5.34441991503307E-18	-0.964198802878042	0.0891805732896979	-0.964198802878042	0.0891805732896977	3.96135889432994E-18	-1.64578330249248E-17
51.7	-1.81679415625311E-17	2.34971613590763E-17	-0.952412279268521	0.246168789321861	-0.952412279268521	0.246168789321861	9.43169966520554E-18	1.20465355240336E-17
51.8	6.44933894059291E-18	2.30114462932584E-17	-0.841050444085775	0.390782097242309	-0.841050444085774	0.390782097242309	1.51804684150646E-17	1.09616472001829E-18
51.9	3.25413189060205E-18	1.12348086376196E-18	-0.842283024875884	0.524559359009408	-0.842283024875884	0.524559359009408	-3.92391347455033E-18	-1.52503933927119E-17
52	-6.82530696680448E-19	-2.78090109167629E-18	-0.685949712412734	0.660616481485151	-0.685949712412734	0.660616481485151	9.78412699167029E-19	-5.07999288383122E-18
52.1	3.66439385499784E-18	1.14547470126167E-17	-0.581383311291833	0.744781954497036	-0.581383311291833	0.744781954497036	5.63589180750311E-18	9.76417900413842E-18
52.2	3.24387095287097E-18	5.82366918313658E-21	-0.484205965015442	0.832651293214198	-0.484205965015442	0.832651293214198	-3.61686395801627E-18	1.31686558057961E-17
52.3	8.26417807937816E-18	-6.26984085221649E-19	-0.35085492109564	0.899053629534194	-0.35085492109564	0.899053629534194	-1.00015708888855E-18	3.47165228291503E-18
52.4	-3.91865842793881E-18	-1.31271796812537E-17	-0.189862690861022	0.975002512924574	-0.189862690861022	0.975002512924574	-2.29684113621331E-17	2.02467336820647E-17
52.5	7.87113774598122E-18	7.72220252441941E-18	-0.0608752139765572	0.918596250286322	-0.0608752139765571	0.918596250286322	6.35955873144623E-18	-1.99180727373661E-17
52.6	1.6296489286837E-17	-2.2441929622953E-17	0.0779147225310196	0.988428799298152	0.0779147225310198	0.988428799298152	-4.38675628081018E-17	-3.70708693393518E-17
52.7	1.0952058946694E-17	-5.3578323627117E-18	0.29313856798877	0.952910865772657	0.293138567988771	0.952910865772657	-6.67366413084524E-18	2.45041923357114E-18
52.8	-1.87234541535585E-17	-6.46090497843226E-18	0.322686830903525	0.790780634839209	0.322686830903525	0.790780634839209	-2.31688620799917E-17	-9.19219221023247E-18
52.9	1.15555207626815E-18	3.0276365160859E-17	0.606428942776085	0.882571668694248	0.606428942776085	0.882571668694248	8.84548446524229E-19	6.42665443278356E-17
53	-8.99270822144945E-18	-1.25359989232311E-17	0.614809854202045	0.677234312855979	0.614809854202045	0.677234312855979	-1.06053457219844E-17	4.92781719604225E-17
53.1	4.4989541092738E-18	-1.55889720379441E-17	0.734715922755024	0.64020646067959	0.734715922755024	0.64020646067959	-6.07686244100768E-18	4.16550860031375E-18
53.2	1.51564801706508E-17	1.16964805900259E-17	0.879030660543806	0.501993414564642	0.879030660543805	0.501993414564642	1.75677108982296E-17	-5.2052756638525E-18
53.3	-1.12030997648374E-17	4.75834449164605E-18	0.890618289070855	0.373829658271525	0.890618289070855	0.373829658271525	-1.61285106494881E-17	1.12924769508814E-17
53.4	1.17972375488632E-17	-5.31199892156181E-18	0.922188746973592	0.168913610429094	0.922188746973593	0.168913610429094	1.38666171567743E-17	1.5039856862514E-17
53.5	8.47571170828667E-18	9.22737502450996E-18	0.993611489873504	0.119723089669048	0.993611489873504	0.119723089669049	-1.3303769744617E-18	-1.28461519369058E-17
53.6	7.35086885800687E-18	-6.58356479491487E-18	0.983261325341117	-0.093676422043911	0.983261325341117	-0.0936764220439109	9.20417335010429E-18	1.20170423469417E-17
53.7	-2.13493744002082E-17	9.62759592952153E-18	0.887501278516855	-0.250385939110976	0.887501278516856	-0.250385939110976	-2.86503872070694E-17	-2.30970417829214E-17
53.8	-3.12580979909579E-19	9.07517923560844E-18	0.990982893459848	-0.328572287806872	0.990982893459848	-0.328572287806872	4.46554459374904E-17	-9.69007037290029E-18
53.9	8.40049318513002E-19	-2.12560554847829E-17	0.839932648907404	-0.506448427188391	0.839932648907405	-0.506448427188391	-1.54755791737682E-17	7.87134697859577E-18
54	-4.24908261410236E-18	-2.83099756845152E-17	0.732910164263766	-0.621640605130279	0.732910164263766	-0.621640605130279	-2.00381828648387E-17	-1.63060385079589E-17
54.1	-1.55110063789908E-17	6.06660706318198E-18	0.655600224678342	-0.695184625713518	0.655600224678342	-0.695184625713518	5.39742813322782E-18	-1.61834850609645E-17
54.2	8.48200226609634E-18	7.35333700010116E-18	0.554143066115098	-0.800790864453261	0.554143066115098	-0.800790864453261	1.25066702015532E-17	-6.46727968447869E-18
54.3	-2.40281236182852E-17	-2.45965762952433E-17	0.377032607210189	-0.895398170071902	0.377032607210189	-0.895398170071902	-2.85237015441075E-17	-3.62280241486509E-17
54.4	-6.21051401400732E-18	2.67078922619551E-18	0.320540227707997	-0.87674330848029	0.320540227707997	-0.87674330848029	7.03734379840461E-18	1.97867512886618E-17
54.5	2.00602510485597E-17	9.92967422210346E-18	0.109408448838754	-1.01547185746175	0.109408448838754	-1.01547185746175	4.45867726715375E-17	7.86844054078451E-18
54.6	1.54953893651423E-17	-9.49643067374302E-19	-0.0289474572797122	-0.945561386875225	-0.0289474572797123	-0.945561386875224	1.73946754998909E-18	3.00411356629102E-18
54.7	5.47470633640555E-18	-1.61600833704147E-17	-0.147612527276671	-0.988208139841812	-0.147612527276671	-0.988208139841813	2.30031989097766E-18	-4.32469918014248E-18
54.8	2.73741940960911E-17	7.45156959033219E-18	-0.31853461677335	-0.946402636868224	-0.318534616773351	-0.946402636868224	5.7923963879276E-18	-1.52559566800857E-17
54.9	-1.63050633257517E-18	1.45210456430889E-18	-0.451226515812306	-0.861740050173033	-0.451226515812306	-0.861740050173034	1.86999910521717E-18	-2.69811923064508E-18
55	4.34716107033721E-19	6.0776517437703E-18	-0.563331815146608	-0.81482870539481	-0.563331815146608	-0.814828705394811	-1.01565115500191E-17	-2.01502121201725E-18
55.1	-2.60304461876704E-18	3.59739273386327E-19	-0.695854891198543	-0.71548731456398	-0.695854891198542	-0.715487314563979	-7.19780343942148E-18	1.01718492975281E-17
55.2	-5.59461328150208E-18	-5.45643731249089E-18	-0.76857760663048	-0.603606638714865	-0.76857760663048	-0.603606638714864	-8.24160124231754E-19	3.61177189897612E-18
55.3	9.57339074183392E-18	1.40964155112849E-17	-0.870405805203886	-0.461032594269457	-0.870405805203886	-0.461032594269457	-2.81051867891712E-18	-1.14283778025614E-18
55.4	7.21921137128269E-19	-8.20727593424995E-18	-0.923077924357738	-0.370014931980763	-0.923077924357738	-0.370014931980762	-1.30819929915067E-17	-1.48680927961987E-17
55.5	1.19584947483405E-18	6.24539549378677E-18	-0.98831659986861	-0.19973239603469	-0.988316599868609	-0.19973239603469	7.3622967348475E-18	-1.74711360295043E-17
55.6	-1.62459759966639E-18	1.16020175629262E-17	-0.979849337462672	-0.0682697342692017	-0.979849337462672	-0.0682697342692019	-2.28802023305748E-18	2.84084137384873E-17
55.7	-8.08259542336984E-18	-6.24833461176752E-19	-1.00433681880238	0.0711838810274075	-1.00433681880238	0.0711838810274073	-2.78452968840296E-19	-3.51302971005607E-18
55.8	8.91516875183641E-18	-5.52116585947272E-18	-0.974306942322999	0.233967054641334	-0.974306942322999	0.233967054641334	-2.34264844749443E-18	-7.6088785268515E-19
55.9	3.73365483508542E-18	-1.40176487547397E-17	-0.934758310831078	0.362100555800714	-0.934758310831078	0.362100555800715	1.55596781738667E-18	-2.0288199702533E-17
56	-8.83514814561122E-19	3.33524589613842E-18	-0.845769776597865	0.499457418600373	-0.845769776597864	0.499457418600373	-1.33409835845537E-17	-3.53405925824449E-18
56.1	-1.15751667045856E-18	1.60094585871452E-17	-0.797735540719032	0.610588619242141	-0.797735540719031	0.610588619242141	-2.65411470757992E-17	1.09555401969825E-17
56.2	2.76122289333386E-18	1.67560630929513E-18	-0.703148174169253	0.733738817324776	-0.703148174169253	0.733738817324775	-6.54992466524751E-18	1.46248550498253E-17
56.3	-1.95867407034352E-17	7.76622030942336E-18	-0.537243621438397	0.826005881476454	-0.537243621438396	0.826005881476454	-4.89202489202869E-17	1.43279816743283E-17
56.4	-2.14929077769078E-18	-1.57278871489071E-17	-0.47215676753405	0.894514211117388	-0.472156767534049	0.894514211117389	-9.03653738424239E-18	-3.68164092842317E-17
56.5	-1.32494600848221E-17	1.34108005457963E-17	-0.319290674577036	0.973199539168381	-0.319290674577036	0.97319953916838	-8.49488056490127E-18	-1.30230011188892E-17
56.6	-9.17223869471469E-18	-4.57008702814004E-18	-0.166196175542545	0.974342568406846	-0.166196175542545	0.974342568406845	-1.01554140932421E-17	-1.77195381736567E-18
56.7	1.51725564141947E-17	-4.28309799452274E-18	-0.0322061550645233	1.0035975108494	-0.0322061550645229	1.0035975108494	-2.03211030330814E-17	1.62207450567592E-17
56.8	-1.07817522478021E-17	-1.82747174286299E-17	0.09404183846376	1.01791926316584	0.0940418384637603	1.01791926316584	-7.80077714110615E-18	5.14178631544503E-18
56.9	8.09000507830128E-18	-1.23015649896769E-17	0.246790747599642	0.968305269554789	0.246790747599642	0.968305269554788	1.85935075015024E-17	-2.7210826725531E-19
57	-2.15633520552342E-17	7.14077783163615E-18	0.406589859140152	0.889984832508232	0.406589859140152	0.889984832508231	9.62914286809289E-18	1.93242649995184E-17
57.1	1.6688797581296E-18	1.15893100671712E-17	0.514345544246786	0.853196074276441	0.514345544246785	0.853196074276441	1.34471412590203E-17	1.87814306075551E-17
57.2	-1.29517319549233E-17	-8.47208487349252E-18	0.638675230356831	0.797678494299191	0.63867523035683	0.797678494299191	3.08404772693703E-17	3.20006839142691E-18
57.3	4.14893223145369E-18	2.6242157788402E-18	0.781113027985815	0.624822186032493	0.781113027985815	0.624822186032493	1.05371103771074E-17	-3.61748337370064E-17
57.4	-1.77369888624859E-18	1.09718259522586E-17	0.7918373334217	0.543467453299397	0.7918373334217	0.543467453299398	-3.81468635396655E-18	7.90015900247639E-18
57.5	-7.0543146514741E-18	-5.89702901241411E-18	0.919441302641287	0.440559441551858	0.919441302641287	0.440559441551858	-3.52165823057856E-17	-6.3931854045668E-18
57.6	4.90957608528329E-18	-9.54765936342411E-18	0.974644273284987	0.279260055319132	0.974644273284987	0.279260055319132	7.18688100525778E-18	8.69103595686281E-18
57.7	-5.68517653092965E-18	-6.75498774982386E-18	0.960375317081711	0.136896097272739	0.960375317081712	0.136896097272739	9.83189795784749E-18	7.11159148945526E-18
57.8	-1.07807141389587E-17	-5.73325611285571E-18	1.00740933520848	0.0207797815475911	1.00740933520848	0.0207797815475907	1.22374574204229E-17	-1.88854500890004E-17
57.9	2.00163644661882E-17	-1.30253627365562E-17	1.01347062561562	-0.107009835111736	1.01347062561563	-0.107009835111737	3.49306332431165E-17	-1.75920900304575E-17
58	6.62947943126855E-18	2.07310701915705E-17	0.946750121533679	-0.309156976681231	0.946750121533679	-0.309156976681231	-6.34679820084002E-18	-8.68183299116296E-18
58.1	-2.534484811347E-17	6.10698405207806E-18	0.881800527509531	-0.38559343927067	0.881800527509531	-0.38559343927067	-2.48868723260834E-17	1.41905200896427E-17
58.2	1.41124770638919E-17	-6.87554254382297E-18	0.854411835421415	-0.535269269854971	0.854411835421415	-0.535269269854971	4.31547884939086E-18	-1.82705484249783E-18
58.3	5.44748475277174E-18	1.64644143770742E-17	0.750439811132793	-0.664281131315261	0.750439811132793	-0.664281131315261	1.04910566205543E-17	4.34117303235768E-17
58.4	5.09536143347965E-18	-1.60822221162281E-17	0.646711368409843	-0.696206776005252	0.646711368409843	-0.696206776005252	3.12420115338275E-18	-2.3060817465717E-19
58.5	2.68169817654076E-17	-2.478295329016E-19	0.583577392839008	-0.836278959631737	0.583577392839008	-0.836278959631737	-8.64008124465056E-18	-2.58994435295454E-18
58.6	4.46749918157304E-18	-8.15051617408282E-18	0.425723606955528	-0.902058271775385	0.425723606955527	-0.902058271775386	1.645737026238E-17	1.99854456496711E-17
58.7	4.34360496186402E-18	-4.82988188120675E-18	0.288540952887449	-0.919592429365747	0.288540952887449	-0.919592429365746	9.89309012660305E-18	-2.9303836554698E-18
58.8	7.56985043894763E-19	7.45693085110923E-18	0.177171665732656	-0.966826049291232	0.177171665732656	-0.966826049291233	-6.69994580721447E-18	8.21391589500399E-18
58.9	1.93234962241337E-17	1.45978255992964E-17	0.0595613460380373	-1.00067603740767	0.0595613460380369	-1.00067603740767	1.27367639277752E-17	-3.74525474764606E-18
59	3.91878349045502E-18	-8.28872618531235E-18	-0.120833486730887	-0.972295901902105	-0.120833486730886	-0.972295901902105	1.19646294837839E-17	-2.29538519747277E-19
59.1	-1.48499527763955E-17	1.55405040063015E-17	-0.220279402509232	-0.949181757089719	-0.220279402509232	-0.949181757089718	-1.46058292770417E-17	7.62377930697356E-18
59.2	-7.16045259063327E-18	1.1946940343879E-18	-0.351861459900851	-0.947745252401619	-0.351861459900852	-0.94774525240162	7.38532038005414E-18	1.26505464408178E-17
59.3	9.20478049831977E-18	3.7835980847086E-18	-0.506978286789949	-0.833912114849967	-0.506978286789948	-0.833912114849966	1.00233101212771E-17	9.38407071680279E-18
59.4	-1.21032147195695E-17	-2.56354051603845E-17	-0.581552693679008	-0.790269127653976	-0.581552693679008	-0.790269127653976	-1.73433640728909E-17	-8.90092302562607E-18
59.5	6.23097060348455E-18	6.72935775951519E-18	-0.71507223447545	-0.69523337167874	-0.71507223447545	-0.69523337167874	1.57920132330448E-18	-5.22295981261611E-18
59.6	6.38761480388402E-18	-1.21095015511161E-17	-0.790436702855719	-0.569999422063501	-0.790436702855719	-0.569999422063501	3.77906354250178E-18	-4.29620253179336E-18
59.7	9.55770538806346E-18	2.24851994747185E-17	-0.872340810339885	-0.48196633933516	-0.872340810339885	-0.48196633933516	-2.72960056975461E-18	3.75150458763036E-18
59.8	4.57140372067708E-18	-5.27396228319161E-18	-0.939654083408913	-0.350559167787572	-0.939654083408913	-0.350559167787572	7.38402450290152E-18	-5.26918921885898E-19
59.9	-2.70865980586185E-18	-6.03177807294423E-18	-0.966133762313203	-0.229479298071723	-0.966133762313203	-0.229479298071723	9.36739203300292E-18	1.36455404741812E-18
60	-4.55603704137822E-18	7.90331826922479E-18	-0.985689044879514	-0.0703162427954794	-0.985689044879514	-0.0703162427954792	-6.58074869417554E-19	-1.37787149675452E-18
60.1	1.61066441716839E-18	-8.5278147859686E-18	-0.977623025410928	0.0512664857740114	-0.977623025410928	0.0512664857740112	1.37061027352786E-17	-4.78482722578474E-18
60.2	-8.09805286224805E-18	4.655938330756E-18	-0.989842745819733	0.166639830195826	-0.989842745819734	0.166639830195826	1.30564629743042E-17	5.64954737754905E-18
60.3	1.31332061703422E-17	-2.43208198628478E-17	-0.933718653433899	0.338274352929222	-0.9337186534339	0.338274352929222	1.1824931439042E-17	-9.86251934209187E-18
60.4	1.46964457889533E-17	1.83370488216574E-17	-0.875299145078103	0.414702627700936	-0.875299145078103	0.414702627700936	-1.88905586740038E-18	-1.54608181453345E-18
60.5	2.33221357065764E-18	1.76633640064188E-17	-0.825746411037029	0.561883138781792	-0.825746411037028	0.561883138781792	-6.77832946946168E-18	-6.39525638965087E-18
60.6	-9.55047729007487E-18	-1.46983248357845E-17	-0.736242145975703	0.661992233099231	-0.736242145975702	0.661992233099231	2.32130095965895E-18	-5.73826974719217E-18
60.7	-6.64721140527731E-18	6.3705172270657E-18	-0.636154925675885	0.759381047875699	-0.636154925675885	0.759381047875699	3.5934571248012E-18	-4.09785433418117E-18
60.8	4.73911899301499E-18	-7.08103757454765E-18	-0.530807500321413	0.845217319145697	-0.530807500321413	0.845217319145697	-1.68755701919822E-17	-2.17485413585718E-18
60.9	-2.56793705519585E-18	1.10732757556516E-17	-0.420588204011338	0.908001645608955	-0.420588204011338	0.908001645608956	6.19348360675274E-19	7.44577116499089E-18
61	6.79997494430268E-18	-7.43037472648245E-18	-0.279923629707562	0.957336499037929	-0.279923629707562	0.957336499037929	-6.94826175653679E-18	-3.46243668792642E-19
61.1	-1.57483863747705E-17	2.78250587361008E-18	-0.146974098972284	0.970947239103987	-0.146974098972284	0.970947239103987	-3.18765912925721E-17	3.25817375625335E-18
61.2	-1.45572556523642E-17	2.84818934008012E-17	-0.0308685828097787	0.989608259834892	-0.0308685828097788	0.989608259834892	-2.36033439664964E-18	-3.12908341768557E-18
61.3	1.75136757094969E-17	2.00558447610013E-17	0.109246979753516	1.00214982185311	0.109246979753515	1.00214982185311	1.58564443874163E-17	9.47689273536236E-18
61.4	-1.09731712553907E-17	6.84276562619177E-18	0.272945333699119	0.953529151692282	0.272945333699119	0.953529151692282	-6.54349976678119E-18	8.85679181706603E-18
61.5	5.5079774997144E-19	6.10674146741911E-19	0.349338496776138	0.908898641992603	0.349338496776138	0.908898641992603	-5.32851106019521E-18	1.86493818337027E-17
61.6	-1.17563248574366E-17	-4.92132394330193E-18	0.503136790856978	0.8864879255368	0.503136790856978	0.886487925536801	5.20689629928026E-18	1.41308867760407E-17
61.7	-1.18235799310412E-17	-1.0965334500466E-17	0.623127625545254	0.790227499542432	0.623127625545254	0.790227499542432	1.27965988627427E-17	6.90788605935602E-18
61.8	-8.48005087168668E-18	-5.74833255658393E-18	0.700767256031779	0.690326585740788	0.70076725603178	0.690326585740788	-1.69034129016831E-17	-7.72032441009207E-18
61.9	-7.25115342531194E-18	-1.77366727790433E-17	0.795768666778011	0.58716037765491	0.795768666778012	0.58716037765491	-2.7821189931198E-18	-4.06451723593308E-17
62	-6.23150403379437E-18	3.10749585258116E-18	0.867056594438509	0.499782299053663	0.867056594438509	0.499782299053662	1.36131191776855E-17	6.16994229480835E-18
