# GHZ S RI R 50
50	5.24316124749018E-18	-4.61718279216719E-18	0.813165088566222	-0.581228921255927	0.813165088566223	-0.581228921255928	2.94780758143563E-18	1.92441426834532E-18
50.1	2.50114670248572E-17	-6.2246581005569E-18	0.682718929348324	-0.695339299559467	0.682718929348325	-0.695339299559467	3.11302299630571E-18	-9.9424614992254E-18
50.2	1.2548961001155E-17	3.24962209598938E-17	0.571770716691948	-0.792613341874323	0.571770716691947	-0.792613341874323	-7.07336277088742E-18	-2.67707152671825E-19
50.3	1.52877920901746E-17	1.73156878502847E-17	0.443994458911092	-0.902848529031025	0.443994458911093	-0.902848529031025	-2.07600678216618E-17	1.0459963291627E-17
50.4	-2.17973522731264E-17	2.21191842516451E-17	0.24574506714097	-0.928509403708929	0.24574506714097	-0.928509403708929	-5.34902874130708E-18	6.16233134355383E-18
50.5	-2.22152489835139E-18	3.82346938170813E-17	0.128441168277649	-0.983204003291178	0.128441168277649	-0.983204003291178	-6.59328826521137E-18	-1.75254076303894E-18
50.6	-5.45906496199603E-19	-4.97724104415881E-18	-0.0535510561376897	-0.979419430675073	-0.0535510561376896	-0.979419430675072	7.18222788841135E-18	4.24936571589267E-18
50.7	-3.0911053271695E-17	-1.34200578205164E-17	-0.198203328073867	-0.952614822705784	-0.198203328073867	-0.952614822705784	4.91006676295629E-18	-9.29963753061018E-18
50.8	1.33531546650186E-17	-1.38010006230425E-17	-0.370262063002342	-0.931792552253918	-0.370262063002341	-0.931792552253918	2.76456279198288E-17	3.88429464020193E-18
50.9	-6.56247078681351E-18	5.65228800228624E-18	-0.499802159457244	-0.823002359006074	-0.499802159457244	-0.823002359006073	-8.56269963828791E-18	-4.44988508886105E-18
51	2.96456028834017E-18	1.42272305056385E-17	-0.644500041518226	-0.751760134851034	-0.644500041518225	-0.751760134851033	1.38298312073998E-17	1.07430754444162E-17
51.1	2.06121703462794E-17	-8.73689720462703E-18	-0.75328502947337	-0.632349493818888	-0.753285029473369	-0.632349493818888	-2.23401804133786E-18	-3.01457673938041E-18
51.2	1.38985432548756E-18	-1.2071385171509E-17	-0.839875873778785	-0.497262179915093	-0.839875873778785	-0.497262179915093	-5.00118393754483E-18	4.62783326735406E-18
51.3	-7.12108454482511E-18	-7.68447825941258E-18	-0.914383653258737	-0.356551958995756	-0.914383653258737	-0.356551958995757	-4.82071858705261E-18	-2.16351855038181E-18
51.4	3.47181068077355E-18	-1.57001500519296E-17	-0.975993366729897	-0.223121386728121	-0.975993366729898	-0.223121386728121	3.94689011542368E-19	-1.33235271768219E-17
51.5	1.02849212177217E-17	4.28414366294882E-18	-0.965846599844933	-0.0296821118847027	-0.965846599844933	-0.0296821118847027	1.15160031754054E-17	-2.53720675991749E-18
51.6	5.58312061755422E-18	2.12134868907903E-17	-0.980695884466037	0.0935190972925021	-0.980695884466037	0.0935190972925014	3.23200297004403E-17	1.09240303085689E-17
51.7	-2.69749096560002E-17	1.31299951443423E-17	-0.967977564232145	0.252790751824505	-0.967977564232145	0.252790751824505	-3.23625915827912E-18	1.37565617616326E-17
51.8	-3.76713620253075E-18	-2.12272552351683E-18	-0.854841111359139	0.401297161278819	-0.854841111359139	0.401297161278819	4.67560254098709E-18	1.19258567731322E-17
51.9	-3.89513105836717E-18	-8.1361517592093E-18	-0.854466023522415	0.535308958567518	-0.854466023522416	0.535308958567517	-1.09644334633339E-17	6.44382774443569E-18
52	1.15905291530489E-18	1.51221948135758E-17	-0.696065072915034	0.674684026997816	-0.696065072915034	0.674684026997816	5.57557087567445E-18	4.25128353578885E-18
52.1	2.55357184334522E-17	2.19607285932319E-17	-0.588608988023356	0.759924547512742	-0.588608988023356	0.759924547512742	8.51190614448406E-18	7.32024286441064E-18
52.2	9.36813092127583E-18	7.06297672655194E-18	-0.48905559250576	0.84799040646745	-0.48905559250576	0.84799040646745	3.99992933820645E-18	-2.29600572956689E-17
52.3	-6.8450809816497E-18	-1.14320406145695E-18	-0.35312970038053	0.914758988781503	-0.35312970038053	0.914758988781503	-1.69254945404102E-17	1.61730191330617E-17
52.4	-1.36245138353348E-17	-4.00243922624106E-18	-0.190229364916295	0.991252192489591	-0.190229364916295	0.99125219248959	-3.27974973936636E-17	1.54669294146749E-17
52.5	-1.95656070765554E-17	3.71996476239302E-18	-0.0569323477982725	0.93355765518911	-0.0569323477982723	0.933557655189109	-9.42176441938882E-18	-4.21108007000891E-18
52.6	1.11852851422308E-18	3.36297471961971E-17	0.0824426686348151	1.00268191894918	0.0824426686348149	1.00268191894918	2.64024842189139E-17	8.97671022237214E-18
52.7	6.87768776856747E-18	-2.56660669406798E-18	0.30043084447001	0.967523156866171	0.30043084447001	0.967523156866171	-1.27468982109679E-17	6.60051599873607E-18
52.8	1.83793274271868E-17	-1.48690852883965E-17	0.334152274417016	0.800514597899502	0.334152274417016	0.800514597899503	-4.94893832210603E-17	-1.95744804146133E-17
52.9	3.9773782696657E-18	-2.47966305372661E-17	0.616480966334794	0.894991312734507	0.616480966334795	0.894991312734507	-5.21385101529883E-17	-2.42755106673035E-17
53	-5.37086973222712E-18	1.00625569647495E-17	0.628385673588138	0.684471076279469	0.628385673588138	0.684471076279469	2.95256744124172E-18	6.28525197416633E-19
53.1	1.5558358867191E-17	1.26977429899358E-17	0.747713290657834	0.646039495925296	0.747713290657833	0.646039495925296	1.79883660424141E-17	5.92137767052364E-18
53.2	5.33553007083448E-18	8.68152793384038E-21	0.893383666796941	0.506785495788051	0.893383666796941	0.506785495788051	1.96090252235322E-17	4.26895596777238E-18
53.3	-7.64995922693617E-18	1.76149086133874E-18	0.904821858894298	0.375045061105136	0.904821858894298	0.375045061105136	-7.06638898920412E-18	1.17644544543981E-17
53.4	-2.56433514353252E-18	2.41009042610956E-18	0.93771397496759	0.16712501185636	0.93771397496759	0.16712501185636	1.01416904688144E-18	1.54669926811173E-17
53.5	5.59577975473287E-18	1.50554054894627E-17	1.00668239078413	0.117376544491048	1.00668239078413	0.117376544491048	1.74290645657443E-17	-3.11264028659289E-17
53.6	1.57039356565873E-17	-1.91235272048849E-17	0.996942896014466	-0.0987903008535713	0.996942896014466	-0.0987903008535712	-3.85887543025641E-17	-3.31150744669688E-17
53.7	-2.96538567221802E-17	7.85149370529892E-18	0.899885965387037	-0.259242287195073	0.899885965387037	-0.259242287195074	2.05331949814308E-18	1.57788055497421E-17
53.8	-5.85440652993826E-18	-1.73974430524965E-17	1.00144724542169	-0.335405417508651	1.00144724542169	-0.335405417508651	-1.89972993191877E-17	-1.23291499444606E-17
53.9	-5.56368558433692E-18	1.44953560943965E-17	0.84921169647924	-0.516955677783881	0.849211696479241	-0.516955677783881	6.29936842472476E-18	-1.21848311478275E-17
54	-1.0577252600886E-17	-2.03981750995506E-17	0.740083010849434	-0.633820196632581	0.740083010849434	-0.633820196632581	-1.36527247920172E-17	2.04253146860647E-18
54.1	-1.44748044706653E-17	-9.17450003676396E-18	0.660192435046254	-0.707465286957406	0.660192435046254	-0.707465286957406	-1.7152030811991E-17	1.09564139993567E-17
54.2	4.51987839859579E-18	-1.98347026239312E-17	0.557126374937665	-0.813390726228344	0.557126374937665	-0.813390726228344	1.42092625858435E-17	1.80018125251045E-17
54.3	1.61038541255149E-17	-1.48322831003231E-17	0.378121377562242	-0.909471734654262	0.378121377562243	-0.909471734654261	1.25276608676874E-17	-1.24617540759413E-17
54.4	-2.10519865193806E-17	-1.33215093951001E-17	0.318520575760035	-0.888365054024519	0.318520575760034	-0.888365054024519	5.04510065970795E-18	-1.58572313409244E-17
54.5	-6.96975081924208E-18	-2.9930825970688E-17	0.107315352018144	-1.02894116023466	0.107315352018144	-1.02894116023466	-1.55832728782582E-17	-7.08112031440033E-18
54.6	1.19385122262858E-17	2.14937072457046E-17	-0.0346530056165093	-0.957619344696494	-0.034653005616509	-0.957619344696495	-9.07178631345497E-18	7.04566366450542E-18
54.7	-1.02527286319795E-17	1.37148390323503E-18	-0.153633219199335	-0.999046536245266	-0.153633219199335	-0.999046536245265	-4.30214384415434E-18	1.436274657537E-17
54.8	2.81098925495122E-17	7.3971131623191E-18	-0.326468747038268	-0.956579454923252	-0.326468747038268	-0.956579454923252	1.40245872343967E-17	-1.08348502423966E-17
54.9	2.50044338576465E-18	-9.6771708656557E-18	-0.461124468680766	-0.870208195750912	-0.461124468680766	-0.870208195750912	-5.38253490485644E-18	1.93899679093828E-18
55	-1.76966496041435E-18	-5.28783113672214E-18	-0.573606853207103	-0.821575088693992	-0.573606853207102	-0.821575088693993	-2.40058531606182E-18	6.54006156590597E-18
55.1	3.41200530236916E-18	6.64518162038246E-18	-0.707232456959042	-0.720861248926485	-0.707232456959041	-0.720861248926483	-1.70125469329163E-18	-3.57132566722125E-18
55.2	4.72543491630993E-18	-3.28923537380869E-19	-0.780389953817969	-0.606570236238975	-0.780389953817969	-0.606570236238975	-2.88166189602498E-18	-1.01498860444587E-18
55.3	-2.0132662990879E-18	7.68672131623636E-18	-0.883075451310555	-0.462428568812331	-0.883075451310555	-0.46242856881233	5.96485311063582E-19	-6.70489892990396E-18
55.4	1.79812060842105E-18	-1.91810012261024E-18	-0.934755231161632	-0.369631865151322	-0.934755231161633	-0.369631865151322	-8.03233903300853E-18	-1.83411446267781E-17
55.5	-1.26621022315448E-17	-7.16136996535583E-18	-1.000499797347	-0.197799484679843	-1.000499797347	-0.197799484679843	-1.55801429136683E-17	-6.98730695822214E-20
55.6	-3.7490551490184E-19	-1.03985616336026E-17	-0.990960966509258	-0.0640608423044676	-0.990960966509258	-0.0640608423044675	2.57737268900768E-18	-6.56529656005079E-18
55.7	-3.01362325423557E-18	4.08983540711408E-18	-1.01467113689604	0.0764279731539757	-1.01467113689604	0.0764279731539755	-7.32544174451683E-18	1.10984378265597E-18
55.8	7.07066552937278E-18	-5.69177836234549E-18	-0.983923466337199	0.240979363095969	-0.983923466337199	0.240979363095968	1.24960828831798E-17	-1.45408725715532E-17
55.9	-8.38614957106337E-18	5.35696134127607E-18	-0.942915260956035	0.370234158691713	-0.942915260956035	0.370234158691714	8.47950715031107E-18	-7.872682885201E-18
56	6.89274664276096E-18	-1.74889210063428E-19	-0.852442124969467	0.509252753701518	-0.852442124969466	0.509252753701518	8.1066960309538E-19	-1.50611641044863E-18
56.1	-1.00857499215931E-17	1.21371044144379E-17	-0.802915779997685	0.620438120708352	-0.802915779997685	0.620438120708352	5.18501447640586E-18	1.35168068478217E-18
56.2	-1.22703651552613E-17	6.12034516284543E-18	-0.70704565621879	0.744223347725291	-0.70704565621879	0.744223347725291	-2.42483622572487E-17	2.68690702082543E-17
56.3	-1.11529251039214E-17	-5.96247405141174E-19	-0.539058072687534	0.837941192302867	-0.539058072687534	0.837941192302867	-2.73730988776722E-17	-1.02383953870842E-17
56.4	-1.48424954107061E-18	1.03406318306213E-18	-0.472593467386538	0.905230040295671	-0.472593467386538	0.905230040295671	-3.24952419580717E-17	1.82297961706325E-17
56.5	1.32322143689051E-17	-2.46424663274735E-18	-0.318373392229387	0.984299326511615	-0.318373392229387	0.984299326511615	2.97261395928693E-17	-9.44302548902567E-18
56.6	-1.08056700845727E-18	-2.19362584224482E-18	-0.16285003085613	0.985008613922208	-0.16285003085613	0.985008613922208	1.87270492224066E-17	-2.2854366304254E-17
56.7	-3.36623274600614E-18	-3.75606220519977E-18	-0.0277157802945106	1.0135082835883	-0.0277157802945109	1.0135082835883	-6.92738022160909E-18	-3.95097693479659E-18
56.8	-8.35030788368255E-18	5.39310467834361E-18	0.0993646490789719	1.02675042890319	0.099364649078972	1.02675042890319	-2.55013036376927E-19	-3.71178360194097E-18
56.9	-6.25336993551814E-18	1.46847996283027E-18	0.253900902034263	0.976111933679923	0.253900902034263	0.976111933679923	-2.09822667739161E-17	7.66615041093092E-18
57	6.29936233991434E-18	-7.43515627151335E-18	0.415590748332064	0.896801103106922	0.415590748332064	0.896801103106921	-2.60141249977437E-17	-1.64870663373347E-17
57.1	-8.58662538213573E-18	1.28380169663558E-17	0.523430454902202	0.858468753534828	0.523430454902202	0.858468753534828	1.06763156780618E-17	2.52278124081285E-17
57.2	-1.41591120523845E-17	-8.69908906081431E-18	0.64788773940407	0.801872208757531	0.64788773940407	0.801872208757531	-2.03338706250104E-17	-1.94540520393683E-17
57.3	-1.82771093174167E-18	7.71610354670218E-18	0.792531997908152	0.627713792990866	0.792531997908152	0.627713792990866	-9.28951665537619E-18	-1.23866958309902E-17
57.4	6.09580132102636E-18	4.49118398999076E-17	0.802152564318352	0.543448751758047	0.802152564318351	0.543448751758047	2.09902458455912E-17	4.37870916637947E-17
57.5	3.4222435541616E-18	-1.61614905037872E-18	0.92973111694548	0.440324010378082	0.929731116945481	0.440324010378082	1.29057075051398E-17	-2.48062008914208E-17
57.6	-8.44348215641102E-18	3.35773350412244E-18	0.985239359419194	0.277344574751309	0.985239359419194	0.277344574751309	-1.55521363334953E-18	1.822022803525E-17
57.7	-2.57600327336009E-18	-9.34973044399593E-18	0.970157996488296	0.132550180787814	0.970157996488296	0.132550180787814	-1.54347634493125E-17	-1.89729919683164E-17
57.8	1.25056651290865E-17	1.56334794273618E-17	1.01624327487404	0.0160080565353793	1.01624327487404	0.0160080565353795	1.88064640708563E-17	5.92633018623476E-19
57.9	-1.3559911425376E-17	-4.00912059346328E-18	1.02124774626318	-0.112600435687929	1.02124774626318	-0.112600435687929	-3.73404528686396E-17	8.30317138759844E-19
58	-4.36059468888736E-18	-1.31681682406691E-17	0.954417540239678	-0.317095330230689	0.954417540239677	-0.317095330230689	-9.97498187678585E-18	-1.33546858125856E-17
58.1	3.09263968141871E-18	3.89170182064334E-18	0.886962570009819	-0.394304269452924	0.886962570009819	-0.394304269452924	-4.64450232997726E-18	-1.2997613283907E-17
58.2	-6.63558876545517E-18	2.66262654727159E-17	0.859089382029188	-0.544104965936274	0.859089382029188	-0.544104965936274	6.96451563749201E-18	4.29772134594536E-17
58.3	-1.46244922554195E-17	-2.48467944744395E-17	0.753854269812316	-0.674149025839705	0.753854269812316	-0.674149025839705	-2.18564534627608E-17	1.18350458054555E-17
58.4	-1.37154213537088E-17	7.57897635888971E-18	0.647245317860398	-0.705874495428052	0.647245317860398	-0.705874495428053	8.2007390899488E-18	2.48210191919602E-18
58.5	-1.85741538488845E-17	2.85734847322989E-17	0.584159599972943	-0.845529374640559	0.584159599972944	-0.845529374640559	1.07439365058808E-17	7.68895238192E-18
58.6	1.4484189128814E-17	-1.86488088566127E-18	0.424498211111777	-0.911831783000761	0.424498211111777	-0.911831783000761	5.15848515563841E-18	-2.04623381836323E-18
58.7	3.1844932168614E-17	-6.11104337653801E-18	0.285193716046864	-0.928853421005897	0.285193716046864	-0.928853421005896	4.07482632977331E-17	-1.19467980654924E-17
58.8	-1.92212498574124E-17	1.28915161317187E-17	0.173030389102674	-0.975170570153458	0.173030389102674	-0.975170570153458	-1.0061862720674E-17	1.26231633980567E-17
58.9	3.89855788776815E-18	-3.13171940013611E-18	0.0548150141026775	-1.00805477001144	0.0548150141026776	-1.00805477001144	4.88928872211217E-18	4.09026750967616E-18
59	5.4605189823232E-18	-5.82168257596352E-18	-0.127445392058958	-0.97939261417627	-0.127445392058958	-0.979392614176271	1.22379553726321E-17	-1.65868883200719E-17
59.1	5.89747423477094E-18	-1.88856963694886E-17	-0.227425843758512	-0.954531057889526	-0.227425843758511	-0.954531057889526	2.57796578854174E-18	-8.78770292388619E-18
59.2	1.27040946956383E-17	2.89001142553211E-18	-0.358928025203177	-0.95233919168757	-0.358928025203177	-0.95233919168757	1.48439248590213E-17	5.61540844208395E-19
59.3	-8.02133383785493E-18	7.08505542295011E-20	-0.515896317528711	-0.837415767976572	-0.515896317528711	-0.837415767976572	-1.74633008065594E-17	4.82835393974952E-18
59.4	5.38861992126724E-19	-9.5502430907077E-18	-0.589807935628281	-0.792027246687715	-0.58980793562828	-0.792027246687714	-6.00557963990677E-18	-1.23904586869674E-17
59.5	-1.05590940487699E-17	-1.34111641407873E-18	-0.723831110323101	-0.696267407176634	-0.723831110323102	-0.696267407176634	1.07203626829647E-17	5.49387970268435E-18
59.6	2.93342635184586E-17	-2.25280654862403E-17	-0.799435658728571	-0.569300710809521	-0.79943565872857	-0.569300710809521	2.61159684489957E-18	-2.67186745603058E-18
59.7	1.11023288415708E-18	1.38190126458611E-17	-0.88065782653968	-0.480430193320922	-0.88065782653968	-0.480430193320922	-7.81666485247608E-18	-3.27291670788962E-18
59.8	-1.02142383377815E-17	-9.82800818475196E-18	-0.947797477763518	-0.347967375238054	-0.947797477763518	-0.347967375238054	-1.10123096106052E-17	3.41080462705861E-18
59.9	-2.38120001418363E-18	4.86057629678378E-18	-0.973409165195301	-0.22562653414685	-0.973409165195301	-0.22562653414685	1.55538441497081E-18	7.6198400453876E-19
60	-1.27185931315457E-17	-8.60526317932249E-18	-0.992703042588707	-0.0652114251770059	-0.992703042588707	-0.0652114251770056	-8.84750735263593E-18	1.43020040140624E-18
60.1	-1.95540486693533E-18	-1.67196793119751E-17	-0.983416725113053	0.0573111139899381	-0.983416725113053	0.0573111139899381	-4.71765616640099E-18	-4.10906059405932E-18
60.2	-2.15787383672683E-17	3.97152733504268E-18	-0.994581166442384	0.172697619376004	-0.994581166442385	0.172697619376004	-2.73363895885775E-17	1.54212834809965E-17
60.3	-5.31411532871529E-18	2.04821076677904E-17	-0.937975812498567	0.345695365109759	-0.937975812498568	0.345695365109759	-1.73884080651966E-17	-1.68714389150297E-18
60.4	-4.55356307852174E-19	-6.67863379728968E-18	-0.877467244106299	0.422202191205892	-0.877467244106299	0.422202191205893	-7.06697709263813E-18	-3.01226379093599E-18
60.5	2.83669545290408E-18	-2.7029805045191E-17	-0.827528681872421	0.569569085970465	-0.827528681872421	0.569569085970465	1.10739548087993E-17	-1.38914559851936E-18
60.6	1.45528610402593E-17	-7.68237536401762E-18	-0.736701767877774	0.669811795673303	-0.736701767877774	0.669811795673302	6.92961850874841E-18	-2.03179350658868E-19
60.7	-7.56409744870663E-19	-8.61818101418471E-18	-0.635514189136225	0.767202734236038	-0.635514189136225	0.767202734236038	8.04813297899942E-18	5.48460371755129E-18
60.8	-4.20532899136374E-18	1.35214686370642E-18	-0.529211916386499	0.852783726902311	-0.529211916386499	0.852783726902311	-1.43506248519143E-17	-2.39700127336481E-18
60.9	-6.68778495198545E-18	7.02585594219758E-18	-0.418002473455645	0.915000884500671	-0.418002473455645	0.915000884500671	-1.55205051619615E-18	1.29557464736881E-17
61	-3.68201183114646E-19	3.88396592062041E-18	-0.276268941478561	0.964082666803479	-0.276268941478561	0.96408266680348	9.89937144248334E-18	1.13234730023651E-17
61.1	1.9054305108281E-18	1.73213564783188E-17	-0.142132280743628	0.976901814920323	-0.142132280743628	0.976901814920323	6.88175146736818E-18	1.61551979538723E-17
61.2	-4.77191669668515E-19	2.59779513995091E-17	-0.0255712266633584	0.994521466344425	-0.0255712266633587	0.994521466344425	1.20729992020268E-18	9.94737601169897E-18
61.3	2.5570971868159E-18	-2.25177883177816E-17	0.114885808619516	1.00648497426374	0.114885808619515	1.00648497426374	-1.87617606862589E-18	-1.60107707817965E-17
61.4	3.45075275688924E-19	6.94708368140275E-18	0.279822523711792	0.957273839773185	0.279822523711792	0.957273839773187	-8.43080770475721E-18	2.82946776748732E-18
61.5	2.47494050526364E-17	-1.72063204512183E-17	0.356114579652034	0.910684631680012	0.356114579652034	0.910684631680013	1.15297434042858E-17	-2.0521573983747E-17
61.6	1.43868438947596E-17	2.94756153242836E-17	0.509783216675304	0.888211987550848	0.509783216675304	0.888211987550848	1.7836491958183E-17	1.09467578414081E-17
61.7	-7.90749478438803E-18	2.74028854739655E-18	0.630302523522004	0.790867368349934	0.630302523522003	0.790867368349934	-5.70913667258212E-18	5.06352785809854E-18
61.8	3.62419366964187E-20	1.3756321751137E-18	0.707830997814369	0.689428331388923	0.707830997814368	0.689428331388923	-1.01696658890539E-17	-1.55638675199894E-19
61.9	1.89682731705157E-18	5.90983350787586E-18	0.802703198811744	0.585399018609434	0.802703198811744	0.585399018609433	-5.09735084104604E-18	7.92991265518198E-18
62	-1.88055883734068E-17	6.06271429174208E-18	0.8731583931581	0.497303658511667	0.873158393158101	0.497303658511667	-4.65984710481712E-18	7.27346828908291E-19
