# GHZ S RI R 50
50	7.8271059255634E-18	3.78340656723136E-17	0.768740206088828	-0.543585113582829	0.768740206088827	-0.543585113582828	-2.45079433339172E-17	-3.77164450306221E-18
50.1	1.21779450265196E-17	-5.17480626557621E-18	0.646266149345243	-0.650131464740923	0.646266149345243	-0.650131464740923	1.48379377108457E-18	4.36445456868999E-18
50.2	1.05956156072871E-17	3.59459147365011E-17	0.54389592690229	-0.742418834178158	0.543895926902289	-0.742418834178158	-8.63271423131763E-18	-1.26806252324506E-17
50.3	4.57021008981481E-18	-5.62430024441657E-18	0.424437116800646	-0.848821265534621	0.424437116800646	-0.848821265534621	3.2029032352021E-18	-9.37261507082146E-19
50.4	-1.18677872392916E-17	2.04306771439087E-18	0.237260452429205	-0.871204967693874	0.237260452429205	-0.871204967693873	8.10386312081073E-18	-1.65641414202987E-17
50.5	-6.15485452126704E-18	-3.3221186605506E-18	0.128778629628015	-0.926311444385881	0.128778629628015	-0.926311444385881	-1.11436227691992E-17	3.14872656904187E-18
50.6	-4.83885641230595E-18	-4.01294304409232E-18	-0.0429760891862203	-0.923200649852173	-0.0429760891862204	-0.923200649852171	7.00241746188369E-18	1.12517903630553E-17
50.7	-1.0681504209811E-17	-1.05885630754286E-17	-0.1782695850013	-0.899638967739119	-0.1782695850013	-0.899638967739119	-7.06474896280221E-18	-1.82091244613163E-18
50.8	-2.38406843615896E-17	-7.68769047243846E-18	-0.342081426443413	-0.882335186195607	-0.342081426443413	-0.882335186195607	-5.96017109039741E-18	-1.92192261810962E-18
50.9	-1.66333238982427E-17	1.85660500952798E-17	-0.462991211467034	-0.780024083251505	-0.462991211467034	-0.780024083251505	-7.86059762941712E-18	5.46698349380114E-18
51	-4.80008405565564E-18	9.92384432493578E-18	-0.601377508109996	-0.715010450050597	-0.601377508109995	-0.715010450050596	2.98366333531554E-18	5.18977348668601E-19
51.1	-1.25796460667309E-17	1.6310586054803E-17	-0.704617430823877	-0.603638412517877	-0.704617430823877	-0.603638412517876	-3.05201443931296E-18	9.54154973913208E-18
51.2	-1.9555659885832E-17	1.01918039481317E-17	-0.787133319251779	-0.4773892864931	-0.78713331925178	-0.4773892864931	-3.74554237508011E-18	1.18989855335855E-17
51.3	-5.82727643384721E-18	-1.98590003274013E-18	-0.859125659516088	-0.345677145784085	-0.859125659516088	-0.345677145784085	6.22054666281067E-19	4.72210629747643E-18
51.4	-7.10421527016979E-18	-1.8793443962041E-18	-0.919995072342796	-0.221024384661323	-0.919995072342797	-0.221024384661323	5.5024784553958E-18	-4.16716818543522E-18
51.5	4.90754850221447E-18	-1.11418182220207E-17	-0.910043007292947	-0.0381521605112103	-0.910043007292947	-0.0381521605112101	5.85700058740514E-18	-9.52296978565868E-19
51.6	2.4064950900674E-18	-9.54322205044463E-18	-0.92757392010308	0.0768821584553248	-0.927573920103081	0.0768821584553246	1.23431423621331E-18	-4.01500185559788E-18
51.7	4.09657694503169E-18	-3.04511120759949E-18	-0.918107221151016	0.227875214466491	-0.918107221151016	0.227875214466491	-4.95032611885128E-18	3.77411972612387E-17
51.8	-5.15531366224409E-18	-1.18364635862949E-17	-0.810780449749655	0.367244046494497	-0.810780449749655	0.367244046494497	5.41852432465405E-18	8.41079707411015E-18
51.9	-3.92852944123446E-18	-9.59754531853933E-18	-0.815440147350173	0.496040264943179	-0.815440147350173	0.49604026494318	-5.286346305298E-18	2.39570189380382E-17
52	8.24109861928199E-18	8.46144130528384E-18	-0.664789007788016	0.628161374889858	-0.664789007788016	0.628161374889858	2.05402476450069E-17	-3.37743615980338E-18
52.1	6.48154497534513E-18	9.13880551665901E-18	-0.56562410693218	0.709383940253095	-0.56562410693218	0.709383940253095	1.6187474218452E-17	3.30640427223701E-19
52.2	-3.39327915589257E-17	-1.12283494855167E-17	-0.474092734101228	0.79490868735875	-0.474092734101228	0.794908687358749	-3.89051827603802E-17	1.5525172130041E-17
52.3	5.24384150563909E-18	-3.01691697034611E-17	-0.346938181209982	0.860051820053312	-0.346938181209982	0.860051820053312	-2.34743508011706E-19	-1.2657506917455E-17
52.4	-4.83030092860148E-18	-7.85657463423328E-19	-0.192665405948908	0.935500051203692	-0.192665405948908	0.935500051203692	-1.99465316188996E-17	-1.68886152028291E-18
52.5	8.68564937794287E-18	1.4398237929963E-17	-0.0693194849740029	0.880720456751359	-0.0693194849740027	0.880720456751359	1.65291256450591E-17	-4.81008967583986E-17
52.6	5.88907773802897E-18	-2.14663710970361E-17	0.0631136763414647	0.951348425176645	0.0631136763414646	0.951348425176644	-4.49132532918136E-17	-2.76433266104114E-18
52.7	-2.28000388309306E-17	-1.46605474202147E-17	0.271869488269884	0.919164442308758	0.271869488269884	0.919164442308758	-1.13633012592983E-17	5.86511407183809E-17
52.8	2.30063281335573E-18	4.19454274146354E-18	0.298280858563686	0.761509628182309	0.298280858563686	0.761509628182308	-2.23707609820209E-18	-5.83422580895677E-18
52.9	2.49700199114985E-18	-1.09456111329697E-17	0.574459600423913	0.856712744902048	0.574459600423914	0.856712744902049	-1.92657919754675E-17	8.05384685984858E-18
53	1.86090447321505E-18	1.7711799404237E-17	0.58127477217512	0.656974580684546	0.581274772175119	0.656974580684546	2.3711607030226E-17	-3.9789805586066E-17
53.1	-1.27723272059721E-17	9.06137483703308E-18	0.697507455636557	0.624747112014254	0.697507455636558	0.624747112014255	-2.28154196090869E-17	-4.03295290853617E-17
53.2	-1.14968544278573E-17	-2.0659574639954E-18	0.839170964736754	0.493301746001962	0.839170964736753	0.493301746001961	1.62866244904921E-17	2.22163201307131E-18
53.3	1.88527896968529E-17	-2.73369894538594E-18	0.850356168086092	0.37085175036447	0.850356168086092	0.37085175036447	3.01695162299416E-17	-7.28293252739397E-17
53.4	7.31653220633593E-18	-3.07793096206668E-18	0.882575360130256	0.173029647974272	0.882575360130255	0.173029647974273	3.34284353983351E-18	6.66687825831077E-18
53.5	-1.04063446126343E-17	-4.54126039721843E-18	0.953368822796523	0.129290565791942	0.953368822796523	0.129290565791943	-1.86335662803554E-17	1.31760019206239E-17
53.6	-8.23417017645705E-18	7.6854074864457E-18	0.945754448159666	-0.0772207164373186	0.945754448159666	-0.0772207164373187	-4.03239757569921E-18	2.36154857813432E-17
53.7	1.45644762866126E-17	-5.27598950061074E-18	0.853916330579294	-0.22875463714175	0.853916330579295	-0.228754637141751	-4.91235844031653E-18	-3.42584070685973E-18
53.8	-1.00077098511999E-17	-1.43606556481209E-17	0.958347606158471	-0.300989532012412	0.95834760615847	-0.300989532012412	-3.19839879030734E-17	3.08774567861098E-18
53.9	-1.62235090884672E-17	2.08825163842797E-17	0.813545511184495	-0.47465937215071	0.813545511184496	-0.47465937215071	-1.23351007203529E-17	1.55672245602067E-17
54	-7.04373315256122E-18	-2.16724174622949E-17	0.711919849008902	-0.586340213942268	0.711919849008902	-0.586340213942268	-5.47600770140928E-18	4.94450455898472E-18
54.1	9.66453995750624E-18	6.66942110252356E-18	0.639563380905814	-0.657091414267867	0.639563380905813	-0.657091414267866	1.45409800883475E-17	-1.85230528491098E-18
54.2	1.40709130270412E-17	7.21966004646629E-18	0.544147260291351	-0.760183920621679	0.544147260291351	-0.760183920621679	1.04986339572207E-18	-2.27805003573693E-17
54.3	5.14829448868445E-18	-3.44740847103286E-17	0.374370882936707	-0.853912583957113	0.374370882936707	-0.853912583957113	-2.03744405384312E-17	2.36662156093817E-18
54.4	2.00736524913392E-17	-2.21434504179891E-17	0.322214204293335	-0.835185620523766	0.322214204293334	-0.835185620523766	-7.7015736805576E-19	-1.57086894546338E-17
54.5	8.08913566560087E-19	1.05348352176514E-17	0.119971035739234	-0.973984728225612	0.119971035739234	-0.973984728225612	-1.37752291969843E-17	-6.88998445503846E-18
54.6	-4.2895106673198E-20	2.28448019486142E-17	-0.0133154363548523	-0.906914155713148	-0.0133154363548524	-0.906914155713148	-1.66989211789214E-17	1.47676711747203E-17
54.7	1.40844379444225E-17	-1.37106699390024E-17	-0.125736370886769	-0.951088284377944	-0.125736370886769	-0.951088284377944	4.33064748650657E-18	-1.76994585292743E-17
54.8	-2.43652553344409E-18	7.58928076202004E-18	-0.290905059605118	-0.913425567919074	-0.290905059605118	-0.913425567919074	-8.72524851867067E-18	4.23085337066604E-18
54.9	7.8574096782943E-18	-5.6722038364993E-18	-0.419241196919458	-0.833571720704976	-0.419241196919459	-0.833571720704976	9.17835281104409E-18	-7.29252912201139E-18
55	1.3588114998982E-18	-3.25486473057398E-18	-0.527033553846474	-0.791137387970273	-0.527033553846475	-0.791137387970273	-6.03916222176977E-19	1.44660654692177E-18
55.1	7.55282033907443E-18	6.79539147535934E-18	-0.656069190906848	-0.697878645098105	-0.656069190906847	-0.697878645098105	-7.09052968167211E-18	1.15210252631514E-17
55.2	-6.67740238858522E-18	-4.06458169411202E-18	-0.726836215867308	-0.591780976938233	-0.726836215867308	-0.591780976938233	2.98461148781656E-18	-6.17860485102381E-19
55.3	-5.71057008610398E-18	-1.19571907759765E-17	-0.827224516263795	-0.456292181482376	-0.827224516263794	-0.456292181482376	1.37801031823756E-17	-1.36892950203545E-18
55.4	-1.73564617527022E-17	3.67168653033756E-18	-0.878901700229318	-0.371079835882741	-0.878901700229317	-0.371079835882741	5.55131623875992E-18	2.30865146383074E-18
55.5	1.28106677783028E-17	3.25192647895726E-18	-0.944823219716283	-0.208278033187932	-0.944823219716282	-0.208278033187932	2.0024422335064E-17	-4.59084712370978E-18
55.6	1.75314738600269E-18	-4.37647119106441E-18	-0.938113081948974	-0.0825856927241794	-0.938113081948974	-0.0825856927241791	7.94085126420546E-18	-9.52858027785616E-18
55.7	4.00513259372444E-18	-4.48725501948443E-18	-0.964567931900582	0.0503446566313334	-0.964567931900581	0.0503446566313332	1.78313020457854E-17	-1.81385592487381E-17
55.8	9.60047159370108E-19	3.96995931062627E-18	-0.938386536709967	0.207216284864598	-0.938386536709968	0.207216284864597	4.98190489995051E-18	1.2195393091408E-18
55.9	-1.01661096544373E-17	-8.56064092154802E-19	-0.902803901355876	0.330259727546362	-0.902803901355876	0.330259727546362	1.68842608399398E-18	6.96764290121483E-18
56	-4.08543526105395E-18	-6.62092418369342E-19	-0.819305212976747	0.463476170430216	-0.819305212976747	0.463476170430216	-1.26555823789596E-17	3.15378987085922E-18
56.1	2.07406294081634E-17	-7.00095872560931E-18	-0.776150642115832	0.570396273723708	-0.776150642115832	0.570396273723709	1.55579840318851E-17	-1.19953757187107E-17
56.2	4.55417053013003E-18	6.57457577328022E-18	-0.687916330581815	0.690341068199351	-0.687916330581815	0.690341068199351	-1.06748085248748E-17	9.9234599105302E-18
56.3	-1.19850090342477E-17	-6.03158203069306E-18	-0.529349087419291	0.781686979113833	-0.529349087419292	0.781686979113833	-3.87542819413066E-17	-1.78082446347181E-17
56.4	1.90063845833854E-18	-3.1125000173829E-18	-0.46990265986861	0.848158862046168	-0.46990265986861	0.848158862046168	-9.33750005214871E-18	-5.70191537501563E-18
56.5	-1.18600569515938E-19	1.22158491552391E-17	-0.324620326725859	0.92688469601739	-0.324620326725859	0.926884696017391	1.3581353643246E-17	-6.28457383812902E-18
56.6	1.11141045190603E-17	-6.07636387216058E-19	-0.177769369037454	0.929882534310962	-0.177769369037454	0.929882534310962	2.38805145115203E-17	-3.06692953282151E-17
56.7	-1.32780074085445E-17	3.44523066407271E-18	-0.0504360945809578	0.960720472178861	-0.0504360945809578	0.960720472178862	6.38683568551093E-18	6.72448050030243E-19
56.8	2.11855808300222E-18	-8.71334517723129E-18	0.0695011600636471	0.977278428519527	0.0695011600636469	0.977278428519527	-2.75516384485459E-17	7.30289596810335E-18
56.9	2.10404771223001E-18	4.27693416459201E-18	0.21686975833713	0.932126987471225	0.21686975833713	0.932126987471224	-2.91568780512468E-17	3.71974332549105E-18
57	-2.65687200135232E-17	1.93978125182131E-17	0.371872871502674	0.859480927978239	0.371872871502674	0.859480927978239	-1.47165039854702E-17	1.12236388768655E-17
57.1	3.29387203873564E-18	3.74933040669162E-18	0.474997436404285	0.827131378505998	0.474997436404285	0.827131378505998	1.87466520334581E-17	-1.64693601936782E-17
57.2	-2.69097600476111E-17	-5.55238494890609E-18	0.59504147869466	0.777250456461155	0.59504147869466	0.777250456461154	-3.2959638939223E-17	-5.46592835285591E-18
57.3	6.09695831891804E-18	-1.08266988578743E-17	0.735854324660149	0.61287397478689	0.735854324660148	0.61287397478689	-1.66716485583491E-17	-1.14924452998976E-17
57.4	-3.28090878986705E-18	-1.89554916373757E-17	0.745510234621067	0.53603986963304	0.745510234621067	0.536039869633041	-1.25099573417578E-17	-9.68415825489716E-18
57.5	-3.01184757974066E-17	-1.37783120059637E-17	0.87097908405332	0.440982056394738	0.87097908405332	0.440982056394738	3.9976995418464E-18	-2.93587753481241E-18
57.6	-1.4352737580965E-18	-2.96469455444393E-18	0.927132422677953	0.287194702532255	0.927132422677953	0.287194702532255	2.98590663960002E-17	-1.32168156925597E-17
57.7	-5.43830003495993E-19	1.55673787138281E-17	0.915081642692574	0.150670443751065	0.915081642692574	0.150670443751065	4.71804887669562E-18	2.18257926746764E-20
57.8	6.75861339488124E-18	1.39318207046247E-18	0.963255693800288	0.0415315114976093	0.963255693800288	0.0415315114976092	3.50379231323972E-17	1.59756569831193E-17
57.9	9.34835252554386E-18	9.74108446019358E-18	0.971993570442475	-0.0799383858637627	0.971993570442475	-0.0799383858637623	1.39661685397383E-17	3.54081554112834E-18
58	-1.08108041984694E-19	1.96449545573074E-18	0.911597201846606	-0.276269686277614	0.911597201846606	-0.276269686277614	-4.45788671943272E-19	-1.76797170735764E-17
58.1	-3.11699547668262E-18	1.01649336414833E-18	0.850514968949161	-0.349054716802879	0.850514968949162	-0.349054716802879	1.85597202281237E-17	-4.15590166578114E-18
58.2	-2.63663327929596E-17	1.13819592802744E-17	0.828671773790072	-0.493070328010087	0.828671773790072	-0.493070328010088	-6.04424867591985E-18	1.87424639701836E-17
58.3	-2.35647085886443E-18	-3.96050324116658E-19	0.731612957833603	-0.618912385999154	0.731612957833604	-0.618912385999154	6.78554794134665E-18	1.72940070222295E-17
58.4	9.98565016212639E-18	-2.61301195385482E-19	0.632888841531391	-0.649666714973841	0.63288884153139	-0.649666714973842	7.20726474305756E-18	2.66639919247505E-18
58.5	-2.16352018641595E-17	1.37015732561741E-17	0.5772071097	-0.785983035087107	0.5772071097	-0.785983035087107	-3.27270138422351E-18	2.2637243820143E-17
58.6	-1.16418291903107E-17	-1.29434936768502E-17	0.426986068853418	-0.852204971344898	0.426986068853418	-0.852204971344898	9.17443351927303E-19	1.70236237804949E-17
58.7	3.49141249336283E-18	2.68495201874766E-18	0.296173891833351	-0.870980136615575	0.296173891833351	-0.870980136615574	-7.74339891387236E-18	-3.17670578768929E-18
58.8	-1.28603728444712E-17	2.72467302704079E-18	0.191739773951749	-0.918785796701008	0.191739773951749	-0.918785796701008	-1.13957183479807E-18	-2.16462724780865E-18
58.9	-1.78756162380651E-17	-8.70665048626538E-18	0.0810359925450969	-0.954141489684613	0.0810359925450966	-0.954141489684613	-2.10439020520079E-18	2.86749564233896E-18
59	2.3599593993497E-17	9.56118060234454E-18	-0.0928793211000846	-0.930663470131729	-0.0928793211000847	-0.930663470131729	1.9012569988173E-17	2.1654515401668E-18
59.1	8.40298523751135E-19	8.6148503956528E-18	-0.187128584100231	-0.91076507332357	-0.187128584100231	-0.91076507332357	6.10408252491189E-18	-9.86997839626827E-19
59.2	4.09453945504431E-18	8.58974594188286E-18	-0.312354922865846	-0.913592153220468	-0.312354922865846	-0.913592153220468	-1.04871713579315E-17	4.28544902224923E-18
59.3	-1.13193788168008E-17	1.12843964753061E-18	-0.463943373070288	-0.807309401073972	-0.463943373070287	-0.807309401073972	2.10800279509535E-18	-6.60481675507552E-18
59.4	-5.58408788578867E-18	1.5759762759811E-17	-0.534703198508327	-0.768254300878363	-0.534703198508327	-0.768254300878363	-1.78150910667383E-18	-6.59860968650329E-19
59.5	-1.89044372240772E-17	1.71495844362422E-18	-0.665036596596092	-0.680930630523972	-0.665036596596092	-0.680930630523972	-1.27637710829895E-17	7.95148147802406E-18
59.6	-8.81001035299516E-18	7.48695252717963E-18	-0.739489401474486	-0.562790556876095	-0.739489401474486	-0.562790556876095	-8.71021545669706E-18	7.84792909878215E-18
59.7	1.97741507236476E-18	-2.89601725598991E-18	-0.819704807892902	-0.481788640069885	-0.819704807892902	-0.481788640069885	-1.94622929373306E-18	-4.30123941241241E-18
59.8	6.90021363485773E-18	8.86157735553654E-18	-0.887315756381232	-0.358167408515105	-0.887315756381232	-0.358167408515105	-6.63602179192419E-18	5.73662972941049E-18
59.9	-2.13545995226107E-17	5.96519432451753E-18	-0.915046908894199	-0.243791290703678	-0.915046908894198	-0.243791290703678	8.59273234497421E-18	-4.03812398702203E-18
60	3.35935876543867E-18	2.26444713015436E-17	-0.937665864046213	-0.092066260078989	-0.937665864046213	-0.092066260078989	-9.40497154662889E-18	1.97210270244368E-17
60.1	-2.05799710551733E-17	1.16172790947245E-17	-0.932634161859233	0.0234399871899074	-0.932634161859234	0.0234399871899072	-1.83225833103908E-17	-3.61361765725444E-18
60.2	2.89918864780835E-18	-5.78026771129177E-18	-0.947896420086893	0.132152410505714	-0.947896420086894	0.132152410505714	4.36055273168776E-18	3.71588680578355E-18
60.3	6.94361036976163E-19	-2.76669875702925E-17	-0.898421442212059	0.29816483667222	-0.89842144221206	0.29816483667222	-3.66389095994086E-18	4.18734125768945E-18
60.4	2.00884590923305E-18	-1.4182261135511E-17	-0.84436556345804	0.37090941183202	-0.84436556345804	0.37090941183202	-8.44304712770985E-18	-8.25663647001829E-18
60.5	1.6519359643523E-19	-5.98203928741262E-18	-0.801766932670799	0.512944516643254	-0.8017669326708	0.512944516643254	8.09495667695988E-18	2.75150292480549E-19
60.6	-6.96793960637331E-18	4.32542319061998E-18	-0.719059122341031	0.610286279984159	-0.719059122341031	0.610286279984159	-5.93835978018353E-18	1.23141963500202E-17
60.7	8.56024584495189E-18	-6.46522236579982E-18	-0.626400666410992	0.705605243258023	-0.626400666410992	0.705605243258023	8.04269463109402E-20	-5.84200646489687E-18
60.8	8.65848279763504E-18	2.99923639423677E-18	-0.52868827626077	0.790133645402713	-0.52868827626077	0.790133645402713	7.55710879671597E-18	-1.21065841538521E-18
60.9	-6.99467768080538E-19	-2.75174603736287E-19	-0.425874972398122	0.852635967055626	-0.425874972398122	0.852635967055625	-1.25653722543886E-18	4.88586909861958E-18
61	3.55653254651086E-18	-7.5694689855437E-18	-0.293113172904199	0.903426777902177	-0.293113172904199	0.903426777902178	6.36540982070678E-18	6.54951256165484E-18
61.1	-5.73494809204693E-18	-8.42600598936625E-18	-0.1670391723251	0.919458570837685	-0.167039172325099	0.919458570837686	4.35307239098948E-18	-1.37387573425842E-17
61.2	8.3449274751446E-18	7.81983072337201E-18	-0.057859881736972	0.940455371597353	-0.057859881736972	0.940455371597353	-3.42545167410193E-18	8.88769497333426E-18
61.3	-7.95934112920489E-18	1.62175602143518E-17	0.0749241194616411	0.956838237579523	0.0749241194616413	0.956838237579523	1.02833717872954E-19	3.21912064651116E-18
61.4	2.12843101859812E-17	2.53595592226358E-17	0.232845459756528	0.914631708443376	0.232845459756528	0.914631708443377	1.55429420356859E-17	-5.38326307912022E-18
61.5	-1.01747226205891E-17	-1.28012215164541E-17	0.30503588420668	0.874014644300507	0.30503588420668	0.874014644300507	-4.96044606587177E-18	-9.82463090228872E-18
61.6	8.43549764750581E-18	1.36983447479694E-17	0.452469847512532	0.858413780447751	0.452469847512532	0.858413780447751	1.63457459410196E-17	1.51572961809466E-17
61.7	1.26334201178456E-17	2.20238893868903E-18	0.56948625626103	0.769813622654141	0.569486256261029	0.769813622654141	-1.1407496769701E-17	-3.49067672623359E-18
61.8	2.06394178149914E-18	-1.14817434855713E-17	0.64535966298709	0.676736085287331	0.64535966298709	0.676736085287332	-1.24335603434048E-18	1.01918890060587E-17
61.9	-9.48307002269408E-18	-7.6282658146809E-20	0.738717664429328	0.581570717698531	0.738717664429329	0.581570717698531	8.76909684561638E-18	-9.41314425272617E-18
62	1.71685235792518E-17	1.34000720600502E-17	0.808666445570371	0.501522682868911	0.808666445570371	0.501522682868911	2.80051658060062E-18	2.99415095594324E-18
