# GHZ S RI R 50
50	1.24878331760993E-17	6.04439513442313E-18	0.731269005674799	-0.510923937567896	0.731269005674799	-0.510923937567896	4.86099233522584E-18	1.78054894188609E-18
50.1	1.72512866015069E-18	7.20331381216382E-18	0.616694603721427	-0.610610166914142	0.616694603721427	-0.610610166914142	1.24816203793716E-18	5.89200114486365E-18
50.2	-8.94782641159685E-19	-2.38847382681474E-17	0.522068133123133	-0.699977333787186	0.522068133123133	-0.699977333787186	2.68337489148623E-17	1.13384663278553E-17
50.3	-5.80098562233865E-18	4.01865380962502E-18	0.408424432669719	-0.804083405062474	0.40842443266972	-0.804083405062474	-8.30253694125527E-18	-1.79840058887339E-18
50.4	-5.70278167584552E-18	-1.61466702118911E-17	0.232437742951331	-0.822609713517099	0.232437742951331	-0.822609713517099	2.40689693346736E-18	-1.49690638802595E-18
50.5	-3.6474435366912E-18	-2.83565771549846E-17	0.129779493888101	-0.880318750603715	0.129779493888101	-0.880318750603715	8.41313028229799E-18	5.40487668171914E-18
50.6	8.25556396193979E-18	2.72989539758517E-18	-0.033114352640316	-0.877524425856815	-0.0331143526403163	-0.877524425856815	-2.66784010724742E-18	2.01634912158033E-19
50.7	-6.74110087438571E-18	1.18384715926963E-17	-0.160921939388424	-0.857893285358057	-0.160921939388424	-0.857893285358057	1.03333797255431E-17	-2.5999629563943E-18
50.8	-1.82503054532361E-17	-3.6090212813688E-18	-0.319412893118989	-0.84285259023611	-0.319412893118989	-0.84285259023611	3.02647844696491E-18	7.67257671711618E-18
50.9	7.56371354748104E-18	-1.05600467715755E-17	-0.432227891689389	-0.747161648960158	-0.432227891689389	-0.747161648960158	-1.84735226238216E-18	-2.78998052195748E-17
51	4.02092395588778E-18	1.54797901655364E-17	-0.566932215047404	-0.68655128373309	-0.566932215047405	-0.68655128373309	6.28169873618783E-18	1.10134743908921E-17
51.1	6.9780500835806E-18	-9.16117264431734E-18	-0.666046905914389	-0.582017847435733	-0.666046905914389	-0.582017847435733	-1.2832124566169E-17	-3.74239898874675E-18
51.2	-2.94898533133186E-18	-8.98091323998934E-18	-0.745707361399287	-0.463184829655269	-0.745707361399287	-0.463184829655269	4.22770782589998E-18	-9.54659800197684E-18
51.3	9.59854253199012E-19	-5.26772566140267E-18	-0.816335365674688	-0.338320482435345	-0.816335365674688	-0.338320482435345	-5.26460507851848E-18	-9.10145219952754E-18
51.4	4.82734176237016E-19	-1.82579004287918E-17	-0.877886850988368	-0.219529482088347	-0.877886850988368	-0.219529482088347	-4.5313347355486E-19	-9.90197048248136E-18
51.5	5.76346456584491E-19	-5.36575274608665E-18	-0.867185199608293	-0.0464395032935722	-0.867185199608293	-0.0464395032935724	-6.36422236941788E-18	-1.99939031006281E-18
51.6	1.2226154160229E-18	3.64976932428796E-18	-0.888689807059816	0.0638205188536298	-0.888689807059816	0.0638205188536296	7.44131096049254E-18	2.74488683956699E-17
51.7	-6.34538593603232E-18	8.78196575118468E-18	-0.881756998195273	0.209596898203361	-0.881756998195272	0.209596898203361	-6.18936134605258E-18	3.34354368305421E-17
51.8	6.78406796517762E-18	-2.71024030201547E-17	-0.779693381916023	0.339665753729006	-0.779693381916023	0.339665753729006	-2.69209915910217E-17	-7.90040967720451E-18
51.9	-1.338207448262E-17	6.31279248058424E-18	-0.787838374639584	0.468619286896924	-0.787838374639583	0.468619286896924	1.1606850064046E-17	-1.5260244722642E-17
52	-5.43404755628438E-18	9.54054288053435E-18	-0.642922852844417	0.59277544907187	-0.642922852844417	0.592775449071871	1.05080043303499E-17	-6.46608591027075E-18
52.1	-1.29131857390431E-17	-1.44496125708451E-17	-0.55088815483592	0.672103839642656	-0.55088815483592	0.672103839642656	9.6186921369009E-19	-8.54293576025038E-18
52.2	8.84492036535838E-18	-6.80197925948563E-18	-0.464864615197129	0.757722850162997	-0.464864615197129	0.757722850162998	-1.2166174806898E-17	-8.80966743439537E-18
52.3	-1.37558516426677E-18	-1.31685086710015E-17	-0.343843043420439	0.822453125383182	-0.343843043420439	0.822453125383183	-1.93921251136911E-17	-1.57238980089797E-17
52.4	-5.39341184509332E-19	1.1782311679458E-17	-0.19405455287212	0.896692134355586	-0.19405455287212	0.896692134355586	4.59884403244928E-18	1.81245837824003E-17
52.5	1.27400698734199E-17	-6.47486295410577E-18	-0.0809839080997806	0.846156350791448	-0.0809839080997804	0.846156350791448	-5.80356210274899E-18	-2.28230243260595E-17
52.6	-2.42612123463913E-18	-8.58859763933801E-18	0.0506295898248517	0.9182731231084	0.0506295898248515	0.918273123108399	-4.13167618184911E-17	1.41473305565092E-19
52.7	-8.27030337379677E-18	3.4039284641619E-18	0.252475457565725	0.885335840407662	0.252475457565726	0.885335840407662	2.93030636632811E-18	1.02949456964289E-17
52.8	2.25692378443717E-17	-2.17707452979928E-17	0.269859995820744	0.740969066467482	0.269859995820744	0.740969066467482	1.22314572600227E-17	-5.25325528527868E-17
52.9	1.59662347951868E-17	2.16158440395753E-17	0.549124078711114	0.828040422165376	0.549124078711114	0.828040422165377	1.68578479539803E-18	-2.15958868195353E-17
53	7.13573463008967E-18	2.38512887047137E-18	0.548288192625082	0.642189371862847	0.548288192625082	0.642189371862846	-4.23905519822394E-18	-2.06329147819431E-17
53.1	2.42803848711634E-17	-1.66637646370886E-17	0.666395555840417	0.612750799548303	0.666395555840417	0.612750799548303	-2.16192617416529E-17	-1.95839167222307E-17
53.2	1.83621120449248E-18	5.08518783048432E-18	0.804724645133907	0.483677860294395	0.804724645133907	0.483677860294395	1.26817889376391E-17	1.05399209626072E-18
53.3	9.44969743170047E-18	-8.70483687916758E-19	0.817064307865877	0.369859267218453	0.817064307865878	0.369859267218453	2.80802101689034E-17	-6.08955868020189E-18
53.4	1.05485242268362E-17	1.46355442502747E-17	0.846367235649259	0.179603716812906	0.846367235649259	0.179603716812906	-1.55592002981336E-17	-2.89415507028767E-17
53.5	-2.25930951529619E-18	1.27333858860009E-17	0.923320102865556	0.136107160482405	0.923320102865557	0.136107160482405	3.31959835823776E-18	7.31302649479742E-18
53.6	-1.96015052398015E-17	7.1534750531067E-18	0.914364005371222	-0.0635741667040582	0.914364005371222	-0.0635741667040582	2.40384368033623E-17	2.45996613730587E-17
53.7	-1.04822992930015E-17	8.42737990311429E-18	0.826363708159929	-0.206140501598884	0.826363708159929	-0.206140501598884	6.73117727466917E-19	-6.77202391170626E-18
53.8	1.31615768412456E-17	4.75738352160748E-18	0.934760515704144	-0.284451852619613	0.934760515704144	-0.284451852619613	4.58745447224829E-17	-2.07981892134924E-17
53.9	-4.82079667578056E-18	3.83178414551027E-18	0.793258816364624	-0.449126776857339	0.793258816364625	-0.44912677685734	6.42763547137323E-18	4.94541301260467E-19
54	2.81483004200698E-18	9.48282679242788E-18	0.696871424744035	-0.557140797430351	0.696871424744034	-0.55714079743035	-1.59020389590181E-17	7.73660454446869E-18
54.1	-6.2180020018563E-18	8.91235212991993E-18	0.630582860835461	-0.628301141277357	0.63058286083546	-0.628301141277356	-1.24110897295185E-17	1.09518004316132E-17
54.2	-1.52323920316102E-18	2.89218985457892E-17	0.538781730995456	-0.730919684673504	0.538781730995457	-0.730919684673505	2.42730097542182E-17	1.79369314230738E-17
54.3	1.08038157897199E-17	1.02488828002899E-17	0.373619402451025	-0.821154116115751	0.373619402451025	-0.821154116115751	2.78573089633102E-17	1.69243828611094E-17
54.4	1.1930463602518E-17	-1.60771929954712E-17	0.32836276982547	-0.809211261786511	0.32836276982547	-0.809211261786511	7.15897684997006E-18	-2.25573895365162E-17
54.5	-7.72248291539848E-18	-3.13983663938212E-17	0.126135260146687	-0.943025082161859	0.126135260146687	-0.943025082161859	-1.40427363278044E-17	1.57048850522334E-17
54.6	4.04732592810079E-18	-5.36113230118619E-18	0.00138747700701549	-0.880030708861036	0.00138747700701531	-0.880030708861035	8.06923422207888E-18	-2.66150292500107E-18
54.7	-8.93305819374655E-18	1.92848786137695E-17	-0.110919870258447	-0.92701318240904	-0.110919870258447	-0.92701318240904	1.87348233107043E-17	-4.54847381803582E-18
54.8	3.10122861437762E-18	-7.52622262871306E-18	-0.271678646284559	-0.890969933906539	-0.271678646284559	-0.890969933906539	2.49806472826246E-18	-1.67961134947528E-18
54.9	-1.94281545341053E-18	8.1488924493026E-18	-0.395601576652061	-0.815399722851449	-0.395601576652061	-0.815399722851449	1.24807786634996E-17	2.57853023120836E-18
55	-3.92811250182667E-18	1.49526127839308E-18	-0.502999646241263	-0.776929505003217	-0.502999646241263	-0.776929505003216	-6.08212805858397E-19	1.35584344505494E-18
55.1	-8.14353516882482E-19	-8.00745336235697E-18	-0.629618334986242	-0.686834808904484	-0.629618334986242	-0.686834808904483	7.11200919268901E-18	-1.22302397056905E-17
55.2	2.53848499950947E-18	3.95526640741605E-18	-0.699788239670986	-0.586438692038065	-0.699788239670986	-0.586438692038066	3.55950425364142E-18	-6.322773939073E-19
55.3	6.50514707051684E-18	-1.94507183976983E-18	-0.798247219956587	-0.454544599159519	-0.798247219956587	-0.454544599159519	-1.01126017629957E-17	1.45107116829828E-17
55.4	7.39609967494602E-18	1.46509664704816E-17	-0.852714728070115	-0.373153968719035	-0.852714728070116	-0.373153968719035	-1.45297438383884E-17	-9.08410482240896E-18
55.5	1.38075633341168E-18	6.80671339371989E-19	-0.917432483100369	-0.213846969446595	-0.917432483100368	-0.213846969446595	1.34284003550954E-17	6.12723548035024E-19
55.6	3.40309576844874E-18	7.02353398380389E-19	-0.913621760489638	-0.0932965077585945	-0.913621760489638	-0.0932965077585943	-1.03259047484301E-17	-6.37211797984835E-19
55.7	5.31691947638614E-18	-1.19843278167128E-18	-0.94193769607192	0.0376022925176922	-0.94193769607192	0.0376022925176924	7.71440480672727E-18	-9.89591278689864E-18
55.8	3.02541176672818E-18	-5.46412353938898E-18	-0.917498824401446	0.190495059108629	-0.917498824401446	0.190495059108629	6.14311060908318E-18	-1.26287873395028E-17
55.9	-1.31171459091873E-17	5.62628994299276E-18	-0.885408071886513	0.31127937283386	-0.885408071886513	0.31127937283386	6.92911672074067E-18	6.19486596780885E-18
56	-3.45139761691227E-19	3.25205994142779E-18	-0.80548548244021	0.440778932888064	-0.80548548244021	0.440778932888064	2.10892954344908E-17	-3.92753478318381E-19
56.1	1.08739470313137E-18	-1.75015563616768E-17	-0.765646500294228	0.548043851057618	-0.765646500294228	0.548043851057618	-1.21104800090962E-17	-7.37464591625679E-18
56.2	-2.75365026946475E-18	-5.52131969133099E-20	-0.68023496098187	0.666732356976401	-0.68023496098187	0.666732356976401	1.25250147210808E-17	3.3994320652777E-18
56.3	4.09663036484329E-18	4.7555579417491E-18	-0.526641218796466	0.754738564493608	-0.526641218796466	0.754738564493608	1.05863317657282E-17	1.17621389016775E-17
56.4	-3.30523171648383E-18	2.73830751605867E-17	-0.469974396009158	0.824564843134757	-0.469974396009158	0.824564843134757	-1.79346243074515E-17	4.33119287857181E-17
56.5	-4.61687602800607E-18	-2.31413510182957E-17	-0.327616672548698	0.902426624349751	-0.327616672548697	0.902426624349751	-9.76847095978126E-18	-3.31816064597755E-17
56.6	-1.22565386658979E-18	1.03923426105974E-17	-0.186372990114158	0.906707129891587	-0.186372990114158	0.906707129891587	1.80649747039712E-19	2.59582753081134E-17
56.7	1.1395315344489E-17	7.69644289107327E-18	-0.0613268590675729	0.939409948966586	-0.0613268590675728	0.939409948966586	2.17451877441318E-18	1.88918797136794E-17
56.8	9.81452868131551E-18	1.242525482564E-18	0.0571246650345383	0.958557777377015	0.0571246650345384	0.958557777377015	-4.4839528241055E-19	9.71953992149081E-18
56.9	-1.32980709551524E-17	-1.06683616058627E-17	0.200502262778719	0.915873974644924	0.200502262778719	0.915873974644923	1.8001642942133E-18	7.56407004555324E-18
57	1.20947567833611E-17	6.40367753289627E-18	0.351191551350588	0.845559044457937	0.351191551350588	0.845559044457938	3.12625844420199E-18	2.15882391296179E-17
57.1	6.82456378353095E-18	-2.25166875141081E-17	0.454631036465814	0.816691748993484	0.454631036465815	0.816691748993485	2.09945747103047E-17	-1.37333378257124E-17
57.2	-1.93091959342929E-17	-2.36840518421542E-18	0.574761157251611	0.769069972949736	0.57476115725161	0.769069972949736	-1.81187173186948E-18	6.13442002278607E-18
57.3	-9.30244506775901E-19	1.85557593991664E-17	0.710246711527578	0.60769878860154	0.710246711527578	0.60769878860154	8.24364461122458E-18	2.32561476982441E-17
57.4	-5.78912608116353E-18	1.49807564480966E-17	0.723175751061837	0.537600942639068	0.723175751061837	0.537600942639068	-1.46222806473004E-17	1.98451268999809E-17
57.5	3.1034112695236E-19	1.43236008689136E-17	0.848788159910224	0.442498419272493	0.848788159910225	0.442498419272493	2.64134498376877E-17	1.83878372576337E-17
57.6	1.75374612641781E-17	-1.82584355400706E-17	0.904280273879816	0.292435555307817	0.904280273879816	0.292435555307817	-1.83608996206908E-18	1.99354682232869E-17
57.7	1.27348974387283E-17	-7.48364369211666E-18	0.89442568665374	0.161461077923605	0.89442568665374	0.161461077923605	1.75431060862463E-17	1.03709354764858E-17
57.8	-5.62284497651884E-18	4.84157906805403E-18	0.94486458578457	0.0527503184883666	0.94486458578457	0.0527503184883669	5.73699506748303E-18	1.15853205432552E-17
57.9	1.53794522242187E-18	8.03115901992E-18	0.956108724847591	-0.0672604471256391	0.956108724847591	-0.0672604471256392	1.76141410101614E-18	-1.03083474720175E-17
58	-1.64497383480699E-18	-1.94434276896353E-17	0.895828475218657	-0.258088222680142	0.895828475218657	-0.258088222680142	-1.19857292249713E-17	-2.47423310670423E-17
58.1	2.68812851813789E-18	-1.79170735668638E-17	0.84079213135972	-0.329567597341594	0.84079213135972	-0.329567597341593	-2.22754605715209E-17	-2.61307874703875E-17
58.2	1.45564507651933E-17	1.21072390239999E-18	0.819721198737858	-0.473688675308592	0.819721198737858	-0.473688675308592	1.21989194585027E-17	-1.47969280654442E-19
58.3	3.66121283155287E-18	1.32027611904665E-17	0.725438576747663	-0.597303939831915	0.725438576747663	-0.597303939831915	2.90954445124073E-18	1.30557528022825E-17
58.4	1.38247893427678E-18	9.748514270057E-21	0.633476240864103	-0.629025048681971	0.633476240864102	-0.629025048681972	6.93189169992402E-18	-2.71621529720328E-18
58.5	-3.96441025230089E-19	2.17187388415031E-17	0.577060837522376	-0.766578678540081	0.577060837522376	-0.766578678540081	-1.00014021274481E-17	4.60878956950501E-17
58.6	-4.9747448890913E-18	-1.23229797594971E-17	0.43086758497806	-0.831659109586465	0.43086758497806	-0.831659109586466	-3.32787681612502E-17	-1.28316335799419E-17
58.7	-8.07756388528233E-18	-1.03032416911271E-17	0.304808442121612	-0.851874139714332	0.304808442121611	-0.851874139714332	-9.21690284852405E-19	-1.67493927631613E-18
58.8	2.6032576883797E-18	-2.05010914559909E-18	0.201729637753879	-0.901971733479154	0.201729637753879	-0.901971733479154	1.89384373869618E-18	-4.02208558774673E-18
58.9	-2.43475526517512E-18	-3.63337900077848E-18	0.0919162681928745	-0.939658933531711	0.0919162681928749	-0.939658933531712	-5.46882239815192E-18	-4.23269086858016E-18
59	-1.4854991261653E-18	-8.68422168328876E-18	-0.0778421619388373	-0.916739637498948	-0.0778421619388373	-0.916739637498948	-8.3628592230178E-18	-9.90269173572512E-19
59.1	7.26864461902764E-18	-4.43712701982106E-18	-0.171350907501517	-0.90098337591763	-0.171350907501517	-0.90098337591763	8.8949987561829E-18	-1.91967445464721E-17
59.2	1.34817258915922E-18	7.80956027846554E-18	-0.29730809036171	-0.905344748738694	-0.29730809036171	-0.905344748738694	-5.2259236525578E-18	7.51471177350081E-18
59.3	1.70430760952084E-17	-1.21793594826905E-17	-0.444663787924951	-0.801439962566891	-0.444663787924951	-0.801439962566892	1.23120577923565E-17	-7.34809380917195E-18
59.4	-3.86973152969071E-18	-1.55801799234805E-18	-0.51753727036279	-0.766278115499344	-0.51753727036279	-0.766278115499344	5.35162718005572E-18	8.55040891615187E-18
59.5	-1.97712715810485E-17	-2.52417947669639E-18	-0.646917543524088	-0.680243059898328	-0.646917543524088	-0.680243059898328	-7.90237803416265E-18	4.96007162956542E-18
59.6	2.31186432212862E-18	-2.81610900186116E-18	-0.721030350879717	-0.565908223659592	-0.721030350879717	-0.565908223659591	4.33828714175061E-18	-1.90657975820422E-17
59.7	-3.78759436936525E-18	1.75117369873173E-17	-0.803135869235814	-0.486385606157107	-0.803135869235814	-0.486385606157107	6.18343570498343E-20	3.41912465859951E-18
59.8	3.55365992224824E-17	4.10182273665149E-18	-0.871261020842934	-0.364792504842205	-0.871261020842934	-0.364792504842204	1.64568025483826E-18	-5.34629119944549E-19
59.9	-1.981115971202E-17	1.20654720775836E-17	-0.901181680078321	-0.252954463710892	-0.901181680078321	-0.252954463710892	-1.15384047991438E-17	-8.81125572333766E-18
60	1.23398530394656E-17	6.65363802906695E-18	-0.924355041789261	-0.103759782571321	-0.924355041789262	-0.103759782571321	-8.00160993943299E-18	2.16532786269221E-17
60.1	-1.46878235339748E-17	3.27027524253853E-18	-0.922216736889245	0.00999861769421924	-0.922216736889246	0.00999861769421894	-1.26749988200011E-17	-5.99759080978179E-18
60.2	-2.79042729839783E-17	5.59034660342328E-18	-0.939867270618305	0.119274767301781	-0.939867270618305	0.119274767301781	-7.1758277936373E-18	2.5167437380297E-17
60.3	6.56427599014547E-18	-6.47844784291588E-18	-0.89123628409132	0.282379964934555	-0.89123628409132	0.282379964934555	6.12770286761372E-18	-7.0982330291833E-18
60.4	-1.11991603321195E-17	-8.88014327375841E-18	-0.842025421206876	0.355417894623075	-0.842025421206876	0.355417894623075	7.18560976313669E-18	9.28275348974456E-19
60.5	-7.15708459337469E-18	1.27737125902629E-17	-0.799895924843891	0.497416623146817	-0.799895924843891	0.497416623146818	2.01027373685267E-19	5.24746174191369E-18
60.6	-1.27130568934644E-17	6.0296548415587E-18	-0.719969745948104	0.594771010536725	-0.719969745948104	0.594771010536725	4.88534320684639E-18	-1.37188829696234E-18
60.7	-1.63314172935392E-17	-1.21756272103667E-17	-0.629482339409987	0.690355695441069	-0.629482339409987	0.690355695441069	3.08509877031203E-18	4.75107413469477E-19
60.8	-2.35624392769383E-17	1.47887611136056E-17	-0.533539505229472	0.775716185666413	-0.533539505229472	0.775716185666413	1.44589713108536E-17	2.28285673049007E-18
60.9	-4.90769705211667E-18	-1.55020729108365E-18	-0.432568236104906	0.839748134229123	-0.432568236104906	0.839748134229124	9.75964526497345E-19	1.7364736237549E-17
61	1.14228378661101E-17	1.7925221770866E-17	-0.301828783401165	0.891172526364781	-0.301828783401164	0.891172526364781	7.03623121560702E-18	1.89196814607324E-17
61.1	1.32060229787071E-17	-8.48642250496091E-19	-0.178091173888578	0.909102346695742	-0.178091173888578	0.909102346695743	5.18305011930661E-18	-1.0748523217824E-17
61.2	-6.71512560672325E-18	-6.37391164865717E-18	-0.0694208689314553	0.932552732151052	-0.0694208689314549	0.932552732151052	1.78100918331837E-18	-1.65070550027224E-18
61.3	1.37921190641765E-18	1.33043914360305E-17	0.0631338942875284	0.950129827121978	0.0631338942875284	0.950129827121979	4.5569649283719E-19	6.38587871320814E-18
61.4	-2.86351799869986E-18	4.86555672766803E-18	0.218508879072941	0.909024391252419	0.218508879072941	0.90902439125242	-6.37823466796892E-18	-2.33431235599743E-17
61.5	-2.79040291048217E-18	1.1780496498966E-18	0.291441664798814	0.87293330588382	0.291441664798815	0.872933305883821	-1.07202821413364E-17	5.29946695205887E-18
61.6	5.36369114549453E-18	2.5645094730443E-17	0.439713257836129	0.856994108363553	0.439713257836129	0.856994108363553	1.51691642624679E-17	1.33672909312715E-17
61.7	-2.23706157321595E-18	-1.31198462427115E-17	0.555771847029332	0.770540804600392	0.555771847029332	0.770540804600391	-1.20063567764776E-17	1.36980055938845E-18
61.8	-1.13222467648417E-17	1.09846616863446E-17	0.632205607073175	0.680733107248576	0.632205607073175	0.680733107248576	-2.82045688671876E-18	-2.46073496535479E-18
61.9	4.13144576495293E-18	1.20698237249007E-17	0.726112839854466	0.587084546418828	0.726112839854466	0.587084546418828	1.33332817253272E-18	2.61474922677553E-18
62	-1.15477380934606E-17	-1.00376765536619E-17	0.798304642522535	0.50819171570779	0.798304642522535	0.50819171570779	-6.89888613018858E-18	-1.9212767616253E-18
