# GHZ S RI R 50
50	-9.63672741610205E-18	-2.302528875601E-17	0.786807141390649	-0.561223215953353	0.786807141390649	-0.561223215953354	8.47043087455118E-18	9.77125415397692E-18
50.1	7.76650156740774E-18	-1.46869145474091E-17	0.663285448978576	-0.668814464930369	0.663285448978576	-0.66881446493037	3.00792550834846E-18	-8.49059422170738E-18
50.2	8.02524194473245E-18	-3.37171973145763E-17	0.558860870870585	-0.766344006624417	0.558860870870585	-0.766344006624418	1.53359117801955E-17	-3.28386151107093E-18
50.3	-1.63229295440468E-17	-1.54562712035423E-17	0.432380828312307	-0.877447972882467	0.432380828312308	-0.877447972882467	1.56909867692351E-17	-6.8220763025785E-18
50.4	2.2716614014395E-17	-3.1324318345801E-18	0.244577682965922	-0.896595335053677	0.244577682965923	-0.896595335053676	-1.15485083424395E-17	1.88890265219E-18
50.5	-3.91252621343561E-18	-1.0690320158651E-18	0.128588779565128	-0.958489538801354	0.128588779565128	-0.958489538801353	8.60755766955834E-18	2.35187043490323E-18
50.6	-1.88077198411482E-17	2.66863389625542E-18	-0.0473924412110126	-0.953679805834561	-0.0473924412110127	-0.95367980583456	-5.34876847461825E-18	-5.82494682609464E-18
50.7	2.34415174238434E-17	-1.7050775783108E-17	-0.187439756980886	-0.931849369654274	-0.187439756980886	-0.931849369654275	-9.65091354274553E-18	-2.75158740758343E-18
50.8	-9.49353411538813E-18	2.04605990101212E-18	-0.360119171198531	-0.911271690539698	-0.360119171198531	-0.911271690539698	-7.18626554276143E-18	2.15638974380905E-17
50.9	9.57008290846931E-18	1.6853299269662E-18	-0.481733213302295	-0.808476797494173	-0.481733213302295	-0.808476797494172	-7.31303634468396E-18	1.35124593992209E-17
51	-1.05180078676828E-17	-1.65808641317131E-17	-0.628087695638734	-0.738584027303681	-0.628087695638734	-0.738584027303681	-5.3523117577225E-18	2.43302864496609E-18
51.1	-2.99745494160608E-18	1.1525273722231E-17	-0.73515330512831	-0.623630095968845	-0.73515330512831	-0.623630095968845	-6.08621102229355E-18	-7.16445931393964E-18
51.2	8.04474079107382E-18	2.27521903797504E-17	-0.820915287124142	-0.493222623169029	-0.820915287124142	-0.493222623169029	-4.30357602074989E-18	-1.31545687537773E-18
51.3	-7.66972159758773E-18	-8.32211095328841E-18	-0.89630999492173	-0.35533103460097	-0.896309994921729	-0.35533103460097	-4.35026340530694E-18	6.97797866341151E-18
51.4	3.51610815844823E-17	2.52607301166638E-19	-0.961805394248934	-0.222515589966171	-0.961805394248934	-0.222515589966172	1.37580631993859E-17	-4.56515738628132E-18
51.5	7.37993754550595E-18	-1.4306326779557E-17	-0.948103800181217	-0.0368645549075278	-0.948103800181217	-0.0368645549075275	-1.72916973234193E-18	-7.96682750386066E-18
51.6	2.57668959927741E-17	8.28473686679017E-18	-0.970228269273427	0.0874420737517665	-0.970228269273428	0.0874420737517662	-1.59767074020643E-17	8.7595780165111E-18
51.7	7.29731033390462E-18	1.05509204367177E-17	-0.959060114913243	0.247656786356559	-0.959060114913244	0.247656786356559	4.21110703009992E-18	2.10120494881598E-17
51.8	-5.27928153721015E-18	-1.8620343287144E-17	-0.848958052062033	0.385997131944687	-0.848958052062032	0.385997131944687	3.43858765265516E-17	2.59925660393789E-17
51.9	-2.62314859211548E-17	2.00308246242872E-18	-0.85081899737376	0.53137685697449	-0.85081899737376	0.53137685697449	-2.25422928032748E-17	1.03607003591993E-17
52	6.32204400695671E-18	1.09286565613289E-18	-0.692970131634104	0.66126229141149	-0.692970131634104	0.661262291411491	1.04921319312643E-17	-2.89419567888783E-18
52.1	8.46227579341393E-18	4.87311538712013E-18	-0.590872642229895	0.748541847481169	-0.590872642229895	0.748541847481169	2.75296248785964E-17	-6.97786615871689E-18
52.2	-8.14572401646932E-18	-7.73820137158924E-18	-0.492605277116358	0.842434959905525	-0.492605277116358	0.842434959905523	1.89196657549938E-17	-1.0172389286341E-17
52.3	-6.40912744796927E-18	-2.97750761611017E-17	-0.35777982443291	0.911533543110211	-0.35777982443291	0.911533543110211	-1.20174863526161E-17	-6.61324984602705E-18
52.4	-1.58661154021021E-19	-4.31565876931588E-18	-0.19063108939919	0.987287630143623	-0.190631089399189	0.987287630143623	-3.38264632857162E-17	-4.75848039203615E-17
52.5	1.78173100112883E-17	-4.27910250863013E-19	-0.0694453779852777	0.935602454811989	-0.0694453779852779	0.935602454811989	-2.69678539178046E-17	-2.10071189624306E-17
52.6	-9.31349116574194E-18	-7.46515733356464E-18	0.0819830504341259	1.00804351667674	0.081983050434126	1.00804351667674	-2.1238236262902E-17	-1.9896839372396E-17
52.7	-1.25588418790591E-19	-9.56204333732958E-18	0.298903669781318	0.964333990256595	0.298903669781318	0.964333990256595	-1.83263615248751E-18	9.83298566265405E-18
52.8	3.95133360831936E-17	3.72337255129569E-18	0.316815053181307	0.818000763158445	0.316815053181307	0.818000763158445	1.54119893572419E-17	-2.66871461156586E-17
52.9	2.1642585516497E-17	-2.70449902490371E-17	0.625461350056696	0.888258385663032	0.625461350056696	0.888258385663033	-1.59909984979293E-17	2.03700020413168E-17
53	1.44035039284345E-17	-5.97697828950294E-18	0.622105847072769	0.697228310151459	0.622105847072769	0.697228310151459	-1.89190663895271E-17	-2.12179372222251E-17
53.1	1.67807187660963E-17	-1.76942759009449E-17	0.75485987923474	0.655989872945878	0.75485987923474	0.655989872945877	-2.41977833379568E-18	-1.71800225528796E-17
53.2	-2.02390732548119E-17	-2.45376338060337E-17	0.899748335465311	0.507494034158079	0.899748335465311	0.50749403415808	-3.58453265498823E-17	8.68842780179524E-18
53.3	-3.85743584565423E-18	-7.58146847442181E-18	0.914962296232563	0.383746245484851	0.914962296232563	0.383746245484851	2.35076872318053E-18	7.26623000088946E-18
53.4	1.12463576130216E-18	-7.23118626993815E-18	0.940046836048074	0.177359943258788	0.940046836048074	0.177359943258788	-2.7672198670061E-17	-3.38409936856617E-17
53.5	-1.05412736543847E-17	-1.19335461406384E-17	1.02631246374862	0.1169984698148	1.02631246374862	0.1169984698148	-1.00863528316881E-17	-3.03505625013542E-17
53.6	1.88660664352434E-17	-1.46277541684297E-17	1.00792934372653	-0.0990331569683785	1.00792934372653	-0.0990331569683784	1.77227444685277E-17	-6.61012205056697E-17
53.7	9.32171467866086E-18	-1.99430375641229E-17	0.911148303468887	-0.250106386363568	0.911148303468887	-0.250106386363567	-3.75560607541862E-17	1.58589132723729E-18
53.8	1.4535581101354E-17	5.34520222787365E-18	1.02200484932152	-0.353924821071012	1.02200484932152	-0.353924821071012	-1.21812872810992E-17	1.73332720881175E-17
53.9	4.46358555493102E-18	-3.16093050181682E-17	0.863644987497316	-0.524302705747819	0.863644987497316	-0.524302705747819	-2.3784393171204E-17	-2.33471809774063E-17
54	-7.6606631009995E-19	2.02968567674536E-18	0.755229365585311	-0.640842281107634	0.75522936558531	-0.640842281107633	-1.17540712087365E-17	-1.93915709481242E-18
54.1	1.01678588792098E-17	1.26198892315883E-17	0.679381643491542	-0.72215306686909	0.679381643491542	-0.72215306686909	2.49086382003168E-17	-1.17728656097979E-17
54.2	1.2706853500576E-17	-1.63008549672947E-17	0.571787257364991	-0.833498773824062	0.571787257364991	-0.833498773824062	-3.21651023531757E-18	-3.29526699258747E-17
54.3	-2.94380310920003E-17	-1.50114720018013E-17	0.387102205942	-0.924184066048243	0.387102205942	-0.924184066048242	-5.00382400060045E-18	9.81267703066675E-18
54.4	4.02370680684328E-18	5.55058786021182E-18	0.33504674654367	-0.919913350957596	0.33504674654367	-0.919913350957597	-2.72953902849849E-17	1.18174990781957E-17
54.5	-3.4254244527666E-18	-1.2489962666665E-17	0.103207548077823	-1.04989987703078	0.103207548077823	-1.04989987703078	8.34062717647252E-18	7.56077454426327E-18
54.6	-1.71060429194245E-17	-1.9094122501948E-17	-0.0299141107648182	-0.982173897830345	-0.0299141107648182	-0.982173897830345	-3.7514926812131E-18	-6.48363205337228E-18
54.7	-1.46557875886079E-17	2.25518013665073E-17	-0.162912675786752	-1.02807842954608	-0.162912675786751	-1.02807842954608	-4.15441747739783E-18	1.91379135438251E-17
54.8	1.43802559120105E-17	-8.90679137623691E-18	-0.338810103665507	-0.980824877429788	-0.338810103665507	-0.980824877429788	1.54191122834913E-17	4.52319135771085E-18
54.9	-1.47387410865379E-17	9.82668131331893E-18	-0.473291290167615	-0.894323325742645	-0.473291290167615	-0.894323325742645	-2.06189913630508E-17	-7.58084939166809E-18
55	3.4506483010226E-18	9.61562378290015E-18	-0.595197884380841	-0.845805797470332	-0.595197884380841	-0.845805797470331	7.43237965379067E-18	-4.23371749528258E-18
55.1	-8.77238910760161E-19	-5.99276367556283E-18	-0.731787793680114	-0.739322978365095	-0.731787793680114	-0.739322978365094	7.51788005965935E-18	-8.61614886585847E-19
55.2	1.41388749382654E-17	-6.00314067036517E-18	-0.808643829496524	-0.625934324527544	-0.808643829496524	-0.625934324527544	5.36227342696365E-18	9.85449318301485E-18
55.3	-2.51140839285036E-18	1.19870637746382E-18	-0.910943843015532	-0.474432962836319	-0.910943843015532	-0.474432962836319	-6.07465649361434E-18	1.20667899679298E-17
55.4	-9.80814904083997E-18	-1.02587301382162E-17	-0.972456992789102	-0.377896532688176	-0.972456992789101	-0.377896532688176	7.45009476102179E-19	-1.33975480112858E-17
55.5	-1.68561447566295E-17	-1.49494727448278E-17	-1.03475390648809	-0.197261204747727	-1.03475390648809	-0.197261204747727	-1.77413602782225E-17	-1.27121051964498E-17
55.6	-9.46345992341153E-19	-1.12583943011993E-17	-1.02895540949784	-0.0626044359605353	-1.02895540949784	-0.0626044359605351	-1.53091816878092E-17	3.70157895542759E-18
55.7	-1.4497155488892E-17	4.41046464467695E-18	-1.05360441355569	0.0881860195484802	-1.05360441355569	0.0881860195484802	-8.77154431394007E-18	-2.45437168410929E-18
55.8	-5.96274193042175E-18	1.51867598166396E-17	-1.01904196091155	0.25716943507431	-1.01904196091155	0.25716943507431	-1.48904730035358E-18	7.33313310475685E-18
55.9	1.24451736287019E-17	2.41217743431998E-17	-0.978113988303054	0.393149508276509	-0.978113988303054	0.393149508276508	8.12736494395817E-18	3.49383762361506E-17
56	3.36207931566522E-18	-2.40973572613188E-18	-0.884252837264557	0.533370401759641	-0.884252837264557	0.533370401759641	1.05018274855672E-17	1.18120071090751E-17
56.1	1.13239013650486E-17	-1.28248026359716E-18	-0.832168278690945	0.655773718446939	-0.832168278690945	0.655773718446939	-2.55959570782143E-17	-1.01609078538483E-17
56.2	2.81864378397733E-18	7.77392270670916E-18	-0.728959640137824	0.784740019017548	-0.728959640137824	0.784740019017548	-2.03667226071056E-17	2.14579364394621E-17
56.3	-4.63472742244712E-18	-1.32326496804722E-17	-0.556285539570074	0.873418216261526	-0.556285539570074	0.873418216261527	2.59575051612529E-17	2.4836863122724E-17
56.4	1.79131739013059E-17	-3.276393584085E-18	-0.483854132305803	0.954377092512384	-0.483854132305802	0.954377092512384	2.30502743292549E-17	3.48184179629684E-17
56.5	-8.35768190418679E-19	-5.7168504130134E-19	-0.31926329780261	1.03223261570435	-0.31926329780261	1.03223261570435	-4.31236787201074E-18	-1.52179023998029E-17
56.6	6.90639115871835E-18	-1.52011588836496E-17	-0.162763157194283	1.03265716696662	-0.162763157194282	1.03265716696662	7.58081455364083E-18	-2.34509577189813E-17
56.7	3.88900770695409E-19	-1.17565276079829E-17	-0.0175759634843669	1.06293855547786	-0.017575963484367	1.06293855547786	-1.05749078813766E-17	2.31889712403863E-17
56.8	4.97238112177495E-18	2.19017533310361E-17	0.120847584162854	1.07813587972064	0.120847584162854	1.07813587972064	-1.25250627968011E-17	-3.90303090597833E-17
56.9	-6.78195987833432E-18	-9.60988593340417E-18	0.278665226122819	1.02396212172892	0.278665226122819	1.02396212172892	-1.14360493803896E-17	-1.36723430455551E-17
57	2.90716734937766E-17	2.86375870232895E-18	0.441629675469363	0.937862023587365	0.441629675469363	0.937862023587365	5.53326176355485E-18	-1.84015301976222E-17
57.1	-4.21849482595154E-18	1.31061180026269E-17	0.561644914823692	0.898331676694418	0.561644914823692	0.898331676694418	4.05570172295047E-19	3.9183163950449E-17
57.2	6.42800755483546E-18	1.05453187075446E-17	0.697015823729963	0.834638091704617	0.697015823729964	0.834638091704618	2.77159387645644E-17	1.96135272641196E-17
57.3	-7.44795625486866E-18	1.78547818290875E-17	0.833455413467784	0.64851324240802	0.833455413467784	0.64851324240802	-5.03666007256772E-17	9.2602062010928E-17
57.4	3.95527875863426E-18	-9.56981419580682E-18	0.854339562525215	0.570373713325251	0.854339562525215	0.570373713325251	1.56456608021254E-17	-3.87019159380536E-17
57.5	1.5576685008961E-17	-5.46219461334144E-18	0.988116247956679	0.449005480849085	0.988116247956679	0.449005480849085	4.06705424543373E-17	-1.24522003253774E-17
57.6	-5.93200137851201E-18	1.23525111659853E-18	1.04077553400623	0.277616106418318	1.04077553400623	0.277616106418318	1.73952776847369E-17	-2.01838179300794E-17
57.7	-8.36251163106603E-18	-1.75751856371973E-17	1.02680736802181	0.13254139877566	1.02680736802181	0.13254139877566	4.72172595573794E-19	-1.79850257713428E-18
57.8	9.95689793956643E-19	1.05567870816057E-17	1.07659480194771	0.000491140743076311	1.07659480194771	0.000491140743076311	-4.03045626115842E-18	1.00495403553071E-17
57.9	2.40168998646401E-17	-2.39267940515481E-17	1.0822432671244	-0.139736971855803	1.0822432671244	-0.139736971855803	6.44800789274965E-18	-1.61093906064406E-17
58	-7.33667938808548E-18	-6.62495743778372E-18	1.00183837349216	-0.344882322268335	1.00183837349216	-0.344882322268335	6.89281611832076E-18	8.82494387415741E-18
58.1	7.73250540326707E-18	-1.16973967544401E-17	0.940755486192768	-0.428120935596845	0.940755486192768	-0.428120935596845	8.48901468624164E-18	-2.45563728651509E-17
58.2	-1.27989795508229E-17	1.4268828337129E-17	0.902319824679649	-0.592073288150962	0.90231982467965	-0.592073288150962	1.13984767152084E-17	-5.67240556544637E-17
58.3	-8.43093884003734E-18	1.127088361888E-17	0.788211910200289	-0.72489777149572	0.78821191020029	-0.72489777149572	2.67438319101457E-17	3.81751030128923E-17
58.4	-3.82147587813617E-19	-3.63457357421769E-18	0.686739609589504	-0.762730512278179	0.686739609589504	-0.762730512278178	-3.33820061916272E-17	1.45341228068824E-17
58.5	-2.7962558355586E-17	1.41924976073708E-17	0.604464980455574	-0.914914180747699	0.604464980455575	-0.9149141807477	-1.636503590752E-18	-3.83744135346161E-18
58.6	2.93489602646561E-17	1.7825789647866E-17	0.436945633315622	-0.978366006306891	0.436945633315622	-0.978366006306891	1.38493829931089E-18	-2.53120034979482E-17
58.7	6.89439130585766E-18	-8.93597769581016E-18	0.294265330077148	-0.997010408586496	0.294265330077148	-0.997010408586496	-9.48643050075505E-18	9.49224536037702E-18
58.8	-7.67071565768209E-18	2.63103340301005E-17	0.168864419092996	-1.04843571059862	0.168864419092996	-1.04843571059862	-1.39083273862782E-17	4.67271753544432E-18
58.9	-2.24122847472144E-18	2.91933979712301E-18	0.0361951509747304	-1.08423177556786	0.0361951509747303	-1.08423177556786	-6.85717777430848E-18	-4.55053432097506E-18
59	1.18529155379697E-17	-1.46237129209352E-17	-0.151392713165501	-1.04633802591134	-0.151392713165501	-1.04633802591134	2.0005179424865E-17	-4.14364971716727E-18
59.1	3.65082195453521E-18	4.63984140031524E-18	-0.262491856918026	-1.02475734483422	-0.262491856918026	-1.02475734483422	-5.94434342611726E-18	9.34716730349478E-18
59.2	-3.54870181269797E-18	-8.54327664341322E-18	-0.411364661403166	-1.01667042984054	-0.411364661403166	-1.01667042984054	-1.9825350482574E-18	-1.40512022633082E-17
59.3	7.01986636559817E-18	-1.32136126058242E-18	-0.566879323010926	-0.890620357445307	-0.566879323010926	-0.890620357445306	-3.63836790269448E-18	5.50249960800002E-18
59.4	-1.32119813263192E-17	-4.12205977991304E-17	-0.655953344170026	-0.844177877950628	-0.655953344170026	-0.844177877950628	-8.59766680569982E-18	-1.24223403188053E-17
59.5	-4.03095645391909E-18	5.82663330371891E-19	-0.795797727592241	-0.733715835074753	-0.795797727592241	-0.733715835074753	-3.02836486654051E-17	3.73692082805107E-18
59.6	1.21641311173019E-17	-3.64406280075632E-18	-0.873674839189168	-0.599612061178358	-0.873674839189168	-0.599612061178357	1.00842035554806E-18	-8.21658884141061E-18
59.7	3.34257154627886E-18	5.14265322094667E-18	-0.964320114341633	-0.497630940619678	-0.964320114341633	-0.497630940619678	-2.7578162159782E-18	1.19856372896796E-17
59.8	-1.18391087835978E-17	5.2163027640127E-18	-1.0328129972057	-0.351711731222814	-1.0328129972057	-0.351711731222814	3.39267493419308E-18	9.13075768033525E-18
59.9	1.76936776239501E-17	-2.04011746826878E-17	-1.0617515977338	-0.219441739844201	-1.0617515977338	-0.219441739844201	1.73587841385817E-17	-8.05210884621407E-18
60	1.88034107959067E-17	1.58035687450986E-17	-1.07597684752023	-0.0474841588280264	-1.07597684752023	-0.0474841588280264	-2.42029556794959E-18	1.59467570970351E-17
60.1	-2.91570028772494E-18	-5.57382639340444E-18	-1.0674027946148	0.0856878114493423	-1.0674027946148	0.0856878114493421	-1.81484352171163E-18	-4.99609588684527E-18
60.2	9.61514431900858E-18	-1.09093912151096E-17	-1.0776092302851	0.218920917031003	-1.0776092302851	0.218920917031003	8.1848139687718E-19	1.93129416154242E-18
60.3	-1.83127017756754E-17	8.77527151156384E-18	-1.00810715265746	0.398414116293783	-1.00810715265746	0.398414116293783	-2.30722389227274E-17	-3.27086339895123E-20
60.4	9.28822372990911E-18	-1.03303890417779E-17	-0.949637327933147	0.485496757088609	-0.949637327933147	0.485496757088609	8.66629624131606E-19	-1.19968057134745E-18
60.5	1.67978467185402E-17	2.10564280055503E-18	-0.884536635661574	0.645434739735194	-0.884536635661574	0.645434739735195	1.09855635278192E-18	2.53601483727484E-18
60.6	-1.00201622613197E-17	-6.05937834054906E-18	-0.784686956575469	0.75312763637664	-0.784686956575469	0.753127636376639	8.62229971264536E-18	-9.91492443083543E-18
60.7	-2.64366514836919E-17	4.39801752224976E-18	-0.671332588543749	0.85685902444497	-0.671332588543748	0.85685902444497	4.14290916484538E-18	-8.95956959964919E-18
60.8	-1.00606119833642E-17	-2.3759250812333E-18	-0.551198764751544	0.948329502374783	-0.551198764751544	0.948329502374782	1.69298801141767E-18	-7.56984959715941E-18
60.9	7.88115998052855E-18	-1.73611291710085E-18	-0.426690617774559	1.01576289653895	-0.426690617774558	1.01576289653894	1.22152051375947E-18	2.68143895590168E-17
61	-6.63282303096483E-19	1.21359343403995E-17	-0.271048982205637	1.06368942808127	-0.271048982205638	1.06368942808127	4.94157692512904E-18	-8.77391405613473E-19
61.1	3.44303675742771E-18	2.96039582983065E-17	-0.125951708788623	1.07629129213029	-0.125951708788622	1.07629129213029	1.51965019672211E-17	2.08782499641377E-17
61.2	1.04813079068036E-17	6.89549761087824E-18	0.00648816560678648	1.09492654415815	0.0064881656067865	1.09492654415816	1.14009652937376E-17	-3.25499657334787E-18
61.3	-1.60168858813347E-19	9.60113938783429E-18	0.164274390218547	1.10101374262413	0.164274390218548	1.10101374262413	3.67213540585181E-19	1.22496693474268E-17
61.4	-3.96870074184637E-18	4.7933467497328E-18	0.336983743340499	1.04002218904618	0.336983743340499	1.04002218904618	-8.49889346341835E-18	1.83124665114616E-17
61.5	1.85885268224464E-17	-4.76355596486998E-18	0.426393869065332	0.995358204873526	0.426393869065332	0.995358204873526	-5.27954260787722E-18	4.80287840135243E-18
61.6	4.16712045476329E-18	2.16382088037692E-17	0.597510607133204	0.955645908160812	0.597510607133203	0.955645908160811	-1.32463716480218E-17	-1.80944547016456E-17
61.7	7.61682935769403E-18	2.07697256769575E-17	0.723426086061047	0.845755394298256	0.723426086061046	0.845755394298255	-1.51714783812257E-17	6.59190192625913E-18
61.8	3.33363453026374E-17	-2.19429909936262E-17	0.80758599538062	0.736231891999479	0.807585995380621	0.736231891999479	1.56427287966265E-17	-1.08114854171442E-17
61.9	5.12575478498626E-18	7.24696896851613E-18	0.908355184078533	0.616800446203035	0.908355184078533	0.616800446203035	2.19930624348319E-19	2.60683251917058E-17
62	-8.871092526545E-18	-8.88695689884497E-18	0.988208318614621	0.513519216294404	0.988208318614621	0.513519216294403	1.6034147178002E-17	-3.37437040196141E-18
62.1	-1.80887836506936E-17	5.48030819596978E-18	1.06535924772807	0.362752929860796	1.06535924772807	0.362752929860796	-7.17151100317021E-18	6.60961651931409E-18
