# GHZ S RI R 50
50	-2.01145000635757E-17	-1.35579933927079E-17	0.817457494376439	-0.578287645348599	0.817457494376438	-0.578287645348599	1.53904718195351E-17	-1.48560880302083E-17
50.1	-2.14240670794686E-17	6.83327755348167E-18	0.686765820271287	-0.693844463626233	0.686765820271287	-0.693844463626233	-3.39968558821442E-18	-9.05881201407473E-18
50.2	1.47003030692998E-17	2.9271633768108E-17	0.575581924955154	-0.79105539426414	0.575581924955154	-0.79105539426414	-8.66474078677086E-18	1.84607299180744E-19
50.3	1.05280582763016E-18	1.38014413153021E-17	0.448914348979808	-0.901224923377685	0.448914348979808	-0.901224923377684	-1.35861940146568E-17	1.41093903347928E-17
50.4	1.46241657374886E-17	-1.56549863383186E-17	0.249460260075963	-0.929195905175315	0.249460260075964	-0.929195905175316	2.22912393519761E-18	-7.0583827742704E-18
50.5	-7.91582046009309E-19	1.57064316426554E-17	0.132983089828684	-0.982660394501609	0.132983089828684	-0.982660394501609	-1.36013300115511E-18	4.93322543618401E-18
50.6	-8.79737775701264E-18	1.26432358757585E-17	-0.0493972276379347	-0.980118661305935	-0.0493972276379345	-0.980118661305935	5.65849219810596E-18	6.14487479791946E-18
50.7	-9.38377651163313E-18	3.10115758189568E-18	-0.194362281723572	-0.953133932592645	-0.194362281723572	-0.953133932592645	8.6767576639063E-19	-2.15312866278735E-18
50.8	-3.86428702841761E-17	-2.12460648769611E-17	-0.365458098825491	-0.933430738340639	-0.36545809882549	-0.93343073834064	-2.40268084570956E-17	1.50972192607987E-17
50.9	-1.39488386427841E-17	1.26221267436947E-17	-0.496644754826427	-0.824522729428856	-0.496644754826427	-0.824522729428856	7.59668517079108E-18	-1.78001000227531E-17
51	-8.61408778990445E-18	-1.04514966622063E-17	-0.640592001272745	-0.754276588584333	-0.640592001272744	-0.754276588584333	2.80259162681676E-18	3.90292714390558E-18
51.1	-1.98976896586246E-17	-7.29563068525466E-18	-0.74983393813914	-0.635133785942686	-0.74983393813914	-0.635133785942686	1.21184078144168E-17	1.156502295822E-17
51.2	-9.29654416278433E-18	-2.49078565459924E-18	-0.836897087859103	-0.50022272245292	-0.836897087859103	-0.50022272245292	1.78070062661527E-18	1.02764449790698E-17
51.3	-2.16464012008827E-18	1.39796589393329E-18	-0.911620660188956	-0.360095411821254	-0.911620660188957	-0.360095411821254	6.22514755617379E-18	-7.86969717147271E-18
51.4	2.18445621259766E-17	-8.50558906682762E-18	-0.972819579888249	-0.22768171458909	-0.97281957988825	-0.22768171458909	1.06610421973967E-17	3.34714844350289E-18
51.5	-6.45576087401739E-18	-3.45767805340111E-19	-0.964614085407816	-0.0333562216872145	-0.964614085407815	-0.0333562216872149	-4.47701995408375E-18	6.16970255889726E-18
51.6	-2.57169119009534E-17	-1.14693191064728E-17	-0.97848739609941	0.08872872319309	-0.97848739609941	0.0887287231930902	9.43669164245331E-19	7.48784985350208E-18
51.7	-1.3311602878073E-17	1.61328444868166E-17	-0.966478061587065	0.246996468048411	-0.966478061587064	0.246996468048411	-6.93321241182468E-18	-1.78504934632722E-17
51.8	6.5465976562723E-18	-9.58141485615979E-18	-0.853995337671716	0.397736302001959	-0.853995337671716	0.39773630200196	5.54625906701486E-17	6.40042999755371E-18
51.9	-2.95299956694501E-17	1.21548492959905E-17	-0.854108146013448	0.528380040567747	-0.854108146013448	0.528380040567747	5.63530449045722E-17	1.24716020508809E-17
52	9.55068545372588E-18	4.84081591955718E-18	-0.697130474853902	0.670221246160971	-0.697130474853902	0.670221246160971	2.87226337748888E-19	-7.29465949509599E-18
52.1	8.30162094908427E-18	-6.17908145678653E-18	-0.58954263070898	0.755140532690803	-0.58954263070898	0.755140532690803	3.76567901662771E-18	8.49490609033622E-18
52.2	-6.64678749390495E-18	1.41786968157604E-17	-0.490833495668984	0.842000118148331	-0.490833495668984	0.84200011814833	-1.68392859361562E-17	2.04236655067743E-17
52.3	-8.61618070028271E-18	2.63486358006827E-17	-0.35579385399963	0.908719366026676	-0.35579385399963	0.908719366026675	-5.6365053599554E-18	3.52927262489175E-17
52.4	6.58019301321523E-18	-6.76778747994236E-18	-0.195189654926051	0.986077852076184	-0.195189654926051	0.986077852076184	-6.05423593454152E-17	-3.00044098561251E-19
52.5	-1.44192624221133E-17	4.13435475743067E-19	-0.0594403146585186	0.927942389052525	-0.0594403146585188	0.927942389052525	-1.02435050842684E-17	3.21893265602813E-18
52.6	-9.02015109745659E-18	-1.87943739927948E-17	0.0759307557607767	0.996970500286335	0.0759307557607766	0.996970500286335	-2.04394065244005E-17	4.00878933308475E-18
52.7	2.20908260634038E-17	2.3463789079929E-17	0.293407511170161	0.965373379876673	0.293407511170161	0.965373379876673	-1.17521159023365E-17	1.49429119075701E-18
52.8	-1.75079476610271E-18	1.27316120049132E-17	0.331464029486606	0.794333707170021	0.331464029486605	0.79433370717002	2.12573485464665E-17	-1.87406475850171E-17
52.9	-1.26448122480205E-17	1.24234047012197E-17	0.605886800186238	0.896181847729994	0.605886800186238	0.896181847729995	-7.08732159568402E-17	2.1687412161699E-18
53	-2.50375003776638E-17	-2.28867042251336E-18	0.622470928004261	0.681966000063092	0.622470928004261	0.681966000063092	-8.23986533826267E-19	4.15074912599772E-17
53.1	-9.23535267849204E-18	-1.85294214108589E-17	0.73832166391392	0.645299803462681	0.73832166391392	0.645299803462682	4.42231410127286E-18	7.81835388105549E-18
53.2	3.78737888508387E-18	-4.28277293778793E-18	0.884458218639264	0.509841853671609	0.884458218639264	0.509841853671609	-2.04230765835315E-17	-2.79659077967575E-18
53.3	-7.8219723801888E-18	2.01383577124809E-19	0.895703764781111	0.376945043068837	0.895703764781111	0.376945043068838	-1.63472388370921E-17	1.14003383959055E-17
53.4	5.38049397046383E-18	-5.45258943265338E-18	0.931613728405679	0.169774992039255	0.931613728405679	0.169774992039255	1.15796649634381E-18	1.45673451259381E-17
53.5	5.29208820224386E-18	7.64411673574478E-18	0.996557791717109	0.123411518320568	0.996557791717108	0.123411518320568	4.2305498019039E-18	8.27895926935463E-18
53.6	6.32307764818141E-18	5.79928926086357E-18	0.990321920478314	-0.0919062043814749	0.990321920478314	-0.0919062043814751	1.32852341212471E-17	-1.29619330087682E-17
53.7	2.80978210952239E-18	1.23796210135169E-17	0.894590920520431	-0.254477229841789	0.894590920520431	-0.254477229841789	3.3143661230906E-17	5.07414255614038E-18
53.8	-1.82459934893255E-17	-1.54465750743117E-17	0.994190250345982	-0.322925014142571	0.994190250345981	-0.322925014142572	-4.79307441886055E-17	-1.4386482718135E-17
53.9	1.63114088262553E-17	-3.72473751868478E-18	0.845226030770386	-0.507347693286366	0.845226030770387	-0.507347693286366	-1.4877803052626E-17	-7.92777928736279E-18
54	5.45680844612389E-18	1.7304984344834E-18	0.737183970558618	-0.624457846693501	0.737183970558618	-0.6244578466935	1.06411481410487E-18	1.3309544865973E-17
54.1	-1.92628957712093E-17	-2.46889951035731E-18	0.65723322275769	-0.696414858253411	0.65723322275769	-0.696414858253411	-6.46784619866932E-18	2.5867874061214E-17
54.2	-1.17987267548663E-17	6.15973023846471E-18	0.556453818851926	-0.801267211073015	0.556453818851925	-0.801267211073015	-1.45128133762168E-17	1.06950667990327E-17
54.3	-1.18644801081475E-18	1.15258451869672E-18	0.380207176909393	-0.899431618364954	0.380207176909393	-0.899431618364954	1.01362162234443E-17	2.7051259803913E-17
54.4	-4.8412106026288E-19	5.75347755497886E-19	0.319049444323281	-0.874713294665052	0.319049444323281	-0.874713294665052	-4.76857117291421E-19	1.92528920741638E-17
54.5	-3.46470134412187E-18	-1.76183141029118E-17	0.114603400067942	-1.01873910799258	0.114603400067942	-1.01873910799258	-7.58220715818816E-18	-2.41661876065379E-17
54.6	-1.44092756768687E-17	1.96440356912252E-17	-0.0293269375164046	-0.947736438302928	-0.029326937516405	-0.947736438302929	-2.05255259606019E-18	1.73159472675284E-17
54.7	-2.95380331205103E-18	4.49402939704966E-18	-0.144099753760881	-0.988778972835782	-0.14409975376088	-0.988778972835783	-5.5353433447014E-18	-1.10020097378728E-17
54.8	-1.1097152481472E-17	-4.69452669633625E-18	-0.315752913102103	-0.948820240043921	-0.315752913102103	-0.948820240043921	-2.08055548310648E-17	-1.0428474562655E-17
54.9	-7.16629715952897E-18	-8.06837295566791E-18	-0.450447635469145	-0.863745891731968	-0.450447635469145	-0.863745891731968	-9.63946088912307E-18	2.30550835099298E-18
55	7.04976395454449E-18	7.72125976339418E-18	-0.560489200333339	-0.816094075094784	-0.560489200333339	-0.816094075094784	9.88813721015628E-18	-1.62358656911147E-17
55.1	1.03956673324001E-17	-4.48742480465431E-19	-0.693531240937183	-0.718115518827144	-0.693531240937183	-0.718115518827143	1.04878522452609E-17	-3.09460146793779E-18
55.2	9.31149756309073E-18	-9.02388981629761E-18	-0.766244853189654	-0.604593797162944	-0.766244853189654	-0.604593797162944	7.26757859191834E-18	-5.13661182814758E-18
55.3	7.91259147455496E-19	-7.88672832635945E-18	-0.869599073071715	-0.463528229075752	-0.869599073071715	-0.463528229075752	-4.20557870905484E-18	-2.19551629596043E-19
55.4	1.3457135836004E-17	-7.75346879632396E-18	-0.919313797237442	-0.372414226586925	-0.919313797237442	-0.372414226586925	1.89008864203779E-17	1.23779288944339E-17
55.5	-1.28099645780079E-17	-1.03247612735602E-17	-0.986822278835341	-0.203862792687983	-0.986822278835341	-0.203862792687983	2.15750679976896E-17	-1.44292101620656E-17
55.6	6.55969986292627E-18	1.27385560639298E-17	-0.977319450912133	-0.0708399417097312	-0.977319450912132	-0.0708399417097312	9.88932906179512E-18	1.44120659020257E-18
55.7	1.47177388223942E-18	7.74056329090594E-18	-1.00169138668734	0.066407229793092	-1.00169138668734	0.0664072297930916	2.03457128561079E-18	1.03111349691108E-17
55.8	1.94307911252636E-18	-7.7539498552606E-18	-0.973131799271309	0.229439021597574	-0.973131799271309	0.229439021597575	-2.09433353635212E-17	8.51886507784578E-18
55.9	-8.28834207671538E-18	-5.36068547040449E-18	-0.933166339629958	0.356818804158562	-0.933166339629958	0.356818804158562	9.16262807390936E-18	-1.05315418133206E-17
56	3.42611743786335E-19	-7.43491853774836E-18	-0.844830266274333	0.495624717644751	-0.844830266274332	0.495624717644751	3.24805681012841E-18	-5.81089013268415E-18
56.1	1.54466118026655E-17	4.33682351872202E-18	-0.796908605842504	0.603980241121179	-0.796908605842503	0.603980241121178	3.0469229945127E-17	-5.85769925640777E-18
56.2	1.40432595872914E-17	2.26550963905728E-17	-0.704064687136278	0.726690337210153	-0.704064687136278	0.726690337210153	1.33679717485018E-18	1.41727015494087E-17
56.3	1.45411418225483E-17	1.88691268599087E-18	-0.538503878602044	0.822452631944174	-0.538503878602044	0.822452631944174	4.03129751968096E-17	4.36139731876604E-18
56.4	1.53227501556356E-17	2.4250378301311E-18	-0.474236293075471	0.886603238777811	-0.474236293075471	0.886603238777811	1.04467891003391E-17	-2.38384250723816E-17
56.5	1.80544286876112E-18	-8.96688727993885E-19	-0.323688246360937	0.966749993305434	-0.323688246360937	0.966749993305434	1.87379965142409E-17	5.09867551851519E-18
56.6	-1.56168929058565E-18	4.33946639613419E-18	-0.168986850836784	0.968609611132314	-0.168986850836784	0.968609611132315	1.78000793354324E-17	9.9706197379259E-18
56.7	2.45748855106074E-18	1.91588880151761E-18	-0.0370161029209348	0.997513272991324	-0.0370161029209346	0.997513272991324	-8.43219148523785E-18	2.01723325945975E-17
56.8	-1.34528673309383E-17	-1.48988497791488E-17	0.086724808792685	1.01111279204271	0.086724808792685	1.01111279204272	-1.4393799179953E-17	2.42437149907563E-17
56.9	-1.0843388297227E-17	-5.83434366635898E-18	0.240248618014368	0.962610439775743	0.240248618014368	0.962610439775742	-1.14021809413799E-17	2.20076880562303E-18
57	2.0916589400286E-17	-1.38840941380306E-17	0.401601392048373	0.886384440852127	0.401601392048373	0.886384440852127	6.32183879580637E-17	-1.22903270850401E-17
57.1	1.29027058086584E-18	1.17931166304079E-18	0.506335378703459	0.849236770978669	0.506335378703459	0.84923677097867	-1.00386793703151E-17	2.92724752872863E-17
57.2	1.69197482608267E-17	5.86673236710226E-18	0.62806328998332	0.795449009800781	0.62806328998332	0.795449009800781	8.26684661588037E-19	-3.46661811832414E-18
57.3	-4.32433294022247E-18	4.45852907335165E-18	0.775452623980422	0.625875596202563	0.775452623980422	0.625875596202564	2.99651898460982E-17	4.103549207743E-18
57.4	8.44056382623285E-18	-3.19974406734763E-18	0.782863777071197	0.540452043498034	0.782863777071196	0.540452043498034	-2.18173546117709E-17	1.3307408096741E-17
57.5	-1.34290972864278E-17	1.16329980322037E-17	0.909185282814893	0.443061758429421	0.909185282814893	0.443061758429421	-4.99779427951148E-17	3.40317492802906E-17
57.6	-2.05987414246188E-18	7.69046143522084E-19	0.966357393797058	0.283106159924231	0.966357393797057	0.283106159924231	1.83972876693313E-17	5.52357431328501E-18
57.7	7.5481932098978E-18	5.59890729710767E-18	0.952082405812542	0.138751598198772	0.952082405812542	0.138751598198772	-8.02348958992097E-18	-1.24426420289634E-17
57.8	1.47191270404923E-17	-7.62702218314028E-20	0.997903349451172	0.0267373126850119	0.997903349451172	0.0267373126850123	-1.49805356522459E-17	-1.11904233026581E-17
57.9	-1.26389687807605E-17	6.55307346478747E-18	1.00362194908705	-0.0985537044912977	1.00362194908705	-0.098553704491298	5.14747936938004E-19	2.5956949715163E-18
58	-5.58825906062559E-18	7.1385494623346E-18	0.941832115883324	-0.302673011540677	0.941832115883323	-0.302673011540677	-2.34502476638999E-18	1.42133295586685E-17
58.1	-7.55106751666638E-19	-6.09414957311085E-18	0.873557897791951	-0.378646098425993	0.87355789779195	-0.378646098425993	-3.27030103939768E-17	-2.2017416314295E-17
58.2	-1.16085957754528E-17	1.73925793489911E-17	0.849414721877516	-0.524650937385071	0.849414721877517	-0.524650937385072	1.5367701172197E-18	1.81729446441734E-17
58.3	1.39639726045813E-17	3.12359697524934E-17	0.747633130590556	-0.654336218403405	0.747633130590556	-0.654336218403405	3.33556018248726E-18	7.35631349497862E-18
58.4	-1.25915233630331E-17	-5.26221158691786E-18	0.640298761541086	-0.685246386738823	0.640298761541086	-0.685246386738824	-2.78141525195252E-17	-4.22866149231915E-18
58.5	-9.31059456920027E-18	1.07212454598538E-17	0.583098039595833	-0.821762526156087	0.583098039595833	-0.821762526156086	-1.04304274602986E-17	-8.47937038594014E-18
58.6	-3.97299608616054E-18	-7.6382156335646E-18	0.426360359063382	-0.889703389301755	0.426360359063382	-0.889703389301755	5.53496309005916E-18	-1.19932557963878E-18
58.7	-3.43127735745557E-17	1.03949153401195E-17	0.288424262621492	-0.907276443544028	0.288424262621492	-0.907276443544028	-1.279671978087E-17	9.24384769700051E-18
58.8	2.00006678397303E-17	-2.19516100546417E-17	0.180174804441259	-0.952958236201095	0.180174804441259	-0.952958236201096	1.8481628709505E-17	-2.25473108483632E-17
58.9	-1.29570597588425E-17	-1.79784639232601E-17	0.0660967861261688	-0.985821029243706	0.066096786126169	-0.985821029243707	-7.64817778015001E-18	-1.2991475664267E-17
59	9.63229882606666E-19	-9.84124864103813E-18	-0.114478609617995	-0.960839061774203	-0.114478609617994	-0.960839061774203	-3.582306862756E-18	-7.90698635174693E-18
59.1	-9.59745263424141E-18	-2.50315074359613E-18	-0.211631077103093	-0.935919401910781	-0.211631077103093	-0.935919401910781	-9.44251564540756E-18	-1.24998151529157E-18
59.2	-7.77258848881343E-19	8.47141961640968E-18	-0.338456191282533	-0.936053134926224	-0.338456191282533	-0.936053134926224	-6.46600218574183E-18	2.30516714120801E-18
59.3	-2.5819789870341E-18	-1.99796569843687E-18	-0.4961281251887	-0.825380952483439	-0.4961281251887	-0.825380952483438	-1.85350809759852E-18	-5.0836117791847E-18
59.4	-5.46662186278561E-18	-1.78514200460518E-18	-0.566428684678571	-0.780833919626195	-0.566428684678571	-0.780833919626194	-4.60347104234577E-18	-1.50327747756226E-18
59.5	-1.51035621206506E-17	-2.72672879309103E-18	-0.699261257616329	-0.689928225953953	-0.699261257616329	-0.689928225953952	1.68785732142263E-18	1.02363386733423E-18
59.6	4.9877967070315E-18	-5.36972112376122E-18	-0.775004218190536	-0.565619251143416	-0.775004218190536	-0.565619251143416	-3.65210987687502E-19	-1.14064306314263E-18
59.7	2.54471436815218E-18	-5.4446941873951E-18	-0.854257835830537	-0.480763195119006	-0.854257835830537	-0.480763195119005	-2.39122820723759E-18	-6.34827817587675E-18
59.8	-1.63986200102402E-17	-4.48197886815402E-18	-0.921783753188409	-0.35246952438218	-0.921783753188409	-0.35246952438218	-3.01490975444612E-18	-4.32382465222044E-19
59.9	-1.58881665182951E-17	5.42489459715712E-18	-0.947358037191028	-0.233063853025912	-0.947358037191028	-0.233063853025912	-1.09519930303067E-17	3.11747362131083E-18
60	2.27504783412472E-17	-1.79733310555631E-17	-0.968978423915311	-0.0761000615456043	-0.968978423915311	-0.0761000615456042	9.54254107162531E-18	-2.63970689396551E-18
60.1	-1.37170813076755E-17	-1.80719875315062E-17	-0.960385557493162	0.0435605108979348	-0.960385557493162	0.0435605108979348	2.68542411061648E-18	-5.87878651216659E-18
60.2	1.45531636970533E-17	-8.27012229933795E-18	-0.972480233371273	0.154165649283253	-0.972480233371273	0.154165649283253	2.26895691822141E-17	-1.18005749095666E-17
60.3	-1.54848899980756E-17	1.88436233224248E-18	-0.920469978592285	0.325445887558429	-0.920469978592284	0.325445887558429	-9.04159315421082E-18	-6.65365299094948E-19
60.4	8.08716147055949E-18	6.98799620230943E-19	-0.860101711986415	0.399645861932857	-0.860101711986416	0.399645861932858	1.04352656693496E-18	-7.28589770164951E-18
60.5	-1.23015657344872E-17	-5.11490455488261E-18	-0.815033673309675	0.543794237437455	-0.815033673309675	0.543794237437455	-4.54632953694382E-18	1.71674491123111E-18
60.6	-1.61908643814752E-17	3.09199825763579E-17	-0.727351629903761	0.642576825214676	-0.72735162990376	0.642576825214676	-8.80793587298222E-18	1.12550249326706E-17
60.7	-1.74427694117218E-18	-5.49342099918593E-19	-0.630094114192238	0.738838374531495	-0.630094114192238	0.738838374531495	2.90752041514287E-18	-2.53542218419948E-18
60.8	1.44956129658702E-18	-7.28668194366176E-18	-0.528053086428595	0.823452980714775	-0.528053086428595	0.823452980714776	6.02839174357553E-18	2.00663184957906E-19
60.9	-7.99724810124612E-18	-2.69815564253201E-17	-0.420804375878097	0.884969411009922	-0.420804375878097	0.884969411009921	3.66679186707332E-18	-1.2648225327969E-17
61	8.95597597734701E-18	1.34377526882232E-17	-0.283217581412245	0.935184716593913	-0.283217581412245	0.935184716593914	1.10231581426191E-17	1.33231790866057E-17
61.1	4.50335949714462E-18	1.69337967272551E-18	-0.152182859932021	0.948963092279547	-0.152182859932021	0.948963092279547	-1.07462208594455E-17	5.74050385330573E-18
61.2	-1.37591438304929E-17	8.64551521533286E-18	-0.0399120325625111	0.967031279191275	-0.0399120325625111	0.967031279191276	-7.81692380346705E-18	1.56589945431822E-17
61.3	-5.04816521120622E-17	-1.41124587807698E-17	0.0958083903359267	0.981319104328013	0.095808390335927	0.981319104328015	-2.81774273247073E-17	9.35458472505687E-19
61.4	1.04585317801124E-17	9.9573378683392E-18	0.258727758356132	0.936335154682548	0.258727758356132	0.936335154682548	1.16553048196031E-17	-3.63526815617294E-18
61.5	2.43213040477339E-17	8.94260089975947E-18	0.332032039286792	0.889819524148792	0.332032039286793	0.889819524148793	1.66875015806329E-18	1.74510145369022E-17
61.6	8.73830400913942E-18	5.51734042187174E-18	0.481042521354449	0.872634101863676	0.481042521354449	0.872634101863676	-8.35431703278416E-18	3.26829056274407E-19
61.7	-2.64305797091207E-18	-1.63312390721139E-17	0.600609725103036	0.779477149852288	0.600609725103036	0.779477149852288	-5.90575310263401E-19	-1.7527279783273E-17
61.8	4.75167914074023E-18	8.42170131118975E-18	0.677065543480478	0.680767149311054	0.677065543480478	0.680767149311054	5.63844479133343E-18	-7.56545216128416E-18
61.9	-3.49830747125733E-18	5.41598582186853E-18	0.770933139437348	0.581417276640924	0.770933139437348	0.581417276640924	2.27711089085992E-18	-8.61283692734221E-19
62	-2.13687131880228E-17	-8.0837489766017E-18	0.839446466773968	0.497662654359653	0.839446466773968	0.497662654359653	-2.31123909525801E-17	-5.2469968647326E-18
