# GHZ S RI R 50
50	-2.70966653796978E-18	-1.61390619573631E-17	0.742448591386963	-0.516321587281363	0.742448591386963	-0.516321587281362	-1.06715073557797E-17	-9.35328390141459E-19
50.1	-3.27423499197219E-17	1.3696775783908E-17	0.626038749311663	-0.618311525807593	0.626038749311664	-0.618311525807592	-7.38208912530397E-19	5.36357088615556E-18
50.2	4.81603076049354E-18	-1.48637585251057E-17	0.529711224360422	-0.708432918248415	0.529711224360423	-0.708432918248415	-5.24941284116892E-18	-3.40526985807922E-18
50.3	-3.61129247094227E-18	-1.30117726595856E-17	0.415387728798414	-0.813276847382643	0.415387728798414	-0.813276847382644	1.47888911734782E-17	-1.77219031478364E-18
50.4	-1.41187674017637E-17	-1.55846897587289E-17	0.236234421228919	-0.833830422155385	0.236234421228919	-0.833830422155386	1.43812627161091E-17	2.73861229916824E-18
50.5	-5.92163082417415E-18	-3.12181085327883E-17	0.132781772627439	-0.890649533027804	0.132781772627439	-0.890649533027804	-9.68467310707262E-19	5.587135597832E-18
50.6	-2.00169745593147E-17	8.33542529366901E-18	-0.0323695390834782	-0.88853177240304	-0.0323695390834778	-0.888531772403039	-1.06836890013072E-18	4.20296696473063E-18
50.7	-7.57068916702527E-18	2.92800601578374E-18	-0.162025840625888	-0.868112839330418	-0.162025840625888	-0.868112839330418	-5.04712611135018E-18	1.9520040105225E-18
50.8	3.17211946049395E-17	2.30159854633057E-17	-0.321419140280058	-0.853337084133289	-0.321419140280058	-0.853337084133289	2.42696820922256E-17	-1.17088106799633E-17
50.9	-2.7375954882849E-18	-1.37949826547331E-17	-0.436910366877597	-0.756163917228103	-0.436910366877597	-0.756163917228103	-8.19881776361824E-18	-1.672023263269E-18
51	9.7981067516151E-18	1.20180546152289E-18	-0.572302264411511	-0.695226865635395	-0.572302264411511	-0.695226865635395	5.79198111124152E-18	-2.9927062141468E-19
51.1	-6.46739424849496E-18	4.00769496553553E-18	-0.6727358291899	-0.589373509784089	-0.6727358291899	-0.589373509784089	-2.105667725212E-18	-5.31992688203426E-18
51.2	-2.54058029437965E-18	1.49550296187395E-17	-0.75345114128899	-0.469016549865951	-0.75345114128899	-0.469016549865952	2.45207364676873E-18	-1.20636867947083E-18
51.3	-4.18351075720253E-18	9.04038303363622E-18	-0.824721841226133	-0.342925910843724	-0.824721841226133	-0.342925910843724	3.41032537385697E-18	5.39140664825037E-18
51.4	-2.65129365083033E-18	-8.83130493802118E-18	-0.886200941362243	-0.223333720227119	-0.886200941362243	-0.223333720227119	-1.15867117453166E-17	-5.41333890821595E-18
51.5	-1.90731532815206E-18	5.17330383546607E-18	-0.876714056065524	-0.0474956352511324	-0.876714056065524	-0.0474956352511323	-5.76189441589761E-20	6.71944894639134E-18
51.6	2.98928645687692E-18	1.2331087142697E-17	-0.897148032445412	0.0633147533406454	-0.897148032445411	0.0633147533406454	5.62248323359709E-18	8.41446878657642E-18
51.7	1.8504326177271E-17	-1.65409426120251E-17	-0.890222874327532	0.209933579487618	-0.890222874327532	0.209933579487618	-9.15491038630916E-18	-2.62483540438394E-17
51.8	5.71165260592847E-19	-2.1300691268272E-17	-0.787313755276167	0.343283805733715	-0.787313755276166	0.343283805733715	-3.52334861349639E-17	2.20746703436582E-18
51.9	1.45339352163262E-17	-1.85062962071023E-18	-0.795247693188533	0.470830694391275	-0.795247693188532	0.470830694391275	5.03907015332532E-19	-1.32425004651436E-17
52	1.14711247045544E-17	1.72385906618241E-17	-0.649674527833525	0.598177058490973	-0.649674527833525	0.598177058490973	1.43973542215565E-17	-1.81542280432894E-17
52.1	-1.22871980591427E-17	-1.38695884436414E-17	-0.556082844680725	0.677970014172436	-0.556082844680725	0.677970014172436	1.65441086013786E-17	1.11987882848106E-18
52.2	-9.93567253668508E-18	6.58514539483319E-18	-0.469330448570224	0.763269351049332	-0.469330448570225	0.763269351049332	2.06003078094889E-17	-2.40735153150591E-17
52.3	8.23556988347909E-18	-8.09290788366208E-18	-0.347354770780502	0.828335336531151	-0.347354770780502	0.828335336531151	-1.01554325858134E-18	2.96016795767312E-18
52.4	2.62824013195059E-18	1.91703239002233E-17	-0.197548108817868	0.903588164577982	-0.197548108817867	0.903588164577982	6.04002842511916E-17	3.91671573387523E-17
52.5	-9.33302855342307E-18	1.44353045056839E-18	-0.080997379067099	0.851973392439431	-0.0809973790670989	0.851973392439432	4.27147416668791E-17	1.33707718015709E-17
52.6	2.64001853552439E-18	-3.2690506549529E-18	0.0490484834022065	0.924117076707782	0.0490484834022065	0.924117076707782	-3.25785095625536E-17	2.72104300804716E-18
52.7	-4.21138744737443E-18	1.711030459927E-18	0.252529408760353	0.893206218225779	0.252529408760353	0.893206218225778	3.38901200021214E-17	-1.90734881705961E-17
52.8	-2.64952281725666E-17	2.51907084195253E-18	0.273884274972265	0.743931437111196	0.273884274972265	0.743931437111196	-2.39800823117798E-18	1.06348025503756E-17
52.9	-6.64562887940873E-18	-2.18227684297626E-17	0.549363658805242	0.836765569741483	0.549363658805242	0.836765569741483	-4.67812834346997E-17	5.55017374548464E-17
53	-4.88659829197493E-17	-3.86500445067961E-18	0.552442377904339	0.645925148019041	0.55244237790434	0.645925148019041	6.64563099838735E-18	5.46385826862237E-17
53.1	9.18079704881578E-18	-1.11891928898939E-17	0.668831954532959	0.616901189170213	0.668831954532959	0.616901189170212	2.80509705623839E-18	-9.47404378066778E-19
53.2	-3.36326954339087E-18	5.26077928838941E-18	0.808537706650693	0.489051572258838	0.808537706650693	0.489051572258838	4.35130307216429E-17	-7.07015812934591E-18
53.3	-6.69277301087288E-18	-4.44620368742514E-18	0.820702280332753	0.372739345835041	0.820702280332753	0.372739345835041	5.04883451690761E-18	-1.56421273559851E-17
53.4	-1.39086365029553E-17	1.83176311559478E-17	0.852315255599702	0.180924223638356	0.852315255599702	0.180924223638356	3.63655492332311E-17	4.78747734480082E-17
53.5	1.13034759050437E-17	-5.09984493432487E-19	0.926385645060347	0.139032266021824	0.926385645060347	0.139032266021824	-3.35607428452413E-17	2.63196915139746E-17
53.6	2.52442471439321E-18	-3.31671083060843E-18	0.919592591162503	-0.0620820914313288	0.919592591162503	-0.0620820914313289	2.83881390271399E-17	-2.09527668020096E-17
53.7	8.30989985222264E-18	7.11950195113375E-18	0.831411558447972	-0.207871054427996	0.831411558447971	-0.207871054427996	2.62685529845713E-17	1.87256276567006E-18
53.8	1.14504194293272E-19	1.73819456263786E-19	0.938483071145323	-0.281335597896898	0.938483071145323	-0.281335597896898	2.68620688106775E-17	-1.37074926780105E-17
53.9	-1.84724671862062E-17	2.42660941282694E-18	0.797751496256786	-0.449729281658342	0.797751496256787	-0.449729281658343	-1.6506030508077E-17	1.0418101864682E-17
54	-1.09544746217006E-18	2.04794176618238E-17	0.70075077717442	-0.558959093335924	0.70075077717442	-0.558959093335923	3.44031814152353E-17	1.21329545199987E-17
54.1	4.0446729763776E-20	-6.91412753449448E-18	0.633175118695948	-0.62948196199896	0.633175118695949	-0.62948196199896	1.37554509554142E-17	1.25263230216176E-17
54.2	-6.84440636716427E-18	-1.74635498107072E-17	0.541659888228275	-0.73204823117854	0.541659888228276	-0.73204823117854	3.86558390921802E-18	2.74004807241652E-17
54.3	2.05242286087435E-17	2.36977448402595E-17	0.376607896568961	-0.824393701040122	0.376607896568962	-0.824393701040122	3.06609334291573E-17	-1.90143061753432E-17
54.4	-3.17662284510845E-17	6.03195320066774E-18	0.329135108843297	-0.80942030498567	0.329135108843297	-0.80942030498567	7.78329262341926E-18	2.23774592047413E-17
54.5	-6.60358060687715E-20	-1.1525038460593E-17	0.129790650561815	-0.946443969952079	0.129790650561815	-0.94644396995208	3.35426697811008E-17	9.3760788326698E-18
54.6	-2.36458665995557E-17	-2.81285249045192E-18	0.00203442849182937	-0.882793306952687	0.0020344284918295	-0.882793306952686	-2.16678583074064E-17	8.01173007799521E-18
54.7	3.36174677263233E-18	2.57325737402296E-17	-0.108513290481243	-0.92929614915449	-0.108513290481243	-0.929296149154489	2.1191503197355E-17	1.3708568611889E-17
54.8	-5.23395464849582E-18	-9.24385773020319E-18	-0.270025508110151	-0.894239511546171	-0.270025508110151	-0.894239511546171	3.79028019740416E-18	-7.97092664739868E-18
54.9	1.08833720221973E-17	-1.15491816239778E-17	-0.39524573313716	-0.818406613107988	-0.39524573313716	-0.818406613107988	4.9345230537533E-18	3.00247510441065E-18
55	7.68228619212418E-18	4.72329974435625E-18	-0.501880612272557	-0.779653982116292	-0.501880612272557	-0.779653982116291	5.12152412808279E-18	3.1488664962375E-18
55.1	-1.44708356600047E-17	-7.79924868757584E-18	-0.629131042309853	-0.690165326779971	-0.629131042309853	-0.690165326779971	-2.01125017856326E-17	-1.25007198657156E-17
55.2	-6.10785021633538E-18	5.10490244915045E-18	-0.699516291522884	-0.588837941283163	-0.699516291522883	-0.588837941283162	-5.05683375562311E-18	-7.95602905328414E-18
55.3	5.13674803693673E-18	1.0201826044535E-17	-0.799088648319133	-0.457482959145819	-0.799088648319133	-0.457482959145818	-1.88039133614059E-17	1.4450784175582E-17
55.4	1.04652560818921E-17	-7.51514892429418E-18	-0.852311158606211	-0.37598385106348	-0.852311158606211	-0.37598385106348	1.76204055125776E-17	-2.42384510428097E-17
55.5	-1.73046829649259E-18	3.45381342495004E-18	-0.918465998233304	-0.217220247227911	-0.918465998233304	-0.217220247227911	-3.57490728154754E-19	1.45117149192183E-17
55.6	5.91556625423014E-18	1.25172306145829E-18	-0.914243452854742	-0.0956670077359792	-0.914243452854742	-0.0956670077359789	-1.0371190301056E-17	2.77711893091462E-17
55.7	8.74949376245031E-18	3.23029098682846E-18	-0.942731517251629	0.0344031118692161	-0.942731517251629	0.0344031118692164	1.02980807842422E-17	8.53474168759532E-18
55.8	-1.60974151717419E-17	6.03466088109216E-18	-0.919113503593448	0.187789526386547	-0.919113503593448	0.187789526386547	-1.60457615389272E-17	5.18282091464315E-18
55.9	4.89693017219412E-18	2.56772425997317E-20	-0.886885470243732	0.308493722093483	-0.886885470243732	0.308493722093483	8.59447693797998E-18	1.00059031328619E-18
56	1.66005458420878E-17	1.07451483498363E-17	-0.807223393676317	0.43907085374127	-0.807223393676316	0.43907085374127	2.60239888544514E-18	1.21536418630774E-17
56.1	-1.82526205827928E-18	-8.77784679754685E-18	-0.767497211414007	0.545259629327817	-0.767497211414007	0.545259629327817	-2.4989487130632E-17	-2.17371989213371E-17
56.2	-6.59916285532688E-18	-3.33322083977484E-18	-0.682875551659278	0.664101033523172	-0.682875551659277	0.664101033523172	-3.90773981780947E-17	4.6148795732094E-17
56.3	1.03252273379562E-17	-6.08419765076567E-18	-0.529161055395044	0.754168626403955	-0.529161055395044	0.754168626403955	1.77066965954059E-17	1.86467873431311E-17
56.4	7.8654877339995E-18	-2.76968143614046E-18	-0.472885609129305	0.822091700330377	-0.472885609129305	0.822091700330378	1.7533958133064E-17	-1.01980603434076E-17
56.5	-2.24006926237539E-18	3.86679654033912E-18	-0.331407518886005	0.9010076817683	-0.331407518886005	0.9010076817683	-2.6990095516263E-17	1.69213348851125E-17
56.6	5.9280990523709E-18	-4.29986430129165E-18	-0.189059598098058	0.905777934131859	-0.189059598098058	0.905777934131859	1.10402461652933E-17	-1.78688276533117E-17
56.7	7.00929301941681E-18	-1.14279467696944E-17	-0.0647506935702449	0.938529231113637	-0.0647506935702449	0.938529231113637	1.17532340691217E-18	-3.08363941696143E-17
56.8	1.83266638493744E-17	-8.44426608960822E-18	0.0527249564840354	0.957507077174662	0.0527249564840353	0.957507077174662	6.38852065303646E-18	-3.91561466395316E-18
56.9	2.01165181382879E-18	7.61204766865313E-19	0.196860846704706	0.915410120237648	0.196860846704706	0.915410120237648	2.57302219213679E-17	3.41211352263825E-18
57	-1.56492923855986E-17	-4.93418911565783E-18	0.348740288767896	0.84609534864151	0.348740288767897	0.84609534864151	-8.26128289906631E-18	1.22989566867204E-17
57.1	6.30268661820624E-18	-1.56741612889282E-17	0.450975268188633	0.817112870271962	0.450975268188633	0.817112870271962	2.59020269492033E-17	1.27460706424062E-17
57.2	9.01612556261653E-18	-2.24418490315434E-18	0.570175831268125	0.770357465865124	0.570175831268126	0.770357465865125	3.13121585877157E-18	-1.57046846293393E-17
57.3	-7.50439251121722E-18	1.64652422074046E-17	0.708580034168773	0.610317759489145	0.708580034168773	0.610317759489145	7.27715091563327E-18	-2.62447606029348E-18
57.4	-5.12803583020901E-18	-2.4789910492148E-17	0.719971634234871	0.538108090048801	0.719971634234871	0.538108090048802	-2.20372913899569E-17	-6.4733118208159E-17
57.5	-2.04246837388541E-17	-8.09113369197742E-18	0.845377149984808	0.445596934192967	0.845377149984808	0.445596934192967	2.6938777173467E-17	2.81118939277744E-17
57.6	3.9814961371923E-18	-8.7169102550289E-18	0.902120356971005	0.295879049641585	0.902120356971005	0.295879049641586	-1.65615316702308E-17	1.41074801664589E-18
57.7	9.39207964295884E-18	-8.65340193325206E-18	0.892362709927126	0.163610153695182	0.892362709927127	0.163610153695182	1.22466374213318E-17	-1.21516965920382E-17
57.8	6.9478893589402E-18	1.01846080140567E-17	0.942455590388153	0.0566880594980712	0.942455590388153	0.0566880594980712	3.47807683492648E-17	1.51026483328237E-17
57.9	-3.21222355987162E-18	2.91914674852183E-18	0.953684702657917	-0.0623869260168475	0.953684702657917	-0.0623869260168482	-3.29682627131156E-18	-7.65406765237501E-19
58	-5.08230193247165E-19	6.50745217573014E-18	0.895850188653555	-0.254714166801014	0.895850188653555	-0.254714166801015	-9.28856642984213E-18	-9.29367211535144E-18
58.1	-1.24326733668419E-17	-1.14934420976669E-17	0.839133870905952	-0.326189622748931	0.839133870905953	-0.326189622748931	-1.01214139416433E-17	-1.31335026630059E-17
58.2	-3.45475991279904E-18	-3.07485731492329E-17	0.819738598693635	-0.468905472165434	0.819738598693635	-0.468905472165434	-8.63025644574271E-18	-1.584418231977E-17
58.3	-6.78622374055559E-18	1.41893828549712E-17	0.726412692661851	-0.593253447410486	0.726412692661851	-0.593253447410486	-1.22369823062343E-17	-8.72410893192994E-18
58.4	-1.92248009886969E-17	2.50186613789691E-18	0.632501149873848	-0.624652068518529	0.632501149873847	-0.624652068518529	-1.08975683237653E-17	-5.61995796422451E-18
58.5	1.4600725174776E-17	-7.48541442385766E-19	0.578961712933347	-0.760872173175251	0.578961712933347	-0.760872173175251	5.9990498487835E-18	-1.39994207958558E-17
58.6	9.61252573619533E-18	-2.06526439900475E-18	0.43301135077951	-0.827317592072258	0.43301135077951	-0.827317592072258	1.0905646472332E-17	-2.00933271679538E-19
58.7	3.42755072771952E-18	-8.16580418704093E-19	0.306286562890361	-0.847730848592762	0.306286562890361	-0.847730848592762	-1.1190773089991E-17	-1.97018689211688E-18
58.8	1.7647365731448E-17	-6.18747067023637E-18	0.204507828442289	-0.897300576954111	0.204507828442289	-0.897300576954111	-4.48204380933956E-18	7.62661504886113E-18
58.9	8.16132961833947E-19	1.11204509223979E-17	0.0961633128981648	-0.93470379790836	0.0961633128981651	-0.934703797908361	-9.80669205004309E-18	5.78251454314144E-18
59	-3.52444451285764E-19	-2.15733923256716E-18	-0.0741320641261052	-0.913551582698629	-0.074132064126105	-0.913551582698629	5.34171942701238E-18	-3.45674764142373E-18
59.1	2.31884818742467E-18	2.30907153934822E-17	-0.16679222722088	-0.896964031833466	-0.16679222722088	-0.896964031833467	8.73323208119522E-18	-1.43006007921129E-18
59.2	7.76680525276113E-18	-5.46363690566831E-19	-0.290754352389779	-0.902202414123978	-0.290754352389779	-0.902202414123978	2.77920303798377E-18	-5.4788271558402E-18
59.3	-6.10734705028742E-18	-8.2503592893646E-19	-0.439829250516777	-0.799726266517237	-0.439829250516777	-0.799726266517237	1.04176483065739E-17	-2.38125569405464E-19
59.4	-1.21735076978463E-17	-3.12010926621497E-17	-0.510860219897853	-0.764083413130565	-0.510860219897854	-0.764083413130564	-1.14449024117868E-17	-2.21775114301833E-17
59.5	4.23652257187496E-18	5.18164112027581E-18	-0.640311032946906	-0.679955426411464	-0.640311032946907	-0.679955426411464	-1.06645640637895E-17	8.74955979086756E-19
59.6	1.4693259597043E-17	-6.80112924626489E-18	-0.714916414199242	-0.565843206010643	-0.714916414199241	-0.565843206010643	-2.52529830094323E-19	-7.34869266810839E-18
59.7	3.71715969128269E-18	-1.97801457603617E-19	-0.796012844846504	-0.487716083133128	-0.796012844846504	-0.487716083133128	1.61826219789361E-18	-9.3092516090314E-18
59.8	4.60532733954403E-18	-1.50713227093814E-17	-0.864525779846705	-0.367380187304587	-0.864525779846705	-0.367380187304587	7.28812202111422E-19	-1.02707250626998E-17
59.9	-9.59714068508663E-18	9.71154901991642E-18	-0.894188657683675	-0.256074554829666	-0.894188657683675	-0.256074554829666	-1.58289374455771E-17	-1.46802441136349E-19
60	5.90078856068211E-18	-1.84240771942933E-17	-0.918563610618794	-0.107583864310561	-0.918563610618793	-0.107583864310561	-1.19459194238136E-17	2.46135503598742E-17
60.1	-5.8782703950584E-18	-4.29825078380883E-18	-0.916263280032261	0.00555921003039836	-0.916263280032261	0.00555921003039841	-1.45675516531634E-17	-1.87355119340648E-19
60.2	1.67314845827142E-17	5.38283188890197E-18	-0.933966073118394	0.112803558209639	-0.933966073118394	0.112803558209638	1.34599956150937E-18	3.12843453056021E-17
60.3	3.78457879326965E-18	2.85054676312341E-18	-0.887366479151343	0.276196768673364	-0.887366479151343	0.276196768673363	7.63308823967948E-19	9.0274719033916E-18
60.4	-9.35372932449732E-18	-7.2797523262949E-18	-0.837124561971089	0.348428104735278	-0.837124561971089	0.348428104735278	-1.36165873131215E-17	-4.57650059145848E-19
60.5	-1.49799262796447E-17	7.71514037500279E-18	-0.797168231767336	0.489343634924918	-0.797168231767336	0.489343634924918	-1.05711081813952E-17	8.25095584782483E-18
60.6	-7.81057413775327E-18	-2.73327842326225E-18	-0.717988088289403	0.586389806832109	-0.717988088289403	0.58638980683211	-9.65757408923068E-18	2.59549680738352E-18
60.7	-8.48049930315817E-18	-3.05441547025221E-18	-0.6287055460246	0.681757162064061	-0.6287055460246	0.681757162064061	-5.6570714751687E-18	-5.15448142632802E-18
60.8	1.7457585323747E-18	-3.47149974150582E-18	-0.534170140193845	0.766825097322414	-0.534170140193845	0.766825097322413	-6.82744239548686E-18	9.98463523923679E-20
60.9	9.63796555927654E-18	2.52549204105514E-18	-0.43440341216603	0.830490285846002	-0.434403412166031	0.830490285846003	-6.55360171261913E-18	-8.72770664254138E-20
61	7.87471802609959E-18	2.05939280301785E-17	-0.304849845444458	0.882586069961982	-0.304849845444459	0.882586069961982	-2.32818396856142E-18	9.70743920030393E-18
61.1	-1.02690382942421E-18	8.10910717452537E-18	-0.181706119496873	0.900752383069816	-0.181706119496873	0.900752383069816	-1.08710354832288E-17	-5.99462715255666E-19
61.2	-2.79850464486096E-18	1.25724925395293E-17	-0.0745988400290177	0.924041466004251	-0.0745988400290179	0.92404146600425	-7.51879038039972E-18	4.44208363032585E-18
61.3	3.78962229764234E-18	8.89334833091395E-18	0.0561616964350039	0.942591504757604	0.056161696435004	0.942591504757605	-1.44904930632137E-17	-2.30753027132428E-18
61.4	-3.86688043814365E-19	1.91689620099773E-19	0.211602764563602	0.903285946335594	0.211602764563601	0.903285946335594	-9.56415134745943E-18	-1.00487262567027E-17
61.5	6.81151467802295E-18	9.29860766582843E-18	0.283318323266101	0.866201228699512	0.283318323266102	0.866201228699513	-1.12241546635251E-17	-1.41033548104805E-17
61.6	-9.36737500106708E-18	2.06215511938377E-17	0.429631573420306	0.852831883836425	0.429631573420307	0.852831883836425	1.20308203856459E-17	2.76113489297145E-17
61.7	1.17593331192318E-17	1.30530711242481E-17	0.545871528717253	0.767746175288823	0.545871528717253	0.767746175288824	-3.28639895634234E-18	9.45108595348892E-18
61.8	-3.07054434819861E-17	1.39297260939573E-17	0.622034471967675	0.67830868619926	0.622034471967676	0.67830868619926	-1.2789936432173E-17	1.14273646743297E-17
61.9	2.68179116867618E-18	-1.68196900836962E-17	0.715706234803604	0.586313194396033	0.715706234803604	0.586313194396033	-3.53548474293525E-18	-6.29505250403425E-18
62	2.40355815356492E-18	-1.69455526190936E-17	0.786786293004029	0.508968979765045	0.786786293004029	0.508968979765045	2.80793224418042E-19	-6.80630037007926E-18
