# GHZ S RI R 50
50	3.21612064319204E-18	2.84866673351492E-18	0.784329240394159	-0.551937714565562	0.784329240394159	-0.551937714565562	-1.12703600258163E-17	5.28093427744725E-18
50.1	-4.90782963102258E-18	3.10508520719049E-17	0.658277299060181	-0.662510082198604	0.658277299060182	-0.662510082198605	-4.57318073689139E-18	-5.26668225159641E-18
50.2	4.3560692879084E-19	1.89657002524302E-17	0.552578118425268	-0.754669888728994	0.552578118425268	-0.754669888728994	8.30780737454756E-18	6.1242998218572E-18
50.3	-1.84349143171848E-17	-8.58270154683764E-19	0.433069548894767	-0.860685938348387	0.433069548894767	-0.860685938348388	-1.15979563694062E-17	5.85454138743998E-19
50.4	1.13248555733216E-17	-2.52251732410837E-17	0.240023500095109	-0.88752615928515	0.24002350009511	-0.887526159285149	4.11527444590623E-18	7.49495181235581E-18
50.5	-8.46043711269099E-18	-4.129838155602E-17	0.13135168523759	-0.938507480575524	0.13135168523759	-0.938507480575524	2.6747070134863E-18	-8.56466648186572E-19
50.6	-1.44752088182007E-18	9.00983851733743E-19	-0.0436314483193665	-0.936593623768091	-0.0436314483193662	-0.93659362376809	4.55523073844866E-18	-4.25336185976901E-19
50.7	-2.29210476501283E-18	-5.52443886712387E-18	-0.181393396609102	-0.910526831390768	-0.181393396609102	-0.910526831390768	-1.04314085980232E-18	5.28938153284932E-18
50.8	-4.94244942364818E-18	8.76857821199942E-18	-0.344481491362218	-0.893741447217172	-0.344481491362218	-0.893741447217172	2.59949166327489E-17	9.74152893934153E-18
50.9	1.02146959669678E-17	-1.27584120995933E-17	-0.470204484514934	-0.788411917826442	-0.470204484514934	-0.788411917826442	2.46900889770774E-18	4.65662675497041E-18
51	-5.65525071089236E-18	1.43284398910716E-17	-0.607484733016088	-0.72328395171123	-0.607484733016088	-0.723283951711231	7.96894752285005E-18	-9.60163809637251E-18
51.1	-1.80894557980857E-17	-7.21715601796426E-18	-0.711888484966186	-0.609853078880408	-0.711888484966185	-0.609853078880407	3.48040764944148E-18	2.54459762824821E-18
51.2	1.1650490036717E-17	-4.40407123144025E-18	-0.795136900708226	-0.481375454797957	-0.795136900708226	-0.481375454797957	-4.23037321263084E-18	-1.13184991893995E-17
51.3	2.22766391555263E-18	1.05304555520559E-17	-0.866895544656385	-0.348546350685924	-0.866895544656385	-0.348546350685924	-3.18952579769788E-18	1.13752773954737E-18
51.4	4.70757678793592E-18	-1.17363114148794E-17	-0.925744534203615	-0.224065028755295	-0.925744534203615	-0.224065028755295	-1.88524210108591E-17	-1.73060224144963E-18
51.5	-5.29513306901151E-18	-7.31980175502212E-18	-0.918574807686346	-0.03684008984033	-0.918574807686345	-0.0368400898403299	-5.87036989162043E-19	7.30685030793865E-18
51.6	1.39089915354087E-17	1.19130552628376E-17	-0.932133572182149	0.0771462618351612	-0.932133572182148	0.0771462618351608	9.91717230478608E-18	7.57819887053449E-18
51.7	2.44319784089554E-17	-2.16575754466133E-17	-0.922322894877831	0.227274040679749	-0.922322894877831	0.227274040679748	-3.33790355504518E-18	-2.2996123173741E-17
51.8	-8.78196722132864E-18	2.45501834638848E-17	-0.81384467742078	0.372820018855779	-0.81384467742078	0.372820018855779	4.24221533650254E-17	7.21535606611277E-18
51.9	-1.1130574907738E-17	7.59121550187699E-19	-0.817710920533864	0.494515759427316	-0.817710920533865	0.494515759427317	-2.80588702869382E-18	-1.47141088632218E-18
52	-2.82684292858326E-18	1.16019668285706E-17	-0.66748741256063	0.632605800794384	-0.667487412560631	0.632605800794384	-8.50480368045395E-18	-5.78262272554837E-18
52.1	-1.1947339939509E-17	-1.01182788585163E-17	-0.565634501151501	0.712776765619977	-0.565634501151501	0.712776765619976	-1.58581507613844E-18	1.21691945933437E-17
52.2	2.26992084576229E-17	2.9277364915102E-18	-0.473868573780829	0.794992457260641	-0.473868573780829	0.794992457260641	1.54374344806944E-17	-5.81463969865626E-18
52.3	6.18355789975204E-18	3.54176206460689E-17	-0.34655819083212	0.859091577149526	-0.34655819083212	0.859091577149525	1.44033892655629E-17	3.86869186622808E-17
52.4	2.26915689881756E-18	2.71993301886134E-18	-0.19539894452311	0.935414149758833	-0.19539894452311	0.935414149758833	-4.03482191628763E-17	2.90482635645845E-17
52.5	-2.12157465492115E-17	5.67200970979957E-18	-0.0649147314973747	0.877597367246467	-0.0649147314973743	0.877597367246467	-4.34197476713487E-17	1.79876912877351E-17
52.6	1.02711223130177E-17	-4.2997216608703E-17	0.0598848317869504	0.94664158132492	0.0598848317869501	0.946641581324921	-2.48233384634768E-17	-2.20195393768576E-17
52.7	-1.88466349535656E-18	5.93680190191619E-18	0.268985087199871	0.920389074431505	0.268985087199871	0.920389074431505	3.54693360321819E-18	-3.73868766810111E-19
52.8	3.55359588526032E-17	-5.97094606812726E-18	0.305139443728967	0.750843536244384	0.305139443728967	0.750843536244384	1.93700720446201E-17	-3.23764315857831E-17
52.9	1.82306869160534E-18	-2.72981172552088E-17	0.564931963696934	0.861247614071905	0.564931963696934	0.861247614071905	1.84816740262257E-17	-2.40763736561279E-17
53	1.07928075627673E-17	-1.44916184658964E-18	0.581612295452131	0.650370201578398	0.581612295452131	0.650370201578398	1.02620575133116E-17	-2.04442473684853E-17
53.1	-3.68096759189907E-18	-6.36457722062468E-18	0.689872435568862	0.620286409861437	0.689872435568862	0.620286409861437	-2.56520791543631E-17	-1.52852452190749E-17
53.2	-3.30837707449548E-18	-9.79766165761312E-19	0.832191573350643	0.495067553638422	0.832191573350643	0.495067553638422	-2.92027525637312E-17	-2.65075625718513E-18
53.3	4.22796267978992E-18	1.10435600401849E-17	0.841646554679461	0.368139702287273	0.841646554679461	0.368139702287273	-2.06499496307266E-17	5.09863387530661E-17
53.4	3.8908647408389E-18	-1.34252783593208E-17	0.879149380762241	0.169878733387849	0.879149380762242	0.169878733387849	-3.3539785226673E-17	-2.84518511045048E-17
53.5	4.9371761992209E-18	-2.04235843114021E-19	0.939782359167486	0.132631052202304	0.939782359167486	0.132631052202304	1.52919258261703E-17	-2.48661416584587E-17
53.6	-2.47917931252203E-17	5.46698373074456E-18	0.938043424078541	-0.0735569330136903	0.93804342407854	-0.0735569330136905	2.75044338282999E-17	1.66498122016279E-17
53.7	2.59099448627112E-18	-1.52503567985872E-18	0.846788772580169	-0.230707728818901	0.846788772580169	-0.230707728818901	-5.93939525216558E-19	-4.30190135939411E-18
53.8	8.33662755565042E-18	-1.49717292219287E-17	0.945648770930885	-0.286334427866373	0.945648770930883	-0.286334427866373	2.06663587612361E-17	-5.63692568553621E-18
53.9	-2.34485011085638E-17	3.33471612759916E-17	0.805505656213984	-0.466715566155501	0.805505656213984	-0.466715566155501	2.19822096926689E-17	1.60671043805356E-17
54	1.06541059646399E-18	2.04605517606225E-18	0.704060754029372	-0.578804131792432	0.704060754029372	-0.578804131792432	-5.63527740567286E-18	6.23298421122427E-18
54.1	-1.29811544181614E-17	-1.16723269965366E-17	0.629689707571457	-0.645293410905645	0.629689707571457	-0.645293410905645	-4.53987167355255E-18	-1.25842735030962E-17
54.2	-9.37695974589073E-18	-1.30885449768409E-17	0.537402291574996	-0.74540376505971	0.537402291574996	-0.74540376505971	7.41542706417659E-18	-1.48213237926932E-17
54.3	1.95922879965267E-18	-8.76498318048451E-18	0.371618665320042	-0.842728396077507	0.371618665320042	-0.842728396077507	-3.51838215078119E-17	-3.9611620731016E-17
54.4	4.22799973088545E-17	-7.16248278395481E-18	0.314963257510476	-0.814606380210343	0.314963257510476	-0.814606380210344	1.62019437147986E-17	-3.35555250170034E-17
54.5	1.25658729602688E-17	3.34740008719603E-18	0.125651445487808	-0.959820221841779	0.125651445487808	-0.959820221841779	-1.64412252985706E-17	-7.74414335996175E-18
54.6	-1.61672576307532E-17	-1.05667486666865E-17	-0.0128850768185988	-0.891404641917048	-0.0128850768185986	-0.891404641917048	-1.50000008532085E-17	5.95085234914167E-18
54.7	6.01582365737896E-18	1.4301870159958E-17	-0.116916864658025	-0.933192378080409	-0.116916864658025	-0.933192378080408	1.60120830016673E-17	2.2571324482888E-18
54.8	1.38006148761722E-17	9.16323459789658E-18	-0.280135376098102	-0.898982655804187	-0.280135376098102	-0.898982655804186	2.28404741750668E-17	1.41369346133407E-17
54.9	5.42062240006213E-18	4.22102849047096E-18	-0.40870210903557	-0.819850083687556	-0.40870210903557	-0.819850083687556	1.20633495186464E-17	8.18111724134388E-18
55	-4.09922853292048E-18	1.91051297161253E-18	-0.511074721439523	-0.777708712623389	-0.511074721439523	-0.777708712623389	-2.90505279190056E-18	1.42926381688716E-17
55.1	-9.22870109107209E-18	3.59178018455959E-19	-0.638493584714885	-0.688398788845949	-0.638493584714886	-0.688398788845948	-3.79657289559732E-18	9.68246154385956E-18
55.2	5.87948839516561E-19	-4.56735303336862E-18	-0.707487564298971	-0.582174807232058	-0.707487564298972	-0.582174807232058	-5.8698022698663E-18	4.11957951959301E-18
55.3	-3.30891204998446E-18	1.16448180358997E-17	-0.808384120360509	-0.451541743345946	-0.808384120360509	-0.451541743345946	1.93060636577496E-19	-5.35908978676276E-18
55.4	-1.08686035157476E-17	8.18874893795052E-18	-0.854633654869014	-0.368631903336631	-0.854633654869014	-0.368631903336631	-1.62103198087468E-17	9.09661072410115E-18
55.5	1.73870147830543E-18	-2.28916359769796E-20	-0.922948789087405	-0.211474550779027	-0.922948789087405	-0.211474550779027	-8.30914047830289E-18	2.89180221797819E-18
55.6	3.40689406297408E-18	3.63030049847484E-18	-0.914629321495942	-0.0863851077397444	-0.914629321495941	-0.0863851077397445	1.77997546904443E-18	6.30117320391168E-18
55.7	-2.29918124973944E-18	1.97674850453009E-19	-0.940862203396012	0.0403714070605674	-0.940862203396012	0.0403714070605673	1.91598437478287E-18	-1.64729042044174E-19
55.8	-3.41147594050979E-18	7.35785402662849E-18	-0.917488669738657	0.194509779508408	-0.917488669738657	0.194509779508408	1.0303435546496E-17	-1.2352687198324E-18
55.9	9.87433364768279E-19	-9.62977951266239E-18	-0.882299349622647	0.313698857436311	-0.882299349622646	0.313698857436311	-2.9351274126359E-18	1.80798687056103E-17
56	4.78774881659492E-18	-2.18581550377182E-18	-0.801415375470023	0.446326174102444	-0.801415375470023	0.446326174102444	-4.96398281369393E-18	-3.07434321299727E-18
56.1	1.48943960896428E-17	8.19887296104324E-18	-0.759987476222492	0.546846061154072	-0.759987476222492	0.546846061154073	1.68425232744875E-17	-7.18639623788438E-18
56.2	-5.18078889098198E-18	6.13736619324927E-18	-0.676460612002209	0.663884508726781	-0.676460612002209	0.663884508726781	-2.66046625547737E-17	5.73530173232949E-18
56.3	5.82494672559747E-18	7.99633177513147E-18	-0.521321157718184	0.758570477854836	-0.521321157718184	0.758570477854837	1.15147677074946E-18	1.53004988118336E-17
56.4	8.90459096524727E-18	8.98866697261643E-18	-0.465292353872485	0.817310370835127	-0.465292353872485	0.817310370835126	5.277559865378E-18	-3.13290551627914E-18
56.5	7.84929378414661E-18	1.27772937505876E-17	-0.326497461294499	0.896996015123021	-0.326497461294499	0.89699601512302	-1.40559209128129E-18	-3.24301166794199E-18
56.6	7.4955498997881E-18	-1.03574148451158E-17	-0.180428653878777	0.900815863593996	-0.180428653878777	0.900815863593996	7.4477894856038E-18	-2.5449428939161E-17
56.7	-6.01759896502124E-18	1.1406201212659E-17	-0.0590487416515986	0.93092295172193	-0.0590487416515982	0.93092295172193	1.57073660305606E-17	8.08703692177349E-18
56.8	1.67158632346991E-18	-1.27506738897602E-17	0.054310378504425	0.946587417831376	0.054310378504425	0.946587417831375	-1.10790875662903E-17	-1.44222602132302E-17
56.9	-2.52957191405004E-17	-2.26864585772219E-17	0.199726440608065	0.90411546916212	0.199726440608065	0.90411546916212	-2.41018150602855E-18	-8.71933829324233E-18
57	1.95660993432583E-17	-9.91024792412028E-18	0.35393570859235	0.836094147695552	0.35393570859235	0.836094147695552	5.31298377662691E-17	-3.01500801104261E-17
57.1	-3.94450633536277E-18	1.48817488354875E-17	0.450192321468894	0.804609051179269	0.450192321468894	0.804609051179269	-8.08806780024209E-18	2.44503552144013E-17
57.2	5.03469695734934E-18	1.28579584742098E-17	0.563965541652866	0.759017193175696	0.563965541652866	0.759017193175697	1.09857483263811E-17	6.55142244067439E-18
57.3	-1.2143119351674E-17	1.4184064426423E-17	0.7096441431653	0.602547088973832	0.709644143165301	0.602547088973832	1.03429797932769E-17	1.65832577299145E-17
57.4	-4.57460118151707E-18	-9.9296961683324E-18	0.713515110922099	0.522114100307277	0.713515110922099	0.522114100307277	2.75008874576975E-18	-2.71932624775645E-17
57.5	1.26822648525283E-17	3.41902821270639E-18	0.835225131323636	0.437797591712911	0.835225131323636	0.437797591712911	2.98567041690943E-17	-5.64871826366756E-18
57.6	-1.8718669301121E-17	1.47796282674792E-17	0.893398089114851	0.289312206281638	0.893398089114851	0.289312206281638	7.2904302566147E-18	1.47160780738289E-17
57.7	-1.30873498148226E-17	1.59588529084796E-17	0.881414482571738	0.153041099386453	0.881414482571737	0.153041099386452	1.75833444122368E-18	1.97998224637895E-17
57.8	1.37693138152666E-17	-1.50024528623628E-17	0.927500031777621	0.0528172398300317	0.927500031777621	0.0528172398300315	6.33197619342546E-18	-1.58522590534177E-17
57.9	3.17779856873492E-18	7.32311260868777E-19	0.936083760311649	-0.0620023797289213	0.936083760311649	-0.0620023797289208	1.45801223491456E-17	-6.17546260859622E-18
58	-2.93464341980634E-18	3.61203733286708E-18	0.884338129109564	-0.257530822843762	0.884338129109563	-0.257530822843762	5.60182718722374E-18	1.97669440862006E-17
58.1	-5.68626078952032E-18	-2.05914326875352E-18	0.819979992312659	-0.327373662623915	0.819979992312659	-0.327373662623916	2.78492178032087E-18	9.68293213582838E-19
58.2	-4.04056026356754E-18	2.18410547698601E-17	0.8042717766531	-0.463084469884844	0.8042717766531	-0.463084469884844	9.04526587430509E-18	5.25073222974988E-18
58.3	-1.32351895406948E-17	-5.59340279302675E-18	0.712842181835969	-0.587401969176746	0.712842181835969	-0.587401969176746	-1.77622044928204E-17	1.7650498528591E-17
58.4	1.96167723473264E-17	5.09296452044409E-18	0.611401385247022	-0.615442335216278	0.611401385247022	-0.615442335216278	2.60926291397019E-17	-2.78298472297192E-18
58.5	1.99796788274993E-17	3.93145658427827E-18	0.566611700797628	-0.744229006683245	0.566611700797629	-0.744229006683245	7.04647245145617E-19	-8.85443365446362E-18
58.6	-9.6518971311739E-18	1.65771120248948E-17	0.421436227335148	-0.812454220965936	0.421436227335148	-0.812454220965936	-6.08810576742627E-18	1.40662383937221E-17
58.7	9.34674195212113E-19	4.20765652622574E-18	0.292735390268303	-0.830895418076226	0.292735390268302	-0.830895418076225	3.54698085462409E-18	-9.24156330389636E-18
58.8	1.08217241447571E-17	8.18128484191497E-18	0.195794397711671	-0.875904006390876	0.195794397711671	-0.875904006390875	1.48743276986069E-18	-1.62883126841799E-17
58.9	2.94296549478609E-19	-1.42034568321842E-18	0.0932500392628176	-0.909653291590553	0.0932500392628175	-0.909653291590553	-9.84014565417968E-18	-1.68521257774917E-17
59	9.76562205851689E-18	-8.7619311170869E-18	-0.0772105341425429	-0.892044112952218	-0.0772105341425426	-0.892044112952218	-8.02524750267489E-19	3.49283246934088E-18
59.1	-1.19462423499386E-19	1.1760279386058E-17	-0.165484452276199	-0.870493730281214	-0.1654844522762	-0.870493730281215	1.45331664844758E-18	-1.30185091229001E-17
59.2	1.11015828831257E-17	9.22685010826468E-18	-0.280785765045142	-0.876503300460146	-0.280785765045143	-0.876503300460146	3.47976652870362E-18	3.60939410479889E-18
59.3	7.92813706329624E-18	-3.01890967420002E-18	-0.433049482586195	-0.7774319127836	-0.433049482586195	-0.7774319127836	2.37775258579713E-18	2.68391392961048E-18
59.4	-1.33701200575908E-17	-1.51245578687738E-17	-0.495657883714654	-0.738800247487661	-0.495657883714653	-0.73880024748766	-5.76933627991339E-18	-1.12676352309024E-17
59.5	1.36274361029882E-17	-6.29682143937446E-19	-0.622474335055845	-0.660131450916063	-0.622474335055845	-0.660131450916063	1.58706394712399E-17	-2.28606266776795E-18
59.6	2.55825985863117E-18	-9.74447142538074E-19	-0.695969248077979	-0.546426519609052	-0.695969248077978	-0.546426519609052	5.14675091017888E-18	-7.54885867449296E-18
59.7	-1.99566850331077E-18	-1.33080230503647E-17	-0.770861690808937	-0.472722812055139	-0.770861690808937	-0.472722812055139	-7.00867815816115E-18	-4.39189725193417E-18
59.8	1.8024114809845E-18	-1.36989733987347E-17	-0.837773300161662	-0.35695454513703	-0.837773300161662	-0.35695454513703	-1.45374149064191E-18	-3.59032680600632E-18
59.9	-1.48130866123033E-17	-8.03471111960031E-18	-0.863931944460831	-0.248152961858023	-0.863931944460832	-0.248152961858023	1.70698546522562E-18	1.89562723869762E-18
60	2.87653570703139E-17	-6.80899736033899E-18	-0.889663671271987	-0.103313552814726	-0.889663671271986	-0.103313552814726	1.33075736887876E-17	-7.9463971649559E-18
60.1	2.02206634954591E-17	-9.79054549296431E-18	-0.884506299363719	0.00631934462469471	-0.88450629936372	0.00631934462469515	1.298916631766E-18	-4.09067463713198E-18
60.2	1.23847316795619E-17	4.38679664639953E-18	-0.900086569426458	0.105129794479175	-0.900086569426458	0.105129794479175	-7.38705525028603E-18	-3.37443477881733E-18
60.3	1.39314881055449E-17	-4.48863476458608E-18	-0.858409975291844	0.267018569922879	-0.858409975291844	0.267018569922879	-5.64321253304196E-18	-1.31362512985495E-17
60.4	-1.40491475365622E-18	-3.24597974729663E-18	-0.803357026568064	0.334447895242325	-0.803357026568064	0.334447895242324	-1.21182712011977E-17	-1.20317862054634E-17
60.5	-8.34419127329798E-18	-1.30110004221111E-17	-0.769240896423758	0.469006635414456	-0.769240896423758	0.469006635414456	-1.10858036596897E-17	5.37615861318905E-18
60.6	4.81222739654457E-18	-9.55853363276428E-18	-0.691799606742362	0.562295764165729	-0.691799606742362	0.562295764165729	-5.04390745446544E-19	-4.33053957385924E-18
60.7	1.79926458601946E-17	-8.97939617001419E-18	-0.606138980972084	0.654061657791746	-0.606138980972084	0.654061657791746	2.74416951288633E-18	8.78341008571248E-18
60.8	5.92199376540219E-18	-6.78968693567006E-18	-0.516258747327691	0.735248000097247	-0.516258747327691	0.735248000097247	1.58114683168389E-17	3.59535144908485E-18
60.9	3.41972695852971E-18	-2.30558720664902E-17	-0.42087248657127	0.794880939282587	-0.42087248657127	0.794880939282587	9.43242140636741E-18	-3.35577601369545E-17
61	-7.96473382201832E-18	-9.02876659179466E-18	-0.296191669897378	0.846385701911921	-0.296191669897378	0.846385701911921	9.78207801991887E-18	4.23347869889067E-18
61.1	1.45185048845505E-17	-6.60598726774312E-18	-0.17631328772658	0.862829259029098	-0.17631328772658	0.862829259029098	5.73283178061181E-18	-4.86815181396959E-18
61.2	3.51704032878295E-18	1.56520552905171E-17	-0.075834188782793	0.883179168441691	-0.075834188782793	0.883179168441692	6.99903839497005E-18	-8.47235637438034E-18
61.3	-2.50798982968571E-18	6.67446867615634E-18	0.0470749929953893	0.902629580277902	0.0470749929953893	0.902629580277903	-5.60341394261624E-18	4.32648997102948E-18
61.4	2.30455166284882E-17	-1.96486050513501E-17	0.200201118547671	0.86748514191545	0.200201118547672	0.867485141915451	-8.88924567954207E-18	-1.03892131239059E-17
61.5	-1.31051273030752E-17	8.60745295009863E-18	0.265785666235745	0.825773228604318	0.265785666235745	0.825773228604318	5.16661073507516E-18	2.71852482871384E-18
61.6	3.43531638085819E-18	2.64914612330718E-18	0.402830204906124	0.819338206350606	0.402830204906124	0.819338206350606	1.09340857473609E-17	-1.15503577377199E-18
61.7	-4.32909991545132E-18	-4.57441587366612E-18	0.516717132989472	0.738129540999101	0.516717132989472	0.7381295409991	-2.09355279023367E-17	-1.31316712348924E-19
61.8	-1.98014633546534E-17	2.42095519920279E-17	0.589221208866562	0.649710306537197	0.589221208866562	0.649710306537197	-1.37227806768094E-17	1.00545353262334E-17
61.9	-5.61830443769981E-19	1.16133156645246E-17	0.679121571867603	0.563203911830201	0.679121571867604	0.563203911830201	-1.12563322102428E-17	-8.70149367689978E-18
62	1.18276567672163E-18	-4.25085116682712E-18	0.743742719004106	0.491237152515681	0.743742719004106	0.49123715251568	1.20259319269535E-17	5.35682848502941E-18
