# GHZ S RI R 50
50	-2.01070522006105E-18	2.00234629498676E-17	0.823213691291435	-0.59220880588646	0.823213691291435	-0.59220880588646	-4.69000220199543E-18	3.08851224634564E-19
50.1	-1.93203935904633E-17	-4.49108001597979E-19	0.692169392811723	-0.706638245012426	0.692169392811724	-0.706638245012426	5.81645246120517E-18	-6.06221765201154E-18
50.2	-8.24035844933527E-18	9.09811958675444E-18	0.580098406295678	-0.807045250154617	0.580098406295679	-0.807045250154617	-8.42250777248194E-18	-8.91947973825644E-18
50.3	-5.6360179391608E-18	2.77879327888994E-17	0.447971159999075	-0.920161789844696	0.447971159999076	-0.920161789844697	-5.60332647728324E-18	-7.15063328659341E-18
50.4	-3.42555641377276E-18	-2.23779399104395E-17	0.249522925457491	-0.943399192778413	0.249522925457491	-0.943399192778414	2.27926187568662E-18	1.26989379848474E-17
50.5	6.79854490355265E-18	9.08011177083147E-18	0.127678188773918	-1.00245009988863	0.127678188773918	-1.00245009988863	4.73144654250413E-18	-6.04810329298104E-19
50.6	-2.53600322874396E-17	-8.43072297133957E-18	-0.0567761433529831	-0.997425369994937	-0.0567761433529835	-0.997425369994937	1.7202104987948E-18	-1.96474662201903E-19
50.7	5.50206439346067E-19	-7.24783463066952E-18	-0.204163759386312	-0.971713056858506	-0.204163759386311	-0.971713056858506	-1.37128376282954E-17	-1.44456222440262E-18
50.8	-1.33507206102938E-17	-6.04696446459016E-18	-0.381717263549579	-0.948802297997917	-0.381717263549579	-0.948802297997917	-2.95285420199457E-17	6.80854953759609E-19
50.9	6.20894924696467E-19	9.75753433677826E-18	-0.511335919899922	-0.839724908694265	-0.511335919899923	-0.839724908694265	-2.83067682261144E-18	-1.27865523730043E-17
51	-1.45149245356077E-17	-2.32106070943377E-17	-0.660958621639404	-0.765455082076777	-0.660958621639404	-0.765455082076776	-1.60563743390114E-17	-5.71814083004815E-19
51.1	-6.3528363431899E-18	-5.52319716842075E-18	-0.771943058547263	-0.643886222450452	-0.771943058547263	-0.643886222450452	-7.80915515058988E-19	5.48791501420672E-18
51.2	-7.34661628334693E-18	1.25193535223947E-19	-0.860388939791834	-0.506314719314396	-0.860388939791834	-0.506314719314397	-3.86223149109978E-18	1.67529005146808E-19
51.3	-5.51909342398315E-18	-2.05610941713826E-18	-0.936915330327036	-0.361845184680833	-0.936915330327036	-0.361845184680833	-6.40942231498625E-18	8.36186795479527E-18
51.4	1.65106033154461E-17	-1.32608499059876E-18	-1.00141138050107	-0.223409863665992	-1.00141138050107	-0.223409863665992	-1.11395627894595E-17	5.86562875232532E-18
51.5	1.02181293223677E-17	2.9166640972961E-17	-0.988653871131936	-0.0284577824506075	-0.988653871131935	-0.0284577824506079	2.22857162656992E-17	1.14828320503017E-17
51.6	1.41529888188391E-17	8.46307108605696E-18	-1.00649211200566	0.100421407698438	-1.00649211200566	0.100421407698438	2.12774934131292E-17	1.14295767270866E-18
51.7	1.62939468375738E-17	-1.98470484552424E-18	-0.992687428936878	0.265372365523577	-0.992687428936879	0.265372365523578	5.95011135221327E-18	-2.35047736344696E-17
51.8	-1.65500302627007E-17	-1.26422696205121E-17	-0.877751288014394	0.412839144390141	-0.877751288014394	0.412839144390142	-3.37536883519705E-18	2.26328732143939E-17
51.9	-1.66205897690869E-17	-1.96476498245604E-18	-0.875741009198741	0.557368604307123	-0.875741009198741	0.557368604307123	-1.36198890468651E-18	1.17438205629415E-17
52	3.30693655393507E-18	5.24265165272132E-18	-0.712760228068302	0.694978938520163	-0.712760228068303	0.694978938520164	-1.11220636215484E-17	-2.21567425061013E-18
52.1	1.1136949209762E-17	8.91198372860683E-18	-0.603633493622415	0.783886876957823	-0.603633493622415	0.783886876957824	9.74157938240171E-18	-3.0135991524022E-18
52.2	2.75122785191212E-18	-1.70443832446394E-17	-0.499973863079306	0.8771918517336	-0.499973863079306	0.877191851733599	-2.3441021929458E-17	2.06485989059879E-18
52.3	5.28558062585316E-19	1.41344552425532E-17	-0.359349609696033	0.946357928737574	-0.359349609696033	0.946357928737575	1.0037858682761E-17	-5.98927037455358E-19
52.4	-1.92055850503816E-17	-1.28449509249953E-17	-0.188369512693641	1.0229394413814	-0.188369512693641	1.0229394413814	8.51643155302743E-18	9.27218949419092E-18
52.5	4.26992245925282E-19	3.32943281849842E-18	-0.056850342377072	0.967152602633497	-0.0568503423770719	0.967152602633497	4.47843306375039E-18	-2.40646339957632E-17
52.6	1.90369899924983E-19	1.14500691112085E-17	0.0945519259424751	1.03746226782306	0.0945519259424752	1.03746226782306	3.75833624917933E-17	1.70193071999439E-17
52.7	8.15541938541402E-18	-8.11795134488258E-18	0.317545145866941	0.994827807082958	0.317545145866942	0.994827807082959	-2.26452031996582E-17	-2.47116602983785E-18
52.8	2.10739525035818E-17	-2.10170615120871E-17	0.345336934279049	0.835313345139861	0.345336934279049	0.835313345139862	-1.95483519706492E-17	4.48333782705628E-18
52.9	3.12392185111136E-17	-1.6766517808813E-17	0.648548220561927	0.913718273745011	0.648548220561927	0.913718273745011	-1.43727491499185E-18	4.11192164021137E-18
53	-1.60747245389352E-18	-1.31245455350539E-19	0.653479310242894	0.709008506890648	0.653479310242895	0.709008506890648	2.72775302962829E-17	2.26567579267154E-17
53.1	4.43706626102384E-18	3.82466873305082E-17	0.783307799957066	0.664955056800978	0.783307799957065	0.664955056800977	2.48535509712603E-17	-6.8734528391122E-18
53.2	5.42822918984116E-18	1.04990399051157E-17	0.930872290047093	0.514891566030653	0.930872290047093	0.514891566030653	-1.65310197561206E-17	6.89516878815953E-18
53.3	1.09834997609881E-17	-1.06884777095715E-17	0.9447421047688	0.38261425494518	0.9447421047688	0.38261425494518	-4.27201380709477E-17	3.89110966708292E-17
53.4	-7.09274118716702E-18	-4.02963575865579E-17	0.972861131949875	0.169461205799198	0.972861131949875	0.169461205799197	-9.59033031609355E-18	-1.33320000486597E-17
53.5	8.78999099095244E-18	-4.10047636207787E-18	1.05181910348342	0.109262128538658	1.05181910348342	0.109262128538657	9.63953817670785E-18	-3.42650108108652E-18
53.6	-4.0916844350423E-17	1.09459091908266E-17	1.03508059075377	-0.112738514965212	1.03508059075377	-0.112738514965212	-6.46092171673807E-20	-2.21321374321822E-17
53.7	-5.29116269845613E-18	1.31234943051039E-17	0.934855847147108	-0.272520102360627	0.934855847147108	-0.272520102360626	6.12302374298862E-17	-6.83173204788027E-18
53.8	1.33168387766065E-17	1.64267743842946E-17	1.04066214810876	-0.368834155898584	1.04066214810876	-0.368834155898584	4.2709613399166E-17	-3.4623780819177E-17
53.9	-1.25442476992479E-17	-6.16420282067329E-18	0.879795153227607	-0.547950769317184	0.879795153227607	-0.547950769317184	-1.84926084620199E-18	3.76327430977438E-18
54	-1.93669762512312E-17	-2.34900146901892E-17	0.766460731107349	-0.667671079456247	0.766460731107349	-0.667671079456248	-9.36887963211176E-18	2.32207958566413E-18
54.1	3.09749634598919E-18	4.64849292756022E-18	0.68453518464677	-0.747914107920593	0.68453518464677	-0.747914107920593	2.27764636725409E-17	-5.59990648878858E-18
54.2	5.72761179935498E-18	-1.63999263121213E-17	0.573842956289552	-0.858958477679733	0.573842956289553	-0.858958477679733	-9.54783178818859E-19	-2.16459067668995E-17
54.3	7.01511899480281E-19	3.2289745792307E-18	0.385498089411617	-0.952881743595676	0.385498089411617	-0.952881743595677	1.36388398254931E-17	1.71880273481986E-18
54.4	9.5861901523617E-18	-1.21642690029967E-17	0.326236640336644	-0.941045327174461	0.326236640336644	-0.94104532717446	2.87267438404126E-18	-4.81285810563014E-17
54.5	4.70172691823241E-18	-3.26455602625517E-18	0.0962630819891088	-1.07579224098538	0.0962630819891083	-1.07579224098538	-6.36492645066638E-18	-2.17121709761905E-17
54.6	4.75151814395035E-18	1.36466934286648E-17	-0.0452502394766612	-1.00404789883231	-0.0452502394766618	-1.00404789883231	1.84095386679124E-17	-1.04601361738691E-17
54.7	-5.7550362948503E-18	-8.34350726231896E-18	-0.177206936633862	-1.0465886066369	-0.177206936633862	-1.0465886066369	-2.75585328115509E-18	-9.38911872937912E-18
54.8	-6.23760428273623E-18	7.27244121700168E-20	-0.356627751790205	-0.998003811351945	-0.356627751790205	-0.998003811351945	-2.28985491840467E-17	-6.4279494296315E-18
54.9	5.57947004807824E-19	-3.32659462734879E-18	-0.494933064593509	-0.90747739291693	-0.49493306459351	-0.907477392916931	-1.78805180513241E-17	7.2234766081367E-18
55	3.96190277224117E-18	-8.83598648579072E-18	-0.616241578342735	-0.855069635225853	-0.616241578342736	-0.855069635225853	1.03615245319431E-17	-1.88905616130374E-17
55.1	-3.35932867504021E-20	-2.99022807842497E-18	-0.754463856324704	-0.746035549998785	-0.754463856324704	-0.746035549998784	3.87269631133017E-18	-2.97307996155968E-18
55.2	1.01429252101798E-17	2.97542456639441E-18	-0.831333666887647	-0.62729005354384	-0.831333666887647	-0.62729005354384	-1.80927266368435E-18	5.16293352559712E-19
55.3	6.07709529627539E-18	-2.99008024490889E-18	-0.935042385078794	-0.473112874256487	-0.935042385078793	-0.473112874256486	-1.826003349238E-17	1.69712020174189E-17
55.4	-1.70308434753838E-17	-1.29181768287144E-18	-0.992920540104386	-0.373289169128283	-0.992920540104386	-0.373289169128284	-1.35818863329567E-17	-1.70823692443395E-17
55.5	-6.92114604609889E-18	-1.00402452345398E-17	-1.05620892409964	-0.190307641844163	-1.05620892409964	-0.190307641844163	6.71223340897368E-18	-1.8021769525022E-17
55.6	2.35204426481011E-18	-9.35020793122769E-18	-1.04722391671506	-0.0511172903929051	-1.04722391671506	-0.0511172903929049	-1.25017439367141E-17	1.02730579902082E-17
55.7	3.27363049640526E-18	6.51342080416704E-18	-1.06974235112617	0.100542171044951	-1.06974235112617	0.100542171044951	-1.64870489324092E-17	-9.49956162714633E-19
55.8	-1.23587814989597E-18	1.83967368241847E-18	-1.03364763582554	0.272542412531163	-1.03364763582554	0.272542412531163	2.30203379068614E-19	4.42653167174471E-18
55.9	1.40641509508224E-18	-1.40657630340919E-18	-0.989285780301149	0.409808798519575	-0.98928578030115	0.409808798519575	1.82859755693003E-17	2.67223704315433E-17
56	-3.4133858995167E-18	2.57342306657655E-18	-0.892305891432189	0.553020869281093	-0.892305891432189	0.553020869281093	1.28028738515754E-17	-8.58164585977223E-18
56.1	1.15602044629532E-17	-3.62489849646883E-18	-0.837181260745435	0.673891080632256	-0.837181260745434	0.673891080632256	9.78677181810743E-18	2.14015675656727E-18
56.2	6.39994964331165E-19	-4.17407623939232E-18	-0.73189742162753	0.803206135644898	-0.73189742162753	0.803206135644898	-1.38971654928433E-17	5.40838523744407E-18
56.3	1.15970335180502E-17	6.06127149340272E-18	-0.55514657536849	0.894984610724274	-0.55514657536849	0.894984610724275	3.96050623994011E-17	-6.7550530550877E-18
56.4	-1.5546656059291E-18	8.87689442722235E-18	-0.480556203144961	0.971409291086263	-0.480556203144961	0.971409291086263	9.76086284450277E-18	-2.32434005450278E-18
56.5	-4.06468233540184E-18	-3.29645069166912E-18	-0.314257110404553	1.04975622788177	-0.314257110404554	1.04975622788177	1.14454750816988E-18	-1.74032768497772E-18
56.6	3.971570439228E-19	-1.15722527373655E-17	-0.152870467001693	1.04875515292314	-0.152870467001694	1.04875515292314	1.93094891154367E-17	-5.11764398061276E-17
56.7	8.09505696601917E-18	-3.92440803706061E-18	-0.00659101133904991	1.07683178263066	-0.00659101133904986	1.07683178263066	-2.41374263629187E-17	-2.95489070277543E-19
56.8	6.05113594237999E-18	7.11268066032977E-18	0.132040851332119	1.08917182898454	0.132040851332119	1.08917182898454	5.51241027427212E-18	1.58469784685994E-17
56.9	2.59550573494162E-17	1.92256163164498E-17	0.292942026671978	1.03281847218329	0.292942026671979	1.03281847218329	-5.81181615236921E-18	1.53310038292826E-17
57	-6.5616299445195E-18	2.15232145423482E-18	0.459385920938823	0.945009940105951	0.459385920938824	0.945009940105951	-1.1617088792751E-17	5.48773882578417E-18
57.1	-7.81775355657744E-18	-3.53838519663647E-17	0.577785040968894	0.902170700297492	0.577785040968894	0.902170700297492	-1.12795792101251E-17	-1.83461173172667E-17
57.2	3.6938261279606E-17	2.72184840767623E-17	0.711775118165264	0.836857949882925	0.711775118165263	0.836857949882924	1.99434455560285E-17	-5.24210994809479E-18
57.3	2.16694969700736E-17	-3.93363618680008E-18	0.853306850014097	0.649066824706611	0.853306850014098	0.649066824706611	1.0153403839599E-17	-1.93646955455626E-17
57.4	-9.18526166212771E-18	1.81628995961641E-20	0.870023369228711	0.564182082463715	0.870023369228711	0.564182082463715	2.90793040586656E-18	3.3941973390566E-17
57.5	-1.37674780175338E-18	5.47198728911618E-18	1.00265365016155	0.44444598246989	1.00265365016155	0.444445982469889	1.14998188256447E-17	6.47388465366886E-18
57.6	2.19021280486427E-17	-3.02904905295733E-17	1.05577672421432	0.270532655818971	1.05577672421432	0.270532655818971	-2.13296314294355E-17	-2.11000046712812E-17
57.7	-3.86227820092567E-18	-1.26163078726159E-17	1.03944078439691	0.120592058880579	1.03944078439691	0.120592058880579	-9.57358896017123E-18	-2.56675050374307E-17
57.8	-1.69138470458336E-18	-8.16055145604793E-18	1.08645122191056	-0.0103335048811281	1.08645122191056	-0.0103335048811283	-3.55076170909012E-17	-3.61917747622804E-17
57.9	4.51207761856407E-19	2.3253928531244E-18	1.08944623970052	-0.150636157670093	1.08944623970052	-0.150636157670093	-9.50170047934154E-18	-2.77143703595299E-18
58	-6.78731402076121E-18	-4.7557439626702E-18	1.0099105683639	-0.36033958827091	1.0099105683639	-0.36033958827091	-2.32811345070818E-18	4.44150895158574E-17
58.1	-3.69176253670763E-18	1.03845882574365E-17	0.942581037678398	-0.444011143147905	0.942581037678399	-0.444011143147905	5.56800488428562E-18	2.90234810038625E-17
58.2	7.19581372178199E-18	-1.48228335143242E-17	0.904154290544834	-0.606214379307356	0.904154290544834	-0.606214379307356	1.82595655823561E-17	-4.58345925706754E-17
58.3	-5.56913055256625E-18	7.78223348916904E-18	0.788222200973747	-0.740410954073286	0.788222200973747	-0.740410954073287	-4.68351519608519E-18	9.87042358273143E-18
58.4	7.69881299847333E-18	-1.2212022410294E-17	0.680079373241028	-0.776534568700976	0.680079373241028	-0.776534568700976	7.32893111174626E-18	-9.74900594139661E-19
58.5	-1.52251882593084E-18	-8.57502266015341E-18	0.600149476806684	-0.925994000474547	0.600149476806684	-0.925994000474547	-1.1391520718191E-17	-9.94464252375341E-18
58.6	-1.88344829673078E-17	-1.42196718080629E-17	0.429769583800624	-0.990341912364374	0.429769583800624	-0.990341912364373	-1.78362790360769E-17	-1.31248061049704E-18
58.7	-1.03477007295385E-17	1.14808062551898E-17	0.283192990503608	-1.00719355346586	0.283192990503608	-1.00719355346586	-5.04121357423528E-18	-8.5332815091293E-19
58.8	9.8734281211147E-18	-5.24681776977023E-18	0.157899334566962	-1.05568022621233	0.157899334566962	-1.05568022621233	3.62500961811479E-18	-5.09176591516379E-18
58.9	-1.51611574916725E-18	-1.14008271606684E-17	0.0259418745530944	-1.08873098367057	0.0259418745530944	-1.08873098367057	8.5142154288678E-18	-5.77322346360116E-18
59	-2.33935142120973E-17	1.06064482540193E-17	-0.164633210020515	-1.05089085379212	-0.164633210020516	-1.05089085379212	-2.59035624633524E-17	6.00107724966329E-18
59.1	6.64922217100756E-18	8.5674902280732E-18	-0.275117711949138	-1.02496975731494	-0.275117711949138	-1.02496975731494	7.32009825815676E-18	-1.97763985810683E-18
59.2	1.61417837154663E-17	8.69848857537153E-18	-0.421374528609895	-1.01578614107037	-0.421374528609895	-1.01578614107037	5.65851797157334E-18	2.68286690527754E-18
59.3	2.1799640600369E-18	-5.57789563910842E-18	-0.580472890161737	-0.888475575063033	-0.580472890161737	-0.888475575063033	3.18620807506006E-18	2.46437614661568E-18
59.4	1.28752715275759E-17	2.74935380293368E-17	-0.665855278292779	-0.838442651920695	-0.665855278292779	-0.838442651920696	1.38395784846774E-17	-9.03191812586995E-18
59.5	1.25455458132112E-17	2.07029649210159E-18	-0.805598805050006	-0.728125981049269	-0.805598805050007	-0.728125981049269	1.33943311798552E-18	-7.07458324070211E-18
59.6	-4.85325681058972E-18	-1.17757209306841E-17	-0.88317079579614	-0.591247336296156	-0.883170795796139	-0.591247336296155	8.01642754827688E-19	7.08742770276676E-18
59.7	6.82666857816521E-18	2.30034025987375E-17	-0.970800069336916	-0.48919286649228	-0.970800069336916	-0.48919286649228	2.43951773364624E-18	3.29533947844456E-18
59.8	-1.60720185861489E-18	9.13492085502421E-18	-1.03829616927426	-0.342816488398326	-1.03829616927426	-0.342816488398325	-5.87935165348467E-19	6.01805864869648E-18
59.9	-3.00245100973479E-17	8.67553839117682E-18	-1.06455950370881	-0.209349499750611	-1.06455950370882	-0.209349499750611	-5.64856694593745E-18	7.06560040969115E-18
60	-1.35608330395771E-17	-9.01441880304181E-18	-1.07841104598712	-0.0364215229793186	-1.07841104598712	-0.0364215229793185	1.1779038857436E-18	-2.45077820584641E-18
60.1	1.50800114253958E-17	2.15200651339802E-17	-1.06683119161148	0.0970608423103965	-1.06683119161148	0.0970608423103967	1.16311511560113E-17	8.23846733689433E-18
60.2	-5.78884830242803E-18	-6.59250147254749E-18	-1.07468250803286	0.227766414857741	-1.07468250803286	0.227766414857741	-9.4654945737717E-18	1.2217350225621E-17
60.3	9.07775052562854E-18	-3.16777166333715E-17	-1.00541793987786	0.408918561293773	-1.00541793987786	0.408918561293773	7.15564156431619E-18	-2.26699350620347E-17
60.4	8.57970867428487E-18	8.31175021845527E-18	-0.942175050067879	0.49435051951879	-0.942175050067879	0.49435051951879	-2.95290017214101E-18	-2.63592123889013E-18
60.5	3.18465084521873E-18	-3.37828181654253E-18	-0.877991373875353	0.652708004598946	-0.877991373875353	0.652708004598947	-1.27442927030677E-18	8.28946131845622E-18
60.6	2.15961814288717E-18	-5.06738856105123E-18	-0.776425791238875	0.759253825279097	-0.776425791238875	0.759253825279097	-2.93064330065831E-18	-6.20437983873045E-18
60.7	-1.8874259243025E-17	7.8523946903407E-19	-0.662275170665672	0.861709594340353	-0.662275170665672	0.861709594340354	-7.19072057504891E-18	-7.09678466224147E-18
60.8	1.33595729077032E-17	-5.50445757766206E-18	-0.541934491758343	0.951437302580681	-0.541934491758343	0.951437302580682	5.15347588013941E-18	3.5934222027588E-18
60.9	4.73725710338517E-18	-4.68254372907509E-17	-0.417167874887467	1.01657032277733	-0.417167874887467	1.01657032277733	-2.07153822073602E-17	3.09843072689789E-18
61	-4.05495873945287E-18	5.51168309315213E-18	-0.261215840185186	1.06364684132325	-0.261215840185187	1.06364684132325	-2.3953390477814E-17	-7.80026528355659E-19
61.1	-2.47049063963624E-17	2.31235764039187E-17	-0.115297051940535	1.07418558886925	-0.115297051940535	1.07418558886925	-7.91919741356432E-19	1.79572284124886E-17
61.2	4.4243869348762E-18	1.03158271716673E-17	0.0157658274384605	1.09017410055109	0.0157658274384603	1.09017410055109	-3.92870334795396E-18	6.81833194701496E-18
61.3	-2.44402373655587E-17	1.45777555651026E-17	0.171744294986404	1.09548539127877	0.171744294986405	1.09548539127877	-4.63691535412703E-18	3.8710472689938E-18
61.4	-6.64039209094807E-18	9.51432187841897E-18	0.345650350420104	1.03440349776382	0.345650350420104	1.03440349776382	-1.05703022727852E-17	3.11070788195426E-18
61.5	2.50340768583085E-17	1.20932064736215E-17	0.432682010202741	0.985260271137346	0.432682010202741	0.985260271137346	1.44805661405347E-17	1.46712957996916E-17
61.6	-9.53550617212766E-18	9.99070128706341E-18	0.600935471327642	0.947463899543199	0.600935471327642	0.947463899543199	1.42463598688245E-18	-1.7426827862994E-18
61.7	1.383222530724E-17	-2.17169935509233E-17	0.72676069736335	0.836785086859774	0.726760697363349	0.836785086859774	-2.80233517619075E-18	-1.06189540091284E-17
61.8	2.62438276145955E-18	5.12018669148521E-18	0.8093077591719	0.725090027513225	0.809307759171899	0.725090027513225	-5.25798597823748E-18	-9.66540606934294E-19
61.9	3.36497371861557E-18	-1.34464053633545E-17	0.908572354588475	0.605869798980525	0.908572354588475	0.605869798980524	8.49174215631123E-18	9.62988099008258E-18
62	7.48230854024197E-18	3.10106615426829E-18	0.985042090910497	0.503195558113029	0.985042090910497	0.503195558113029	1.05649097720193E-17	2.83587120163856E-18
62.1	9.55586793781219E-18	-3.69306175384093E-18	1.06152297815693	0.353786122729814	1.06152297815693	0.353786122729813	7.58627500538877E-19	-1.63976608621387E-17
