# GHZ S RI R 50
50	-4.62236724651852E-18	-1.12397465773247E-17	0.760691574520834	-0.531105686386688	0.760691574520834	-0.531105686386688	2.63850950086215E-18	-3.80311031476247E-18
50.1	8.52680146441101E-18	-4.88820894106276E-18	0.641019645711603	-0.636206450522378	0.641019645711603	-0.636206450522378	2.89914331138392E-18	-9.17560430182556E-18
50.2	-4.66162618463947E-18	-1.05308409459306E-17	0.541340063608869	-0.728280683371476	0.541340063608869	-0.728280683371475	8.8977324833284E-18	4.78047578622299E-18
50.3	-7.86129670524263E-18	-1.5912287485711E-17	0.423892499237729	-0.834761133831792	0.42389249923773	-0.834761133831793	-2.78588367665218E-18	3.91895173519506E-18
50.4	-4.2264359593427E-18	1.7521734804887E-17	0.240067197284893	-0.856763627822864	0.240067197284894	-0.856763627822864	-5.81910354852292E-18	-1.15757260714614E-17
50.5	8.32697322733178E-18	-1.75692743499426E-17	0.133355607447772	-0.913422365068031	0.133355607447772	-0.913422365068032	6.10029715895857E-18	7.99037352555215E-18
50.6	-2.68892313207043E-18	-1.57042512657815E-17	-0.0359729397831605	-0.911176786095547	-0.0359729397831603	-0.911176786095547	-3.55831797732208E-18	-8.40054357344274E-18
50.7	-5.48709273047686E-18	-1.38889155991908E-17	-0.169337112302498	-0.889489036834885	-0.169337112302498	-0.889489036834885	5.84620215935593E-18	-8.42649702663089E-18
50.8	-2.54087658311078E-17	-2.40371289302511E-17	-0.33200556455929	-0.873568823364156	-0.33200556455929	-0.873568823364157	-8.05221713907015E-18	6.08990343657446E-20
50.9	4.15799041870342E-18	3.95315371868647E-18	-0.451076084050697	-0.773738721403566	-0.451076084050697	-0.773738721403566	-1.01678425708092E-17	3.83750412239932E-18
51	6.38340564963299E-18	1.3986252177323E-17	-0.589014333483042	-0.710547554355945	-0.589014333483042	-0.710547554355945	2.2766843977749E-17	1.48219921251758E-17
51.1	-2.35782709822172E-17	-1.06795312791252E-17	-0.691752927446125	-0.601545857316605	-0.691752927446125	-0.601545857316605	-4.53351131101991E-18	-8.36567157660233E-19
51.2	2.54302602305442E-18	-1.73385129249915E-17	-0.774195248929707	-0.477704984274913	-0.774195248929708	-0.477704984274914	1.27848296868322E-18	-3.85403545846567E-18
51.3	8.46456362445977E-19	1.46419825749949E-17	-0.846593286382214	-0.348112752525074	-0.846593286382214	-0.348112752525075	1.02460299189857E-17	-6.21978502703087E-18
51.4	-2.40411334330861E-17	-4.1047499032001E-18	-0.908478440710238	-0.22517805060498	-0.908478440710237	-0.225178050604979	1.78262191853177E-18	8.2218993328912E-20
51.5	-8.53477213613964E-18	1.11540856385408E-17	-0.899093298152363	-0.0449223668623907	-0.899093298152362	-0.0449223668623908	-1.12103101754572E-18	1.11903644647578E-17
51.6	1.76587512940597E-17	2.82206957135852E-17	-0.918539564263158	0.0689662026987127	-0.918539564263157	0.068966202698713	2.79206008543743E-17	9.92477983127076E-18
51.7	4.29334283918565E-18	-1.58535653911187E-17	-0.910533114535597	0.218864317577706	-0.910533114535597	0.218864317577706	-3.70948033281177E-18	-1.68940157783452E-17
51.8	-1.60611755316279E-18	1.26620729758645E-18	-0.80527813091483	0.356121819976252	-0.80527813091483	0.356121819976252	-1.01555626472518E-17	1.67138404653892E-18
51.9	5.1100829881068E-18	3.2090434258892E-19	-0.811561609184463	0.485546848852103	-0.811561609184464	0.485546848852104	3.76128266077478E-17	-4.46847946535453E-18
52	-7.05962943299145E-18	-8.73026182604528E-19	-0.662911825700666	0.616153012227912	-0.662911825700667	0.616153012227913	-2.70159348074608E-17	-7.3126760275066E-19
52.1	-3.13683127607357E-18	2.0907016988337E-18	-0.566079758575624	0.697581456657564	-0.566079758575624	0.697581456657564	-1.86055674562288E-17	2.03676877599826E-17
52.2	1.20887785313411E-18	-6.38368879558105E-18	-0.47632139014145	0.783936691695762	-0.47632139014145	0.783936691695762	-2.78390293745498E-17	-6.10627056050365E-18
52.3	1.11362348195544E-17	-4.94881401964686E-18	-0.350946494043723	0.849798138444095	-0.350946494043723	0.849798138444095	3.13479211737283E-18	1.13992933501096E-17
52.4	1.81604389505245E-17	-2.51361722524274E-18	-0.197837418743073	0.925783172630911	-0.197837418743073	0.925783172630911	-1.83410211982091E-17	1.05242383768904E-17
52.5	-2.33731351340225E-17	-5.51660753055245E-18	-0.0771394582572925	0.872909423565667	-0.0771394582572926	0.872909423565666	-1.56927249170437E-17	-6.85468192316275E-18
52.6	-3.40391425228893E-18	1.76102366113128E-17	0.0553885457148626	0.94479631234351	0.0553885457148624	0.944796312343509	1.55225810111588E-17	2.55528564706572E-17
52.7	-2.133009893655E-17	1.36683732861278E-18	0.262775049018104	0.91311324925147	0.262775049018104	0.913113249251469	1.52423283775191E-17	-1.69609377333877E-17
52.8	7.97226062833596E-18	2.11990040795475E-18	0.287171790203376	0.759596741065657	0.287171790203376	0.759596741065656	1.685605324653E-17	-3.62277888053329E-17
52.9	-1.51277907949644E-17	5.42601151632481E-18	0.565014042248339	0.853280281723266	0.565014042248339	0.853280281723266	-2.57459663960641E-17	4.87056402757365E-18
53	-2.76998821429784E-17	7.99621966439828E-18	0.570390354788695	0.657614820786791	0.570390354788695	0.657614820786791	2.88640362051028E-17	2.10520275611671E-17
53.1	-5.29183685224818E-18	-8.17789044071329E-18	0.687957957154846	0.626501669705605	0.687957957154846	0.626501669705605	-2.64480979462158E-17	-2.46742490670463E-17
53.2	1.96850769055067E-17	2.80518925220772E-17	0.829622849796023	0.495832734939627	0.829622849796024	0.495832734939627	1.42717145942401E-17	-7.67483250330793E-18
53.3	3.13847405711412E-18	-9.74981308143707E-18	0.841928232926898	0.375730014474329	0.841928232926899	0.375730014474329	7.03616630305187E-18	-1.42375741636909E-17
53.4	-1.86530666418109E-19	7.43876472770244E-18	0.874203179337362	0.179748907725566	0.874203179337361	0.179748907725566	-1.2510283921746E-17	-1.28905518958043E-17
53.5	-4.53795680504371E-18	-7.1260500129469E-18	0.947529701004534	0.135904650150669	0.947529701004534	0.135904650150669	-2.02995075244565E-17	1.55860599195426E-17
53.6	3.01142095069671E-17	3.33580652194296E-18	0.940315828409107	-0.0692387118018544	0.940315828409107	-0.0692387118018543	-9.09743012271812E-18	1.22597879741453E-17
53.7	9.0720667613328E-18	-5.00386171812485E-18	0.850128709156389	-0.218906502751229	0.850128709156389	-0.218906502751229	-6.64951824108838E-18	-1.67583899634795E-18
53.8	-2.28020739277558E-18	-1.57520317022972E-17	0.956380836345974	-0.293335885326195	0.956380836345974	-0.293335885326195	-2.11874876945797E-17	-3.28751176970401E-19
53.9	1.2413397674852E-17	-1.2125213461249E-17	0.812872346450812	-0.465369295433188	0.812872346450812	-0.465369295433188	-7.63347194964733E-18	6.98977345430514E-18
54	8.21075790374505E-19	-2.4815904144666E-17	0.712995806410508	-0.576864876648328	0.712995806410508	-0.576864876648328	-1.19291217187998E-17	-7.0223737136578E-18
54.1	-8.57667161506581E-18	1.0562363633864E-17	0.642523732279753	-0.648539989871468	0.642523732279753	-0.648539989871467	-8.43182350909505E-18	2.61039250722382E-17
54.2	-1.06350033960363E-17	-6.05191831349135E-18	0.548187810002372	-0.752404326874559	0.548187810002372	-0.752404326874559	-2.00937579780109E-17	-1.09032057781806E-17
54.3	6.0817658881482E-18	1.35608304080381E-17	0.37954480377332	-0.846121918272955	0.37954480377332	-0.846121918272956	-1.56670456057554E-17	5.95961652743893E-18
54.4	2.77231135485422E-17	-5.24435470071747E-18	0.329123809179874	-0.829988809318549	0.329123809179874	-0.829988809318549	7.81734745527191E-18	-3.25222412582325E-17
54.5	2.13147989690015E-17	-2.89573946864694E-18	0.126492087432817	-0.968425133097753	0.126492087432817	-0.968425133097754	2.9836401016287E-17	-9.19148467557764E-18
54.6	1.87234306440854E-18	-2.26611088216283E-17	-0.00498547609658326	-0.903124091978011	-0.00498547609658322	-0.903124091978011	-1.55321605605634E-17	3.00154279847549E-18
54.7	3.82113824556451E-18	-1.07776985871391E-17	-0.117914827838991	-0.948799539793961	-0.117914827838991	-0.94879953979396	9.57549316186082E-18	-1.71369308073995E-17
54.8	-8.31277203965044E-18	1.86262540424567E-18	-0.282630407618588	-0.912159085242938	-0.282630407618588	-0.912159085242938	-1.62152013796722E-17	1.52603423986065E-18
54.9	-6.06557127614661E-18	6.11754879554422E-18	-0.410571484752185	-0.833887832153191	-0.410571484752185	-0.833887832153192	0	0
55	8.83998406967941E-18	8.95749197552878E-18	-0.519080036459047	-0.792888256471598	-0.519080036459047	-0.792888256471598	-3.16743803374831E-18	-5.32357041996387E-19
55.1	-1.74447980689013E-18	2.04493278060233E-18	-0.648390958672751	-0.700680077779534	-0.648390958672751	-0.700680077779534	3.05926014159221E-19	-3.9405512477564E-18
55.2	-6.55908302863522E-18	2.01562969834051E-18	-0.719886901447697	-0.596154228133672	-0.719886901447697	-0.596154228133672	-1.69435198787681E-17	1.29333485575811E-19
55.3	3.71653114221831E-18	-7.20927751507708E-18	-0.820716896582423	-0.461522180647477	-0.820716896582423	-0.461522180647477	-1.63374089266132E-17	2.73306134082472E-18
55.4	-4.31356319575419E-18	-4.5745875790762E-18	-0.874009707306245	-0.377151159659283	-0.874009707306244	-0.377151159659283	1.71466328252483E-20	1.83481249970453E-17
55.5	-5.11627705935645E-18	-4.25905584734604E-18	-0.94050925423795	-0.214882997690806	-0.94050925423795	-0.214882997690805	-9.49861026892546E-18	4.83071036029066E-18
55.6	2.7776125240881E-18	6.78119301000784E-18	-0.935317790619802	-0.0900659856812236	-0.935317790619802	-0.0900659856812235	-7.92479470630921E-19	2.01300063678799E-17
55.7	1.84357574698689E-17	1.61552464300547E-17	-0.963004794255438	0.042922654513716	-0.963004794255437	0.0429226545137162	3.26277182529606E-17	1.65059697747061E-17
55.8	1.23689394863385E-17	-2.12260261073181E-17	-0.9378873148064	0.199488250984984	-0.9378873148064	0.199488250984983	7.91896665622935E-18	-1.74972040760405E-17
55.9	-5.51072430721219E-18	-1.30363797378219E-17	-0.903717075291634	0.322725795976323	-0.903717075291633	0.322725795976323	-1.30393186708368E-17	-5.84115811725108E-18
56	2.43791882136669E-18	3.32469463490938E-18	-0.82148820596413	0.455856211097751	-0.82148820596413	0.455856211097751	3.60428561538299E-17	1.1648920862318E-17
56.1	-2.94448248382274E-18	-7.73196014522551E-18	-0.779470446405472	0.563765352808234	-0.779470446405473	0.563765352808235	8.71348130913225E-19	-4.36608056199533E-17
56.2	-3.60504777715505E-18	-8.25737443922593E-18	-0.692066180212757	0.684350223267339	-0.692066180212757	0.684350223267338	1.5694907371242E-18	6.59116082765562E-18
56.3	1.19904489672095E-18	5.31087289820274E-18	-0.534660528769361	0.775795670891492	-0.534660528769362	0.775795670891493	-1.39799864654753E-17	1.52125055378873E-17
56.4	-7.07763162112569E-18	1.18968286882665E-17	-0.475807950755197	0.844050317919412	-0.475807950755197	0.844050317919412	-1.69419636411859E-17	2.54799048139724E-17
56.5	-4.77111055816508E-18	5.80252008905306E-18	-0.330915817160015	0.923483603536247	-0.330915817160015	0.923483603536247	-5.75963818946697E-18	1.74785314462867E-18
56.6	-9.52033013431411E-18	6.66767284159814E-19	-0.185007003604517	0.927604457026332	-0.185007003604517	0.927604457026331	9.32698724211821E-18	1.39582345753221E-17
56.7	5.20484711655174E-19	-1.77033494666478E-17	-0.0576758752019772	0.959695744410915	-0.0576758752019775	0.959695744410916	-2.03164451699847E-18	-9.93570097638142E-18
56.8	-3.5608869799026E-18	-1.46476304392384E-17	0.0625636707952295	0.977601180638108	0.0625636707952298	0.977601180638108	-4.75563824205502E-18	5.7675580810705E-17
56.9	-1.43567921200907E-18	6.79344337763514E-19	0.209734915588309	0.933595979767462	0.209734915588309	0.933595979767462	3.22122212431471E-17	2.16574592301465E-17
57	4.85780764871373E-18	1.53933159183082E-18	0.364557567195088	0.861922703043166	0.364557567195088	0.861922703043167	4.5525349415619E-18	1.71229880743111E-17
57.1	-7.6970141133216E-18	-5.57301848429431E-18	0.468666654916708	0.83077862949757	0.468666654916708	0.830778629497571	-2.07974592801137E-17	-1.44110967036623E-17
57.2	0	0	0.589711223528578	0.781649619221731	0.589711223528578	0.781649619221731	2.28524944304685E-18	4.11168289248564E-18
57.3	-3.35771739370328E-18	3.27546004826073E-17	0.730225779927241	0.617927673626389	0.730225779927241	0.617927673626389	5.48030150133112E-17	4.63670585417196E-19
57.4	8.86206572262721E-19	2.79239576669615E-18	0.741567643511022	0.542670172601266	0.741567643511021	0.542670172601265	-8.82029058621982E-18	1.26242183344009E-18
57.5	-1.88543134715087E-17	6.32607978565959E-18	0.868096057572447	0.447334994630616	0.868096057572448	0.447334994630616	1.10028725500798E-17	6.88743299010262E-18
57.6	-9.43503260227631E-19	1.33426778429364E-18	0.924981176253533	0.294001982502223	0.924981176253533	0.294001982502222	3.00017881028425E-17	-2.80216776833682E-18
57.7	3.91341887291906E-18	-2.87307717617622E-17	0.914230135325594	0.158286220293667	0.914230135325594	0.158286220293667	3.81702405100434E-18	-1.80876892492995E-18
57.8	-8.34252563386289E-18	-1.38320691487838E-17	0.963743983126662	0.0486060679210293	0.963743983126662	0.0486060679210291	2.74477175746043E-18	-1.10872973913233E-17
57.9	-6.94590020465864E-18	-1.06595629579378E-17	0.973743025441272	-0.0732696556611229	0.973743025441272	-0.0732696556611229	-4.63243688591236E-18	-8.50024120474093E-18
58	1.61874215523115E-18	-1.50959199561582E-17	0.913815956669652	-0.269204569918105	0.913815956669652	-0.269204569918104	-5.5266928625386E-18	-3.17973301935328E-17
58.1	1.15882839383238E-18	-5.17321175916346E-18	0.854561008140211	-0.342525054458668	0.854561008140211	-0.342525054458668	-2.58724817751645E-18	7.93530458306963E-18
58.2	3.69784035140379E-18	-1.63122994026493E-18	0.83318382327871	-0.48759178289457	0.833183823278709	-0.48759178289457	-2.18224799732985E-17	3.22437789117492E-17
58.3	-5.70174782574235E-18	-4.29107641649878E-18	0.736846409916291	-0.613920669194675	0.73684640991629	-0.613920669194674	-2.29657771005242E-17	-7.45952192447952E-18
58.4	-1.56845107545311E-17	8.75024722633055E-18	0.639691926631659	-0.645820420063665	0.639691926631659	-0.645820420063665	-2.72603964421884E-17	-2.60697298744658E-18
58.5	3.79184470652592E-18	1.26931280800311E-17	0.583671358847241	-0.783519917842741	0.583671358847241	-0.783519917842741	-6.82054462833128E-18	3.09281343259075E-19
58.6	5.58591480626753E-18	-3.07090571574312E-18	0.434003975591344	-0.850407970088395	0.434003975591345	-0.850407970088395	-1.66273876165152E-17	1.30732845386856E-18
58.7	9.85558575459537E-18	-1.47654260423965E-17	0.303826290758582	-0.870370175087698	0.303826290758582	-0.870370175087698	-3.81678750170635E-18	-5.85958853841502E-18
58.8	6.67416977785905E-18	1.31530951047691E-17	0.199118894187552	-0.919564492138894	0.199118894187552	-0.919564492138894	1.08658820041966E-17	-3.49654904509931E-18
58.9	1.70401347810051E-17	-4.1610339895538E-18	0.0879088749095669	-0.956227015326849	0.0879088749095667	-0.956227015326849	2.01284064458036E-17	-7.65550053407878E-18
59	-5.68472171397272E-18	1.11325148903513E-17	-0.0859173430368449	-0.933435088250108	-0.0859173430368456	-0.933435088250108	-1.21442496050429E-17	-2.78382126511114E-18
59.1	-4.18247584773874E-18	-1.21498849532736E-17	-0.180860221728284	-0.915004498377615	-0.180860221728284	-0.915004498377615	-5.80114686192809E-18	-2.0051065699783E-17
59.2	4.93861246469887E-19	2.68444073623258E-18	-0.307261204905548	-0.918592148470935	-0.307261204905548	-0.918592148470934	3.62976840336996E-19	-1.54693601683368E-18
59.3	5.5806164854002E-19	-2.7533844975848E-18	-0.458910217634151	-0.812964752696004	-0.458910217634151	-0.812964752696004	8.16818798038533E-18	-3.6786204947627E-19
59.4	-6.71063069812458E-18	-1.40869376511074E-17	-0.531165544361645	-0.774926914373889	-0.531165544361644	-0.774926914373889	-3.30785505436156E-18	-9.48761561212469E-18
59.5	1.6774120892057E-17	-4.11692824105942E-18	-0.662369656834786	-0.687771261912605	-0.662369656834786	-0.687771261912605	5.00189608305166E-18	-6.73636908350215E-18
59.6	-1.43442985653282E-17	1.07486426235588E-17	-0.737736686619347	-0.570225009462708	-0.737736686619347	-0.570225009462707	-5.09322922029733E-19	4.02885780797686E-18
59.7	-2.88983344190113E-18	-2.03183599179626E-18	-0.819393698413837	-0.489193775408015	-0.819393698413837	-0.489193775408015	3.69361525615417E-18	5.18802125119432E-18
59.8	9.09072910793541E-18	9.00833249448269E-18	-0.88804743469804	-0.365475277830641	-0.888047434698039	-0.365475277830641	-1.6942121310563E-18	5.73320357586758E-19
59.9	-7.94839390495099E-18	-5.04539846084252E-18	-0.917093051933645	-0.251027854505114	-0.917093051933645	-0.251027854505115	-2.62357995582657E-18	-1.85813503472178E-19
60	3.23261234097544E-17	-1.77041207177683E-17	-0.940545661202583	-0.0990529170460283	-0.940545661202583	-0.0990529170460279	-5.98943940632895E-18	-1.67229770997022E-18
60.1	-1.41183085876706E-18	3.09855181799883E-18	-0.936769219054879	0.0169159437448768	-0.936769219054879	0.0169159437448768	3.5735713060411E-19	9.89161484319413E-18
60.2	8.60710262773166E-18	2.25911777631032E-17	-0.953103194140294	0.126713554117578	-0.953103194140294	0.126713554117578	-1.83196404984091E-17	1.82499598763637E-17
60.3	1.36079325653449E-17	-7.92635554104769E-18	-0.904087541429944	0.293150266920302	-0.904087541429944	0.293150266920302	4.31249937583651E-18	4.61560531150192E-18
60.4	-2.6948161753415E-18	1.18094177329128E-17	-0.851323723322144	0.366949873669321	-0.851323723322144	0.36694987366932	1.15458877965838E-17	7.3162359580549E-18
60.5	4.88148346995553E-18	-4.70103612850064E-18	-0.808863117678882	0.510130059344222	-0.808863117678883	0.510130059344222	-1.47847724442994E-18	-1.30115068034788E-17
60.6	-7.48060140425078E-18	-6.87397237529563E-18	-0.726639499099823	0.608547019577579	-0.726639499099822	0.608547019577578	1.397407987348E-18	1.040608203946E-18
60.7	9.55355877060644E-18	1.33958065624228E-18	-0.634169624180793	0.704989287821873	-0.634169624180793	0.704989287821873	-5.7991229965891E-18	-2.91422583930481E-18
60.8	-1.7603614654454E-17	1.68048485618586E-17	-0.536413679799285	0.790727750804545	-0.536413679799285	0.790727750804545	-1.21406244635995E-17	4.83027438383416E-18
60.9	7.61770513288129E-18	-7.11902255436546E-18	-0.433443531240716	0.854516294831842	-0.433443531240716	0.854516294831842	1.35387878708629E-17	-1.38594619836979E-17
61	-1.58136665464128E-17	5.36095234237722E-20	-0.300391555641603	0.906292426865986	-0.300391555641604	0.906292426865987	-8.39585186473175E-18	-4.28081108648288E-18
61.1	-9.60618700028065E-18	-6.69866639423815E-19	-0.174013567860993	0.923459936167419	-0.174013567860994	0.92345993616742	-6.46556415650782E-18	7.62906884878308E-19
61.2	-9.96430982934822E-20	-1.08261643195924E-17	-0.0640411885273697	0.945645298721884	-0.0640411885273696	0.945645298721884	4.19138704180898E-18	-7.68658353929279E-18
61.3	2.84511447436684E-17	3.83295788740326E-17	0.0697314660256382	0.962803973920286	0.0697314660256383	0.962803973920286	2.38443625281109E-17	1.23019468214003E-17
61.4	-6.07329935910824E-18	-1.4458527032532E-17	0.228206374141186	0.921108861283362	0.228206374141187	0.921108861283363	4.2074607065115E-18	4.6239093986986E-18
61.5	-1.7668820638664E-17	1.65469558508959E-17	0.301583471122505	0.881700852372775	0.301583471122505	0.881700852372775	-5.7909618574488E-19	-8.12620029408081E-18
61.6	-9.07002856085672E-18	-4.34217505580327E-18	0.450427138214846	0.866084805417998	0.450427138214846	0.866084805417998	-5.74757515180625E-18	-9.07928281479461E-18
61.7	-2.10936535331279E-17	2.56737618320779E-18	0.568363616195689	0.777766664305197	0.568363616195689	0.777766664305196	-2.10824759357123E-17	1.31308810999928E-17
61.8	-3.66392120715813E-19	6.13636681334147E-18	0.645413032382718	0.685099008724963	0.645413032382718	0.685099008724963	8.1284486675716E-18	-7.21246836578207E-18
61.9	-5.0582242071402E-18	1.96803636265955E-17	0.739958156234874	0.589797809812361	0.739958156234874	0.589797809812361	-5.58289152135469E-18	-1.04741317017027E-17
62	-6.12583541200622E-18	-2.00275145548465E-17	0.811395486333237	0.509446235181654	0.811395486333238	0.509446235181654	-3.96356556013478E-19	2.843063104331E-18
