# GHZ S RI R 50
50	8.24107536838028E-19	9.01806346199778E-18	0.836856319250065	-0.599781480316272	0.836856319250066	-0.599781480316272	2.06790723830043E-18	-6.09497947564253E-18
50.1	-6.60267051816978E-18	3.77875484410513E-17	0.702360139443126	-0.718109107991597	0.702360139443127	-0.718109107991597	-4.72398924776354E-18	-1.56519840912508E-17
50.2	-2.53156932684463E-18	2.54496657187593E-17	0.586915349523131	-0.818009585577531	0.58691534952313	-0.81800958557753	-5.56028200146884E-18	2.39485516618719E-20
50.3	3.0221328576986E-17	-5.82784380763708E-18	0.455004965592834	-0.930157813736734	0.455004965592834	-0.930157813736734	-2.77487769114324E-18	1.15821095613358E-17
50.4	1.85598135104505E-19	-3.7999958586354E-18	0.250987504642798	-0.958027195823098	0.250987504642798	-0.958027195823099	1.01983656087339E-18	-5.28287457506866E-18
50.5	6.18550033957111E-18	-5.86035299267694E-18	0.12914041620076	-1.01224787512336	0.12914041620076	-1.01224787512336	8.67714613085145E-18	9.71538717025145E-18
50.6	-6.72698740264833E-18	3.45064122815738E-18	-0.0581399268763319	-1.00837059167852	-0.0581399268763318	-1.00837059167852	-4.86726393102324E-18	4.12625064830848E-18
50.7	2.48288886615835E-18	-2.01449270454418E-17	-0.20772146150928	-0.979884003702693	-0.20772146150928	-0.979884003702693	-3.53090711805394E-18	-7.95391925188852E-18
50.8	-2.84764311383077E-18	1.03774232546794E-17	-0.383807178100577	-0.957367321574477	-0.383807178100577	-0.957367321574476	-6.37414513704484E-19	-6.67213019605767E-19
50.9	9.11733141303599E-18	4.64333738987348E-18	-0.518124269342434	-0.845322257668131	-0.518124269342434	-0.84532225766813	3.15200604881931E-18	-1.37042210140058E-17
51	5.9066184660565E-18	-2.77911254891734E-17	-0.66588637243964	-0.770973245179027	-0.665886372439639	-0.770973245179027	8.06753291246598E-18	1.93830750968639E-17
51.1	1.33535400615933E-17	3.86200545766815E-18	-0.777604445839985	-0.647478590558862	-0.777604445839986	-0.647478590558862	1.39744391226765E-17	-2.57349903828891E-18
51.2	-1.60456202754077E-17	1.70029809163474E-17	-0.866373695063698	-0.507878536953007	-0.866373695063698	-0.507878536953007	7.99833587039667E-18	3.54250053601376E-18
51.3	7.82538311248151E-18	-3.05615925171894E-18	-0.942174384619315	-0.36263033951522	-0.942174384619315	-0.36263033951522	-2.47331115243108E-18	-1.17666959827313E-17
51.4	-5.22565923134588E-19	1.29500559739922E-17	-1.00401265590424	-0.224817824396094	-1.00401265590424	-0.224817824396094	9.50787850026537E-18	4.22318807343474E-19
51.5	1.49736124080659E-18	2.89626325835683E-17	-0.994169366946102	-0.0258850445093663	-0.994169366946102	-0.0258850445093664	-3.19506868593052E-18	1.18598126242861E-17
51.6	5.72979768351115E-18	-7.51633592519737E-18	-1.00736233713323	0.101394709590605	-1.00736233713323	0.101394709590605	-1.66465117215214E-18	-1.59928130471701E-17
51.7	5.81387499423874E-18	-2.02358539054645E-17	-0.993015768486566	0.264701295067656	-0.993015768486566	0.264701295067656	-3.18360695264699E-17	-2.29210043179349E-17
51.8	3.50125706570525E-19	-4.98677871381171E-18	-0.87713278831237	0.418293724415931	-0.877132788312369	0.418293724415931	-4.76846592001402E-17	-4.89510959609428E-18
51.9	-9.3487057545971E-18	4.58131643229465E-18	-0.874016646838644	0.554313641741791	-0.874016646838645	0.554313641741791	-1.89353013714792E-18	2.58121137995048E-17
52	-4.57087061559145E-18	-2.98394627296984E-17	-0.712023188656454	0.697790437932007	-0.712023188656454	0.697790437932008	-3.07363479028774E-17	-1.50631230718383E-17
52.1	-9.43550797140878E-18	8.07640569015585E-19	-0.600231748625281	0.785030838026604	-0.600231748625281	0.785030838026605	2.90605023573513E-18	-8.68886505711298E-18
52.2	5.22573228835761E-18	1.21930028549719E-17	-0.496617584232377	0.874096124791024	-0.496617584232376	0.874096124791023	4.55255331432721E-18	1.10634597660121E-17
52.3	-3.34360494661422E-18	-1.87898148434076E-17	-0.356332389214958	0.941608093424541	-0.356332389214958	0.94160809342454	-5.90812439121927E-17	-2.87292809987332E-17
52.4	-1.96874485980843E-18	-5.24914563275829E-18	-0.189478718197032	1.01864040964777	-0.189478718197032	1.01864040964777	-7.18390408090918E-17	6.21259326628185E-17
52.5	-1.44619286777133E-17	7.32836397371963E-18	-0.0505548614716869	0.959466510626888	-0.0505548614716864	0.959466510626887	-1.07127955811933E-17	6.32797272172082E-17
52.6	-9.4325412379811E-18	1.01357271311482E-17	0.0915973830014767	1.02752951562716	0.0915973830014766	1.02752951562716	-1.64531711960869E-17	-2.892968477353E-17
52.7	-6.70007336919089E-18	2.30754926955368E-17	0.314028934486165	0.991466469117873	0.314028934486165	0.991466469117872	2.55012670588483E-17	-6.15556038409944E-17
52.8	6.11969066095832E-18	9.58894148195147E-18	0.352599149252284	0.819072675821898	0.352599149252284	0.819072675821898	1.81758916660857E-17	-1.31875011827063E-17
52.9	5.18364546520183E-18	3.86352872722735E-17	0.63609203635999	0.914157463961772	0.63609203635999	0.914157463961771	5.6800204637855E-17	-2.94279681170178E-17
53	1.37650100871242E-17	7.27609301047004E-18	0.651672877429312	0.697589424299926	0.651672877429312	0.697589424299925	-2.83200551974015E-18	-4.94657713370578E-18
53.1	-2.2914085283479E-17	2.53782362431238E-17	0.771758185701566	0.656107103432585	0.771758185701566	0.656107103432585	9.03233631001204E-18	1.11515791821335E-17
53.2	2.55935398747877E-17	4.52395986762578E-17	0.919343819272951	0.513599912943483	0.919343819272951	0.513599912943483	7.27158632955626E-17	-1.76593205388005E-17
53.3	3.02794173222745E-17	1.71442111361668E-17	0.930874839070621	0.376842880508993	0.930874839070622	0.376842880508993	1.22501517798238E-17	-7.62057960554509E-18
53.4	-1.53643786387019E-17	8.6966666073266E-18	0.964621814071391	0.16404558808133	0.964621814071391	0.164045588081331	-3.51486988234172E-17	-2.02298994122369E-17
53.5	-4.02341053206494E-18	9.63523310626017E-18	1.03162897182608	0.111699487523564	1.03162897182608	0.111699487523564	3.02432497845215E-17	1.9055846360607E-17
53.6	-1.89074901399837E-17	7.83004489341777E-18	1.02140389149062	-0.109073394059406	1.02140389149062	-0.109073394059406	1.11931035577065E-17	4.13610688105075E-18
53.7	8.32428335762272E-18	-9.27176663281619E-18	0.921992398179149	-0.274426673470343	0.921992398179149	-0.274426673470343	3.18138466745264E-18	-6.87133407872217E-18
53.8	1.52118525140579E-17	-3.52306175392483E-18	1.02128736245192	-0.351104830733344	1.02128736245192	-0.351104830733343	-6.76152931440079E-18	-1.52522819069301E-17
53.9	1.69115188964828E-17	-1.66450012025836E-18	0.865969059687266	-0.537088824719559	0.865969059687267	-0.53708882471956	5.37772839098228E-18	-1.89476482427202E-17
54	-9.03951226938655E-19	-9.30270232730822E-18	0.753187977928608	-0.656556629075326	0.753187977928608	-0.656556629075326	-3.01732659445021E-17	-9.40067949098219E-18
54.1	1.06073401036018E-17	-1.54883688410366E-17	0.669316865214048	-0.731287055554714	0.669316865214048	-0.731287055554714	-2.14986465067172E-18	-4.94392871435405E-18
54.2	-9.74541346250488E-18	3.03238950574483E-18	0.562728820487824	-0.83827916955987	0.562728820487824	-0.83827916955987	-2.45316880021153E-18	2.20209512212397E-17
54.3	-1.50831109614693E-17	-4.78407326801958E-18	0.379636200070561	-0.935796062098262	0.379636200070561	-0.935796062098262	7.14454139052013E-18	1.8036612196111E-17
54.4	-1.36770847797225E-17	-3.54613723394214E-18	0.315744879342833	-0.912725481276708	0.315744879342833	-0.912725481276708	-1.49082898404641E-17	2.94434037610743E-17
54.5	-2.46829994115565E-17	2.49569397412489E-17	0.101485060032666	-1.05456588754816	0.101485060032665	-1.05456588754816	-2.06349291776967E-18	4.12519774652395E-17
54.6	-1.06147343602407E-17	-5.74066551540573E-18	-0.0452797248660674	-0.981144868517325	-0.045279724866067	-0.981144868517325	1.79139794155483E-18	-1.69719340563024E-17
54.7	1.06388687452035E-17	3.44926225730513E-19	-0.166739860566174	-1.02084891108705	-0.166739860566174	-1.02084891108705	6.00787871350517E-18	-3.97416796757663E-18
54.8	1.7104855757162E-17	-1.1335086999566E-17	-0.343110775413071	-0.976323296737238	-0.343110775413071	-0.976323296737238	-9.28398150470515E-18	3.008874755894E-19
54.9	-3.86468762836846E-18	1.03869900544044E-17	-0.480895250616319	-0.886829530178817	-0.480895250616319	-0.886829530178817	1.27376804069039E-18	4.51559818904391E-18
55	-2.10947468750808E-18	-5.07037485052665E-18	-0.595174192728217	-0.835086352869999	-0.595174192728216	-0.835086352869998	1.14754888680549E-17	5.89112434403552E-18
55.1	2.78060559617335E-18	-1.72979663201413E-19	-0.730848133171577	-0.731059763028757	-0.730848133171576	-0.731059763028756	-3.70821208327372E-18	2.77948189190396E-18
55.2	-1.76701830467351E-18	6.93542583323728E-18	-0.805025833725214	-0.612698395036092	-0.805025833725215	-0.612698395036092	1.11510206186717E-19	-1.29248470387678E-17
55.3	-1.1082471467069E-18	-6.1667521255014E-18	-0.908819981620021	-0.464775837300427	-0.908819981620021	-0.464775837300427	-7.49159825562196E-18	1.432652257891E-17
55.4	7.15768587386532E-19	-4.90743600396767E-18	-0.959952815177057	-0.36837953760896	-0.959952815177058	-0.36837953760896	1.58806927412868E-17	1.79943043350696E-17
55.5	-1.00825649708996E-17	1.02687593261759E-17	-1.02576028127963	-0.192681393273475	-1.02576028127963	-0.192681393273475	-4.06561000053318E-17	5.46021978482151E-18
55.6	-1.17283597550097E-17	-2.46991897122021E-17	-1.01467382292808	-0.0550139786587058	-1.01467382292808	-0.0550139786587059	-6.92935852494562E-18	-2.55543222244063E-18
55.7	1.24454961652814E-18	1.69219454119173E-18	-1.03692404457391	0.0886051935221806	-1.03692404457391	0.0886051935221809	1.12840827609883E-17	1.87027016784081E-18
55.8	8.41763889712886E-18	-2.05324010372107E-17	-1.00416369695827	0.256633887368229	-1.00416369695827	0.256633887368229	-1.27731476725415E-17	1.54806441531418E-17
55.9	-4.51016247537096E-18	-6.00089064790581E-18	-0.960470825725323	0.388571145223601	-0.960470825725323	0.388571145223601	3.97157279589614E-18	-1.25130517519605E-18
56	-6.30789479899727E-18	-1.12727166136121E-17	-0.866813024043351	0.53035390030308	-0.86681302404335	0.530353900303079	7.26730909471693E-18	-6.34387952443832E-18
56.1	4.43476851627932E-18	-8.54100934275348E-18	-0.814227409595018	0.642997027686721	-0.814227409595018	0.642997027686722	3.50375178029152E-17	-2.62027075358033E-17
56.2	2.75065416261321E-18	-1.16932130732756E-17	-0.715015982324655	0.768328147924154	-0.715015982324655	0.768328147924154	-4.10091824643932E-18	-3.03588069371582E-17
56.3	-2.25519447853673E-18	-1.09299050641004E-17	-0.542773034214642	0.863489300062164	-0.542773034214642	0.863489300062164	3.43600121646435E-18	-1.36682341003305E-17
56.4	5.31279716744508E-18	-1.53470524001195E-18	-0.473079142274876	0.93038614746326	-0.473079142274876	0.930386147463259	1.27246259907712E-17	9.43308663591257E-18
56.5	-1.00653151943407E-18	1.1690612758797E-17	-0.315101225708185	1.00963238252361	-0.315101225708185	1.00963238252361	7.48801691500709E-18	2.81896458361155E-18
56.6	1.29420203339884E-17	1.30919925495958E-17	-0.155397349160562	1.00928367777015	-0.155397349160562	1.00928367777015	3.23272382077475E-17	1.77837278712299E-17
56.7	-2.08608056966313E-17	1.05064155619733E-17	-0.0169937761263738	1.036482139172	-0.0169937761263739	1.036482139172	-1.14230648930002E-17	7.08575698185125E-18
56.8	-3.14956455756886E-18	3.64569403975007E-18	0.112970242962653	1.04792093026307	0.112970242962653	1.04792093026307	-1.92807093711998E-17	-2.73528311047943E-17
56.9	1.07459515549436E-18	3.64645606078081E-18	0.270809539748946	0.994813884003982	0.270809539748946	0.994813884003982	3.27434847345332E-18	-1.26212151590513E-17
57	1.27547878722881E-17	-1.66366694552013E-18	0.435652595791577	0.912663113592259	0.435652595791578	0.912663113592259	2.94145470759758E-17	-8.15546550367234E-18
57.1	5.99089539388341E-18	4.44276048141553E-18	0.545129111484444	0.871380733986051	0.545129111484445	0.871380733986052	3.25140484208872E-18	-2.49439598447946E-18
57.2	-1.84387317560048E-17	-1.62683971535998E-17	0.671089556142027	0.811821720435944	0.671089556142027	0.811821720435945	4.00556438553081E-17	5.7123566736444E-18
57.3	1.27048853629142E-17	1.20661136833238E-17	0.81798810407237	0.633676330562169	0.81798810407237	0.633676330562169	1.99840670346539E-17	-3.77661650710506E-17
57.4	-1.23514026378496E-17	-3.96717818219234E-18	0.827070711084305	0.545327210560861	0.827070711084305	0.545327210560861	-7.54599887566797E-18	-1.76040496169509E-17
57.5	-8.9963940773423E-18	-1.12292749431446E-17	0.955186002079963	0.439242527471829	0.955186002079962	0.439242527471829	-2.39191268687569E-17	-1.61145504865385E-17
57.6	2.74497640917803E-17	-2.36033266888125E-17	1.01050378817858	0.272281160433044	1.01050378817858	0.272281160433044	2.13784659318842E-17	-5.56981866603536E-17
57.7	-8.20471173574172E-19	-1.09751137672332E-17	0.9939292873942	0.123444748817501	0.9939292873942	0.123444748817501	7.84427387694547E-18	-1.68651815248676E-17
57.8	1.82615094812234E-17	-1.72694447867037E-18	1.03867096318287	0.0041129848503964	1.03867096318287	0.00411298485039634	2.0937793013237E-18	-2.80570058867382E-17
57.9	-4.01899583200841E-18	1.30556990700059E-17	1.04174218233568	-0.127351426383562	1.04174218233568	-0.127351426383562	1.43618846635679E-17	2.34132544280327E-18
58	3.481471320537E-18	-3.95221867173207E-19	0.972574263946711	-0.335682586581793	0.972574263946711	-0.335682586581793	-9.20312259416566E-18	-1.17438965447369E-17
58.1	-5.55850367487219E-19	6.48795199573156E-19	0.901621928121044	-0.414813523464549	0.901621928121043	-0.41481352346455	-2.73100016962676E-17	-9.8974474208093E-18
58.2	8.93831355518702E-18	-6.28317390196853E-18	0.871288491582645	-0.566567536356365	0.871288491582645	-0.566567536356366	1.49655863791789E-17	-3.0258030841316E-17
58.3	-3.1221811956045E-18	9.03633994143262E-18	0.762560382741873	-0.698457975679116	0.762560382741873	-0.698457975679115	-1.84788428053341E-17	-1.62465168987547E-18
58.4	1.23159045978169E-17	5.28662516110512E-18	0.651765713145125	-0.73041320771668	0.651765713145124	-0.73041320771668	8.97367135000183E-19	-6.79520882430901E-18
58.5	-9.96160432352652E-18	-4.2033234898152E-18	0.586036361062558	-0.870842396280404	0.586036361062558	-0.870842396280404	-1.36896481257665E-17	2.7228889005578E-17
58.6	-2.25772969960313E-17	1.87498371181299E-17	0.422243060711724	-0.93731488687351	0.422243060711725	-0.93731488687351	3.75068734683696E-18	2.36077364443647E-17
58.7	2.5361734986925E-17	4.03683356534378E-18	0.278963392679722	-0.953405222058519	0.278963392679722	-0.953405222058519	7.15146559680163E-18	1.5282563899489E-18
58.8	-6.69744041494619E-18	-1.35039539101179E-17	0.163712711704939	-0.998621265958302	0.16371271170494	-0.998621265958303	-8.41724763544336E-19	-2.83604728965487E-19
58.9	6.72995577637546E-18	-1.42420696947772E-17	0.0426003259607514	-1.03003590376099	0.0426003259607512	-1.03003590376099	1.67462751223828E-18	-2.02108311474079E-17
59	4.42620696864821E-18	-1.00482333986421E-17	-0.143364705933613	-0.999353934045465	-0.143364705933613	-0.999353934045465	1.58091958603287E-17	-5.78272907648594E-18
59.1	-1.05217306670347E-17	1.26129388818897E-17	-0.24557848756335	-0.971811812808545	-0.24557848756335	-0.971811812808545	-3.33553375354982E-18	-6.75099788386652E-19
59.2	-1.23423147987996E-17	-6.43666996824011E-18	-0.379140863199791	-0.967364559929958	-0.37914086319979	-0.967364559929959	-2.07799230738274E-18	-8.44488011596165E-18
59.3	1.04995634773073E-17	-7.89892660169218E-18	-0.53874588157535	-0.848893477986574	-0.538745881575349	-0.848893477986574	-6.43969840712925E-18	5.44869756267789E-18
59.4	3.2745469945437E-19	-6.30505633532311E-18	-0.613374347208619	-0.80034442721683	-0.613374347208619	-0.800344427216829	9.03993200151637E-18	-3.04619253065354E-18
59.5	1.03039274470237E-18	1.76196806541955E-18	-0.748771436782704	-0.701253205146962	-0.748771436782704	-0.701253205146962	1.80380250477747E-17	-3.92786702126561E-18
59.6	1.65216889845715E-17	-8.09751389066589E-18	-0.824787407808859	-0.570366951614177	-0.824787407808859	-0.570366951614177	-7.69687717611466E-19	-2.04017132841198E-18
59.7	1.01315345952692E-18	5.92156333069461E-18	-0.90588990123709	-0.478302616984585	-0.90588990123709	-0.478302616984585	4.02949520579348E-19	-9.0932564307186E-18
59.8	3.15867407257566E-18	4.90280003061372E-18	-0.972638952942008	-0.342262857652647	-0.972638952942008	-0.342262857652648	-6.05193910496615E-18	1.6442309144406E-18
59.9	-7.59276756511566E-18	7.94866358237719E-18	-0.996978668988132	-0.2165487235628	-0.996978668988132	-0.2165487235628	-1.23218247680742E-18	-5.61775777429896E-19
60	3.00844703602739E-18	5.71588061164213E-18	-1.01486551574573	-0.0525725871459688	-1.01486551574573	-0.0525725871459686	-9.89293519584596E-18	-1.27157129240076E-19
60.1	-8.61296533834509E-18	2.60970490622078E-17	-1.00340019055242	0.0728074632981232	-1.00340019055242	0.072807463298123	-8.98512559113166E-20	1.15462008826704E-17
60.2	5.95215045923954E-18	-6.27430421598331E-18	-1.01248202324852	0.190470604559359	-1.01248202324852	0.190470604559359	8.15007639966351E-19	4.62295142024076E-18
60.3	4.70005565484583E-18	-4.24074553948532E-18	-0.953088715602703	0.366421198182733	-0.953088715602703	0.366421198182733	1.08315189063935E-17	7.27973853994901E-18
60.4	-5.15454429823168E-19	1.75655601042638E-18	-0.889241915748794	0.444230444425474	-0.889241915748794	0.444230444425474	1.0967250202778E-17	3.95006059903957E-18
60.5	-1.18810026090952E-17	-1.5758859543724E-17	-0.83646979913242	0.593390056129536	-0.836469799132421	0.593390056129536	1.894490220488E-18	-1.26986658602558E-18
60.6	1.85117214394161E-17	5.26802697470578E-18	-0.742129139822529	0.694588486707498	-0.742129139822529	0.694588486707497	1.90689687416959E-18	-1.66992499348494E-18
60.7	4.44689062354125E-18	1.18841370681026E-17	-0.637407544284141	0.792564012311497	-0.63740754428414	0.792564012311496	-9.53334890189339E-18	-1.58102427434177E-18
60.8	-2.06974052184507E-18	6.77262445374677E-18	-0.527631972565996	0.878242382259859	-0.527631972565996	0.878242382259859	-1.64700592351389E-17	1.02544068722175E-18
60.9	-2.94207124783145E-18	3.55479015548449E-18	-0.41301358984033	0.939947337204304	-0.413013589840329	0.939947337204304	6.4464990365925E-18	-1.46078346269829E-17
61	1.39335876341336E-17	4.98727008439912E-18	-0.267679545079521	0.988170411785512	-0.267679545079521	0.988170411785512	3.99366496119521E-18	-1.87739768255319E-18
61.1	2.97230429752532E-17	-8.98212493281963E-18	-0.130205969652901	0.999372247325821	-0.130205969652901	0.999372247325822	3.61584817297269E-17	-3.17493436001193E-18
61.2	1.91947825652916E-18	-6.10638516892772E-18	-0.0108953170418242	1.01517514935789	-0.0108953170418244	1.01517514935789	-9.00498715971184E-18	2.93636943205515E-18
61.3	-5.73139120676781E-18	6.72136510643898E-20	0.132311891671249	1.0251790616613	0.132311891671249	1.0251790616613	1.64994086450257E-17	1.72278364244054E-17
61.4	-1.74298572060358E-17	2.00477049567517E-17	0.300155937733142	0.973164121083494	0.300155937733143	0.973164121083495	1.59427514324093E-19	1.5405667173132E-17
61.5	-1.09359780906453E-17	-6.20156096001476E-18	0.377776861790116	0.923456731239434	0.377776861790116	0.923456731239434	-6.31005669992983E-18	5.89779741905215E-18
61.6	3.17444755246124E-18	6.04544279850517E-18	0.533391442905405	0.898442081955156	0.533391442905405	0.898442081955156	-3.62735646114095E-18	7.18202721700235E-19
61.7	-1.32489773126328E-17	-9.21328520863129E-18	0.655241019829811	0.797493698023013	0.65524101982981	0.797493698023012	-9.9059655479416E-18	7.22498254725497E-18
61.8	2.03082197629183E-17	-1.563069938546E-17	0.733176660005238	0.692372234737328	0.733176660005238	0.692372234737328	-6.03106502857935E-19	4.89375162905051E-18
61.9	-1.8656988941391E-18	-5.25231584196273E-18	0.828357430899193	0.58482077009802	0.828357430899193	0.584820770098021	-9.00240018039688E-18	-2.40113969614974E-17
62	1.48523421616732E-17	2.97980166358731E-18	0.89843918954615	0.493547744925042	0.89843918954615	0.493547744925042	1.91189716299786E-17	-1.35153511263806E-18
62.1	-1.73709292697697E-17	2.33310104261927E-17	0.975230955847884	0.358434825055597	0.975230955847884	0.358434825055597	9.81999375197882E-18	1.66405622142344E-17
