# GHZ S RI R 50
50	1.21092379955821E-17	3.59911077915199E-17	0.739103135625942	-0.51373369520987	0.739103135625941	-0.513733695209871	-6.74724493821368E-18	-1.00919884186179E-18
50.1	-1.35815214872562E-17	-4.17834230303129E-18	0.623501957310333	-0.615000135959004	0.623501957310333	-0.615000135959004	2.60594772053947E-18	4.02764935670368E-18
50.2	2.46277886397058E-18	8.39350759621581E-18	0.527899500629982	-0.705047908318342	0.527899500629982	-0.705047908318343	7.57778111990949E-19	2.58261772191256E-18
50.3	4.423967976308E-18	1.16294146060484E-17	0.413834575219841	-0.809840055561989	0.413834575219841	-0.80984005556199	-1.75118068091711E-17	2.66906607925494E-19
50.4	4.69752944144902E-19	-1.9863763801163E-18	0.235900576357355	-0.829777722208656	0.235900576357355	-0.829777722208656	-4.41968088502441E-18	-8.80582673327952E-18
50.5	-1.76825039937588E-17	-1.85484261417441E-17	0.132681904712228	-0.887193726094563	0.132681904712227	-0.887193726094563	3.96960322155091E-20	-7.28702646695935E-18
50.6	5.4762872234321E-18	2.8918363393607E-19	-0.0316950889970498	-0.884990552631526	-0.03169508899705	-0.884990552631526	-3.58967157570085E-18	-1.20175291227277E-17
50.7	-1.65403527256775E-17	-1.30598318990148E-17	-0.160764606613607	-0.86506428952543	-0.160764606613606	-0.86506428952543	-4.82501955754426E-19	-1.25332204037409E-18
50.8	-2.62535027656669E-18	1.34980538744692E-18	-0.320005271849359	-0.850326195675686	-0.320005271849359	-0.850326195675687	1.83191213881216E-17	-8.27406177998228E-19
50.9	-2.21332383115033E-18	-1.19058137586606E-17	-0.434618586554682	-0.753845652264492	-0.434618586554682	-0.753845652264491	-9.33262109207355E-18	-2.05810472147061E-17
51	-1.33474447588691E-17	2.71183038266159E-18	-0.569982145902112	-0.693109052202497	-0.569982145902112	-0.693109052202497	-2.48071528163321E-19	8.4936188822156E-18
51.1	-1.29284243208029E-17	-3.16657022850607E-18	-0.670125666111137	-0.587809200606279	-0.670125666111137	-0.587809200606279	5.82580123196248E-18	2.01475836041794E-18
51.2	3.58624779831772E-18	-3.12382490055919E-17	-0.750658644063002	-0.468045402373048	-0.750658644063002	-0.468045402373049	1.84045037404161E-18	-2.41391708125521E-18
51.3	-3.54411235236414E-18	4.72643655568416E-18	-0.821914098466065	-0.342384289936169	-0.821914098466065	-0.342384289936169	3.39764745529147E-18	1.47232329053726E-18
51.4	1.80332778480044E-18	4.24589130066285E-18	-0.883663346762882	-0.223011695258926	-0.883663346762882	-0.223011695258926	7.62482888318014E-18	-8.16620706167344E-18
51.5	9.70627248194303E-19	2.75120959162505E-17	-0.873869244037891	-0.0481308850933154	-0.873869244037891	-0.0481308850933155	1.34221878421152E-17	-6.53790101604896E-18
51.6	1.0514986055448E-17	-4.21513329565467E-19	-0.894935495579684	0.0626284471052957	-0.894935495579683	0.0626284471052953	1.67845169331815E-17	-2.35092991303886E-17
51.7	1.13078541729125E-17	-4.02380047271821E-18	-0.888161888871995	0.209125213307741	-0.888161888871995	0.209125213307741	-1.20541048575564E-19	-3.54437673813708E-17
51.8	-1.04198856661435E-17	-2.80126051123881E-17	-0.78567656498113	0.341367633018591	-0.78567656498113	0.341367633018591	-2.69555940958015E-17	-1.12322945991086E-17
51.9	-1.40154756322841E-18	-9.71411129327558E-18	-0.793802737990149	0.46975622788669	-0.793802737990149	0.46975622788669	8.06681627485664E-18	-2.08265993737883E-17
52	-1.37588407082479E-17	1.09945671706818E-17	-0.648486409155687	0.596065276240187	-0.648486409155686	0.596065276240186	1.12877783628595E-18	4.26401576567364E-17
52.1	-9.67299708142328E-18	-1.12868781137023E-17	-0.555513764571018	0.675927086746827	-0.555513764571017	0.675927086746826	5.19433493276288E-18	5.74197348250638E-18
52.2	-1.06045225589481E-17	-1.64133300091753E-17	-0.469006660493976	0.76162473413553	-0.469006660493976	0.76162473413553	-1.23931099100568E-17	6.24682576602825E-18
52.3	3.6967233493212E-18	2.83484700357818E-19	-0.347311209551079	0.826804514322086	-0.347311209551079	0.826804514322086	9.88414944626284E-18	-1.87456988176798E-18
52.4	1.56038542985752E-18	7.22639529624567E-18	-0.197345819940134	0.901888469117901	-0.197345819940135	0.901888469117902	8.46140682979023E-18	-4.24732442782194E-18
52.5	1.23760787670241E-17	-1.0504692886574E-17	-0.0820492918555536	0.850875027388111	-0.0820492918555538	0.850875027388111	-4.12589601447923E-17	-4.67736177352824E-17
52.6	1.17377057052676E-17	-2.28661097425962E-17	0.0488625345670002	0.923222447645542	0.0488625345670001	0.923222447645542	-5.24783384137292E-17	-1.67951327715597E-17
52.7	1.01605294663683E-17	-1.7600658871229E-17	0.251961409643746	0.891599374839283	0.251961409643746	0.891599374839283	-3.29835538990874E-18	-2.24408896492448E-17
52.8	9.52013508766056E-18	6.22292436797899E-18	0.271879646861917	0.744359773240852	0.271879646861917	0.744359773240852	-2.10503920970982E-17	2.07188170635056E-18
52.9	-2.02988881436364E-18	-8.42287105095218E-18	0.549300872545664	0.83496215555351	0.549300872545665	0.83496215555351	-6.47697663584233E-18	5.00425872510562E-17
53	-4.11533725364126E-17	-4.04825196661277E-18	0.550984206503262	0.646104666046554	0.550984206503262	0.646104666046554	2.07514314693018E-17	2.86525864545185E-17
53.1	2.717623389225E-18	-2.01771393421402E-18	0.668378746615497	0.61690415154053	0.668378746615498	0.61690415154053	1.23543577923469E-17	-2.54668948592658E-17
53.2	-1.41398790291443E-17	-3.36068997563464E-17	0.807829524770561	0.488438473004654	0.807829524770561	0.488438473004654	-4.98182474095459E-18	1.04695307472482E-17
53.3	-2.41329627296923E-17	9.83331596178119E-18	0.820287664296633	0.373016228454468	0.820287664296632	0.373016228454468	-1.64906678844711E-17	3.68117585753968E-17
53.4	4.8843235838201E-18	-3.66791519488334E-17	0.851171028945896	0.181616488040234	0.851171028945896	0.181616488040234	-4.36493211424948E-17	-5.04620452183556E-17
53.5	6.05733116404274E-18	1.14164605724353E-17	0.926665306159385	0.138908826714418	0.926665306159385	0.138908826714418	2.82502340329007E-17	-2.71809330388208E-17
53.6	1.01351209209928E-17	9.02744217755763E-18	0.919133593122407	-0.061910601805707	0.919133593122406	-0.0619106018057068	-4.36736374862969E-20	-2.22777023328954E-17
53.7	2.85692035732849E-18	2.44054583709441E-17	0.831096909742168	-0.206655030512089	0.831096909742167	-0.206655030512089	2.22924606964436E-17	4.02310734459338E-18
53.8	-2.40045660737865E-17	-1.21140445867473E-17	0.938898841673819	-0.282371480291928	0.938898841673819	-0.282371480291928	-2.67863595569E-17	-1.02744171379855E-17
53.9	1.89977874189277E-17	-8.90399299035476E-18	0.797813785235443	-0.449562265303504	0.797813785235443	-0.449562265303504	5.25507643970292E-19	-6.48463399591974E-18
54	-9.63422933394396E-19	-1.45196938950685E-17	0.701028792241962	-0.558592293220992	0.701028792241962	-0.558592293220991	-1.3585982362465E-17	-3.11237177534509E-18
54.1	-7.40566090399937E-18	-3.12109209244811E-17	0.633933249061602	-0.629653725055445	0.633933249061602	-0.629653725055446	2.09229747483819E-17	-2.20170349882484E-17
54.2	-1.10439799069229E-17	1.31661310274355E-17	0.54219431009528	-0.732541323592114	0.54219431009528	-0.732541323592115	6.88997014929911E-18	-2.10458491667334E-18
54.3	-1.82662582942003E-17	-5.86965739399849E-18	0.376897320478214	-0.824299719104671	0.376897320478215	-0.824299719104671	1.58203393701243E-17	4.66115452194283E-17
54.4	2.92042368381352E-18	8.42638640428462E-18	0.330202192281088	-0.810761067567733	0.330202192281088	-0.810761067567733	2.62749594172687E-17	-4.07250339023452E-18
54.5	-1.05071086803754E-17	-9.50299865629549E-18	0.129370884180477	-0.946750067780968	0.129370884180477	-0.946750067780968	-2.37378008760063E-17	-3.32244487245705E-18
54.6	-5.40007250673578E-18	-2.73977012345463E-18	0.0025926022786706	-0.883475912621433	0.00259260227867034	-0.883475912621432	-3.25752640687963E-17	1.33491925605098E-17
54.7	7.05322645702473E-18	-3.45274653047737E-17	-0.108955520812524	-0.930345157110613	-0.108955520812524	-0.930345157110612	6.12742605720479E-18	-1.86635830393019E-17
54.8	1.53477102325965E-17	2.53831249240738E-18	-0.270491996294733	-0.894950310806733	-0.270491996294732	-0.894950310806732	-4.27948036422762E-19	7.56953862774977E-18
54.9	-5.95334846305296E-18	-4.39083279731944E-19	-0.395496432034017	-0.819228325593387	-0.395496432034017	-0.819228325593387	-1.07946269718306E-17	-9.49098108580802E-18
55	4.17919821717413E-18	8.87935443818965E-18	-0.502760168502204	-0.780591098952851	-0.502760168502204	-0.780591098952851	1.09528660352946E-17	-2.41598919962951E-18
55.1	2.6040245584606E-18	-3.47218084183035E-18	-0.630084147957803	-0.690770988884055	-0.630084147957803	-0.690770988884054	3.15916377335173E-18	-1.2319496963843E-18
55.2	1.04675166668226E-18	-4.61101925753556E-18	-0.700663638299303	-0.589701553271048	-0.700663638299303	-0.589701553271048	5.79082665080374E-18	7.85594574391849E-18
55.3	3.95545853784687E-18	9.64468299061115E-18	-0.800076967027335	-0.4579347161957	-0.800076967027335	-0.4579347161957	2.53103825207469E-19	1.35291319314275E-17
55.4	-5.64879785861436E-18	-1.12145613527398E-17	-0.854061652790214	-0.376302166564231	-0.854061652790214	-0.376302166564232	7.67666237732179E-18	-1.62343491101326E-17
55.5	-1.31685252223767E-17	-8.31260030100691E-18	-0.919862184035255	-0.217034988558879	-0.919862184035255	-0.21703498855888	8.31506258663233E-18	-2.77387622721116E-18
55.6	1.32753998790772E-18	-2.72716875409604E-18	-0.915964336579218	-0.0956236208217507	-0.915964336579218	-0.0956236208217505	-9.91495832469043E-19	1.18203189684553E-17
55.7	-2.43325889490353E-18	-1.37299481367855E-18	-0.944538592672097	0.0350943543267385	-0.944538592672096	0.0350943543267384	-5.95199977703506E-18	3.55102554141863E-18
55.8	1.5656715393318E-18	-9.00139192439756E-18	-0.920659684659448	0.188622199701734	-0.920659684659449	0.188622199701734	8.1549603291554E-18	-1.01533304444714E-17
55.9	7.25815352530323E-18	-1.5562574824265E-17	-0.888526661217021	0.309689897691382	-0.888526661217021	0.309689897691382	-8.34364317429586E-18	-1.29862325948777E-17
56	-8.46425284976808E-18	-7.22334484937692E-18	-0.808715181877281	0.4401698276743	-0.80871518187728	0.440169827674299	2.04841346934351E-17	6.2380909065026E-18
56.1	4.8850083118947E-18	5.93005940928559E-20	-0.768903381060268	0.547133907953748	-0.768903381060268	0.547133907953748	9.20442502027922E-18	6.46318193423954E-18
56.2	1.81115411589361E-18	6.37430506875734E-18	-0.68383646597231	0.666252436121672	-0.683836465972309	0.666252436121672	-2.86998161874658E-17	8.74295856607421E-18
56.3	1.56587459325149E-17	-1.73055973801001E-19	-0.529951988147174	0.755771827483973	-0.529951988147174	0.755771827483972	3.4460866217809E-17	1.26638839655688E-17
56.4	-2.58419302364597E-18	1.96773936304522E-17	-0.473355559991764	0.824754733857993	-0.473355559991764	0.824754733857993	-8.56885773631677E-18	1.95401673239967E-17
56.5	-1.02603899212999E-17	3.41390103837999E-18	-0.331238588576741	0.903498419336277	-0.331238588576741	0.903498419336276	-1.44501535449296E-17	3.19703997810491E-17
56.6	-5.72951900173415E-20	-7.35171576989302E-18	-0.189045145318199	0.908234839428189	-0.189045145318198	0.908234839428189	-3.8033506202033E-18	-2.11930953242187E-17
56.7	3.34091670712325E-18	-7.33284867751777E-18	-0.0641208936449096	0.941137247616652	-0.0641208936449098	0.941137247616653	-1.97543541358446E-17	1.9108265782132E-17
56.8	-4.06331713879345E-18	6.91934740925973E-18	0.0540828279015872	0.960314140744311	0.0540828279015872	0.96031414074431	1.87849250249368E-18	9.47806637936852E-18
56.9	2.12757911977331E-17	-1.24070081911331E-18	0.198269947640728	0.918006619456135	0.198269947640728	0.918006619456134	1.74215065383353E-17	-7.893560994661E-18
57	1.00972993565254E-17	-1.00440026768081E-17	0.350041428885576	0.848247336460728	0.350041428885576	0.848247336460728	4.65263915412925E-17	-1.74360914861225E-17
57.1	1.35367390690622E-17	1.31411870699566E-18	0.453113763055945	0.819289818983568	0.453113763055945	0.819289818983568	3.24288409658834E-17	-1.7348341512853E-17
57.2	-8.56496247525952E-18	-1.59962909653307E-17	0.573056779521649	0.772098373463993	0.573056779521648	0.772098373463992	9.5725691088861E-18	-2.05621806992576E-17
57.3	2.73377652845158E-18	1.80849147274381E-17	0.710621674890034	0.611274836145846	0.710621674890035	0.611274836145846	2.31493995783498E-17	1.03742800957184E-17
57.4	-1.78002843931465E-18	6.41753701402257E-18	0.722873657533891	0.539765921851624	0.722873657533891	0.539765921851624	1.70453246317487E-18	5.75330028791469E-18
57.5	-1.10881189686846E-17	-2.04303167882739E-18	0.848697910866821	0.445953317661822	0.848697910866821	0.445953317661823	3.04635346616418E-17	-3.55861280999645E-18
57.6	7.50067138340266E-18	-4.25770120486514E-18	0.905158655274209	0.29577417616334	0.905158655274208	0.29577417616334	-1.95990036229216E-17	1.87953328968146E-17
57.7	-1.71879935503736E-17	8.86829835430092E-18	0.895499587684255	0.163716149481594	0.895499587684255	0.163716149481594	-2.43843617921735E-17	-4.61317391638868E-18
57.8	-3.93747125135045E-18	3.45535945898157E-18	0.945913290366091	0.0557333784661525	0.945913290366091	0.0557333784661528	-1.64656301043902E-17	-6.65223776276868E-18
57.9	9.20934811207213E-18	1.45701899821292E-17	0.957252065577034	-0.0640801396463682	0.957252065577034	-0.0640801396463683	2.80054117785046E-17	-7.39127036675855E-18
58	-6.7343377186525E-18	-2.05591506803768E-18	0.898393726719947	-0.256229978226112	0.898393726719947	-0.256229978226112	-8.92690212343531E-18	-2.61953563931068E-20
58.1	-3.42193519530597E-19	8.01114685003055E-18	0.842330266896066	-0.328022361004135	0.842330266896066	-0.328022361004134	2.5608485363186E-17	1.11260625010126E-17
58.2	-2.70174061175082E-18	9.25382491298106E-18	0.822204957814704	-0.471721035016685	0.822204957814704	-0.471721035016685	-3.01194535535065E-18	-1.80108994729978E-17
58.3	-2.44179271697704E-17	4.48264649778878E-18	0.728325871385631	-0.596139800284619	0.728325871385632	-0.59613980028462	-2.82568513601429E-17	5.07369803116966E-17
58.4	-1.24487852685894E-19	1.10676458384355E-17	0.635030972811945	-0.627928372729718	0.635030972811945	-0.627928372729718	1.39279231875588E-17	-8.14512456296927E-18
58.5	3.06107353480893E-17	-1.52228595899965E-17	0.580121367146771	-0.765072612355721	0.580121367146771	-0.765072612355721	3.35410570611651E-18	-1.17354664427667E-17
58.6	3.60352873605662E-18	1.05005693525606E-17	0.433753106200003	-0.831217515165443	0.433753106200002	-0.831217515165442	-9.65143528722939E-18	-1.65082535812293E-17
58.7	-1.07780660729089E-17	-1.26222076753476E-17	0.306982439129282	-0.851737094901663	0.306982439129282	-0.851737094901663	3.54269284223047E-18	-2.60460244753711E-18
58.8	-1.49715908655889E-17	1.58562162784126E-17	0.204349033204396	-0.90172473415049	0.204349033204397	-0.901724734150491	-1.48677330198274E-19	-8.28864361215308E-18
58.9	-1.9905761242309E-17	-2.61691517018269E-17	0.0950512925832549	-0.939401513593571	0.095051292583255	-0.939401513593572	-5.85514493731995E-18	-1.38252746985025E-17
59	-7.25313849001953E-18	1.20104927941895E-18	-0.075456080306788	-0.917563923745251	-0.0754560803067881	-0.91756392374525	3.34228031308875E-18	1.1183483265897E-17
59.1	1.09592958062713E-17	-1.20786061459895E-17	-0.168816367955184	-0.901343982025311	-0.168816367955184	-0.901343982025312	1.12750407773015E-17	-3.20341734267048E-18
59.2	-3.52973907942504E-18	-8.44176835934788E-19	-0.294002343937007	-0.906233946058502	-0.294002343937008	-0.906233946058502	2.27309505820415E-17	1.25703678879216E-17
59.3	-8.92883937497441E-18	1.20990665462608E-17	-0.442786806424658	-0.803005222543829	-0.442786806424658	-0.803005222543829	-7.42840839805616E-18	1.04047386155221E-17
59.4	-5.03175038115555E-18	-2.86254209456642E-18	-0.514903429052353	-0.767457184781574	-0.514903429052353	-0.767457184781574	-6.56891544291107E-18	-1.22992192906024E-17
59.5	-1.29909275881764E-19	2.28935230518362E-18	-0.644711096440042	-0.682332370483953	-0.644711096440042	-0.682332370483953	1.60201528105344E-18	-1.24884932743594E-18
59.6	3.00389301065209E-18	3.18018800809759E-20	-0.719410503755976	-0.56785367190104	-0.719410503755976	-0.567853671901041	-8.73684920502078E-18	7.32971848961293E-18
59.7	5.93157364332456E-18	1.06973097187127E-17	-0.80121611416572	-0.488890606907054	-0.801216114165719	-0.488890606907054	-2.01903579479643E-18	2.75696225708284E-18
59.8	7.51378812954779E-18	9.9548764512158E-18	-0.869816355928841	-0.36769353495435	-0.869816355928841	-0.36769353495435	-6.54678759856984E-18	-1.188851207102E-18
59.9	-1.59666943736396E-17	2.72792991932114E-18	-0.899756898564305	-0.255818897884302	-0.899756898564305	-0.255818897884303	-1.29986901245438E-17	-1.34833602858791E-18
60	1.78521020776571E-17	-1.04585352036118E-17	-0.923763951107601	-0.106618283129695	-0.9237639511076	-0.106618283129694	1.1753465367435E-17	-1.07299183410538E-17
60.1	-5.15647603360145E-18	8.01599737963727E-20	-0.921595763331963	0.00716289856569981	-0.921595763331963	0.0071628985657001	3.43542744841597E-20	2.20991830011491E-18
60.2	2.48728159947146E-17	-1.90314473160481E-17	-0.939336817586122	0.115637337943426	-0.939336817586121	0.115637337943426	1.13058258291777E-17	-9.23307889361327E-18
60.3	-1.57302498729113E-17	-9.36537079984141E-18	-0.891824194530683	0.27937483379664	-0.891824194530683	0.27937483379664	8.46795593574161E-18	-7.72749683345168E-18
60.4	6.55978868933578E-18	6.46622276250238E-18	-0.841907934761175	0.352277419518578	-0.841907934761175	0.352277419518578	5.44254069298898E-18	1.09441883914812E-17
60.5	6.86453077516195E-19	3.44659488561198E-19	-0.800920453071563	0.494073107970223	-0.800920453071563	0.494073107970223	6.50124293916045E-18	1.52972246464865E-17
60.6	1.54970142091618E-18	-7.77167037813654E-18	-0.721216217796854	0.591601591375926	-0.721216217796854	0.591601591375926	2.36586183635906E-18	-4.14577327876066E-18
60.7	1.62554631578651E-17	3.91812287794573E-18	-0.631172230089759	0.687395660171402	-0.631172230089758	0.687395660171402	7.54533922074578E-18	8.45291853574631E-18
60.8	1.56893230177432E-17	-7.59202782700492E-19	-0.535754711070329	0.772887463718452	-0.535754711070329	0.772887463718451	2.78242880554717E-18	3.05323228146897E-18
60.9	5.27055686607127E-18	-4.58230648269639E-18	-0.435157883798122	0.836953041911947	-0.435157883798122	0.836953041911948	1.14387656442551E-17	-5.19793225927102E-18
61	5.02877963214341E-18	-1.64624459106091E-17	-0.304716333160374	0.888970973377426	-0.304716333160374	0.888970973377426	-1.62677585222371E-17	-1.65169162278398E-17
61.1	-1.54506098289455E-17	6.23954138902435E-18	-0.180924116340244	0.907161276540331	-0.180924116340244	0.907161276540331	2.47062609383357E-17	-1.3043316787326E-17
61.2	-3.45626974633923E-18	2.51639807715746E-18	-0.0727741727692747	0.93061712154897	-0.0727741727692743	0.93061712154897	-2.1639462012143E-18	-5.69602018015049E-18
61.3	-2.81313520037093E-18	3.11624927052843E-17	0.0591707696773749	0.948818889914024	0.0591707696773752	0.948818889914024	5.83113145089597E-18	1.660063996388E-17
61.4	-3.14353106264236E-17	-3.13168240014259E-19	0.215058072940313	0.908696666567896	0.215058072940312	0.908696666567895	-7.59595572906216E-18	1.26925212367038E-17
61.5	-5.48029096485666E-18	-1.23183109704051E-17	0.28762701478874	0.871933958954684	0.28762701478874	0.871933958954685	4.35054356614824E-19	5.87671863552543E-19
61.6	-1.79611333491488E-18	1.06077979580292E-17	0.435215354809815	0.857396950295338	0.435215354809815	0.857396950295338	-1.31509680456603E-18	-1.58630852959772E-17
61.7	1.33348478141575E-18	-1.35627003760608E-17	0.551774649084406	0.77150401716802	0.551774649084406	0.771504017168019	-2.08748545671541E-17	-1.37258264412348E-17
61.8	1.34984629960599E-18	1.792850297616E-18	0.628368681944532	0.681639704141396	0.628368681944532	0.681639704141396	4.53223785151339E-18	-9.72810436125298E-18
61.9	-9.56743821766745E-18	5.8191880613797E-18	0.722464828954373	0.588647261941719	0.722464828954373	0.588647261941719	-4.8151378421333E-18	-8.428575366541E-18
62	1.22148347379492E-17	-3.03108140920326E-18	0.794278095108795	0.510348636004566	0.794278095108795	0.510348636004567	2.69153000076812E-18	2.17016163319286E-18
