# GHZ S RI R 50
50	2.52074294337034E-19	3.41228043963709E-17	0.757167247912608	-0.536112101809797	0.757167247912608	-0.536112101809798	-5.65374043700932E-18	-5.15686612107726E-18
50.1	-4.24419962276784E-18	-2.620175128342E-17	0.638971066338377	-0.638858608351003	0.638971066338377	-0.638858608351004	9.20650581341605E-18	-4.2471910247569E-18
50.2	-1.46803946700847E-18	4.97263316182646E-18	0.540019686251166	-0.733030102231453	0.540019686251165	-0.733030102231453	-2.13121073947212E-19	-6.86691477672935E-19
50.3	-4.28797117977423E-17	-2.88304878446727E-17	0.419033019280528	-0.8412837140129	0.419033019280528	-0.841283714012901	3.92473412917042E-19	3.06353797860414E-18
50.4	-7.30283999072346E-18	2.0127998162307E-17	0.238683432873947	-0.858599299854972	0.238683432873947	-0.858599299854972	-5.89999383188638E-18	-3.55502829175583E-18
50.5	2.00333453111139E-17	6.64314376487154E-17	0.128353405191555	-0.920303994081031	0.128353405191555	-0.920303994081031	-5.9738313528124E-18	-6.3711120566894E-18
50.6	1.47847013791669E-17	1.61022790465807E-18	-0.0407471686921391	-0.915975424161349	-0.040747168692139	-0.915975424161349	5.46130804026089E-19	-1.02974943357562E-17
50.7	-1.17720272280696E-17	9.45106229172661E-18	-0.174673288740557	-0.896124626595951	-0.174673288740557	-0.89612462659595	-8.54871108545668E-18	9.70504739897213E-18
50.8	1.79123228492045E-17	1.31768253987758E-18	-0.341565099370783	-0.877688303650511	-0.341565099370782	-0.877688303650511	1.23794651576159E-17	-9.2670381989694E-18
50.9	-1.72022272951242E-17	1.76004591794273E-18	-0.457628227354611	-0.779231267424732	-0.457628227354612	-0.779231267424733	-7.56606198427576E-18	-9.75774970996831E-19
51	1.30126353509878E-17	2.17674041208287E-17	-0.599450128702329	-0.71331759532354	-0.599450128702329	-0.71331759532354	1.16089284958605E-17	3.55800272685423E-18
51.1	-3.36814936291715E-19	-2.20760009666036E-18	-0.702728444325689	-0.603644657136881	-0.70272844432569	-0.603644657136881	-1.47173339777358E-18	2.24543290861143E-19
51.2	1.00314241171179E-17	-1.26030119649142E-17	-0.785665758027208	-0.479063816814959	-0.785665758027207	-0.479063816814959	-2.61168889834998E-18	1.34534238872535E-18
51.3	-1.87040961762407E-17	-1.54762985958621E-17	-0.859156579158028	-0.347156882586893	-0.859156579158028	-0.347156882586893	-1.71698046522991E-18	-7.87088355640853E-18
51.4	1.34347854341995E-17	7.66711888350999E-18	-0.923769946318869	-0.220196248094358	-0.923769946318869	-0.220196248094357	3.97049319802053E-18	2.00689850389583E-18
51.5	-7.36433878662762E-18	-6.46262251675089E-18	-0.910372493891307	-0.0416693846440177	-0.910372493891307	-0.0416693846440179	5.46248376052379E-18	1.93090148668761E-17
51.6	-2.25252284708423E-18	-3.09881912086679E-18	-0.933779052338831	0.0771664275944466	-0.933779052338831	0.0771664275944466	2.05343651836632E-17	-1.80838196598435E-17
51.7	4.67316618294316E-18	1.62638484121688E-17	-0.924539293407399	0.231593149821872	-0.924539293407399	0.231593149821872	1.51110560268757E-18	-3.8331348846579E-17
51.8	5.69463851683124E-18	-4.23612230309595E-18	-0.818462709626993	0.364015617556338	-0.818462709626992	0.364015617556338	-1.65575943475684E-17	3.81126955214184E-18
51.9	2.63342255921121E-18	-1.61214221601726E-18	-0.823160004136745	0.50524223234841	-0.823160004136745	0.50524223234841	-8.21812283152357E-19	1.59167892087093E-17
52	1.60691079895543E-18	9.67222965363099E-18	-0.670791195204726	0.630335245295691	-0.670791195204726	0.630335245295691	9.4350124346428E-18	-3.32835872886655E-17
52.1	-3.80613722681668E-18	9.79855728543282E-18	-0.57401568078284	0.714722788312806	-0.57401568078284	0.714722788312806	1.49418610497977E-18	6.76106711431447E-18
52.2	-9.3948901322712E-18	-1.57852215622444E-17	-0.480979314250324	0.8064325386574	-0.480979314250323	0.8064325386574	-1.69780588579101E-17	-1.21240543977352E-17
52.3	-4.61223701789635E-18	1.47985822662674E-17	-0.352061154330542	0.874112600935689	-0.352061154330542	0.874112600935688	1.87920011254977E-17	1.37944884222944E-17
52.4	-8.74988196722626E-18	-1.48125418551982E-19	-0.191068959904769	0.948824205262587	-0.191068959904769	0.948824205262586	1.2948785509332E-17	1.95348263558196E-17
52.5	-1.1696941984604E-17	-7.00832186942573E-18	-0.0761061764895938	0.899005399322219	-0.0761061764895938	0.899005399322219	-5.01238853287478E-18	-2.52065273360527E-17
52.6	-2.5419530879863E-17	4.27845141603998E-17	0.0700021008831864	0.971808201316652	0.0700021008831862	0.971808201316653	3.15051639302682E-17	3.3708859791145E-17
52.7	-2.54199173089175E-17	-5.74906560952225E-18	0.280257059476806	0.930333352162529	0.280257059476806	0.930333352162528	5.46074384849119E-18	-3.61839016541452E-18
52.8	7.1887981372398E-20	-1.30984074390946E-17	0.294271362525064	0.789763790058912	0.294271362525064	0.789763790058912	-1.01860940116171E-17	-3.43678104097771E-17
52.9	-5.21508703434106E-21	-1.62590836389049E-17	0.59671744265187	0.860768651236224	0.59671744265187	0.860768651236224	-8.06278081915046E-17	-1.75595626855901E-18
53	-3.0277973340671E-18	-8.88732977211599E-18	0.590762501316513	0.676628363913875	0.590762501316513	0.676628363913875	-1.58033235732536E-17	1.23271887975165E-17
53.1	-5.26045155643294E-19	-4.39532084715374E-18	0.720486757746944	0.639398531597891	0.720486757746944	0.63939853159789	1.53031318005322E-18	1.27863879189927E-17
53.2	9.74630407372126E-18	8.24573714761337E-18	0.862216404660434	0.496660768020999	0.862216404660434	0.496660768020999	-5.12572496928022E-18	-1.99086387782735E-18
53.3	-4.17040638834924E-18	8.27493149532259E-18	0.877034684084863	0.378893908289028	0.877034684084864	0.378893908289028	1.6296735609702E-18	2.02114296305479E-17
53.4	1.38493903821994E-17	-1.80747688871642E-17	0.901821379826576	0.179620057947624	0.901821379826576	0.179620057947624	-4.9576983834434E-18	4.29540588786876E-18
53.5	2.06354177640466E-18	5.84925538219013E-18	0.988131613701607	0.123585210151657	0.988131613701607	0.123585210151657	2.42306695941213E-17	-8.04232535811223E-18
53.6	1.76031321539948E-17	-2.82540230106305E-17	0.9713896807208	-0.0855239773189883	0.971389680720799	-0.085523977318988	3.62601685221712E-18	-5.50921278745643E-17
53.7	2.03629083171249E-17	-3.44873103958031E-17	0.878223382515849	-0.23073957265128	0.878223382515849	-0.23073957265128	-1.00963875795599E-18	2.21228938144208E-18
53.8	5.49550062964794E-18	1.36000246183011E-17	0.989980635101593	-0.330609711370394	0.989980635101593	-0.330609711370395	3.92736724950542E-17	-2.95240481814606E-17
53.9	-2.77281683496332E-17	-2.45587793258337E-17	0.837051123066414	-0.495750891170453	0.837051123066414	-0.495750891170454	-6.5897847552061E-18	1.88547501192407E-17
54	7.67606846246796E-18	-4.57035115573237E-18	0.733686146339491	-0.608534298537339	0.733686146339491	-0.608534298537338	3.0980300575555E-18	5.82802448086679E-19
54.1	3.25387080293294E-17	2.76505088918224E-18	0.662645887993089	-0.687338769553783	0.662645887993088	-0.687338769553783	-1.40483366843672E-17	5.26104916079347E-18
54.2	-2.35876095706059E-17	2.67955811672452E-17	0.560424310118211	-0.796173175045679	0.56042431011821	-0.796173175045678	-1.08273150186179E-18	2.13505547323131E-17
54.3	-1.41633779691735E-17	-3.28200186727712E-18	0.382461953145285	-0.885159894447227	0.382461953145285	-0.885159894447227	-1.01561558664103E-17	-3.73102088375913E-18
54.4	-3.33567510113276E-18	-1.01849488938577E-17	0.334969863164787	-0.881596270903838	0.334969863164786	-0.881596270903837	2.04911214545831E-18	-2.3072071185616E-18
54.5	-1.32093665806822E-17	9.92354190771632E-18	0.110500185081615	-1.01035631537492	0.110500185081615	-1.01035631537492	-5.63632109568001E-18	5.87624105678526E-19
54.6	3.42049278404197E-17	1.8748569692493E-18	-0.01697140155366	-0.945322486381131	-0.0169714015536597	-0.945322486381131	-1.42813548196593E-17	-8.79729864211107E-18
54.7	-1.39718034029342E-18	-1.23310821218125E-17	-0.144698421480868	-0.992536585574142	-0.144698421480869	-0.992536585574142	-1.78828559643377E-17	-1.95679218557719E-18
54.8	-6.2398700302171E-18	3.3151965478925E-19	-0.314929776052846	-0.948612521465644	-0.314929776052846	-0.948612521465644	6.92387212779641E-18	3.48289885189902E-18
54.9	-1.10694883343942E-17	2.55098376598299E-18	-0.444855756470676	-0.866481026387599	-0.444855756470676	-0.866481026387599	8.12532300496137E-18	2.78958524290512E-18
55	-3.88191673929307E-18	-4.27569074294698E-18	-0.562865508660968	-0.822021493391434	-0.562865508660968	-0.822021493391435	5.07832569104919E-18	-3.57061908951968E-18
55.1	-6.28682854303024E-18	5.33215349484425E-18	-0.695851665661335	-0.720849081684563	-0.695851665661336	-0.720849081684564	-5.46659876555219E-18	6.77685459755889E-18
55.2	5.32620236201424E-18	-6.8402699812339E-18	-0.770646302448006	-0.613000887183385	-0.770646302448007	-0.613000887183386	-1.51355064446334E-18	-6.5559622606407E-18
55.3	-8.75752539994517E-18	1.90234566128648E-17	-0.871057148334842	-0.467826775433986	-0.871057148334842	-0.467826775433986	-2.11891897631862E-17	7.93358345778057E-18
55.4	-1.08034222341219E-17	2.35385065212181E-18	-0.931824043320962	-0.376655596041176	-0.931824043320961	-0.376655596041176	1.32527946361161E-17	1.40247216523802E-17
55.5	1.88719371261622E-18	4.68460865967281E-18	-0.994089348564776	-0.202773514173208	-0.994089348564777	-0.202773514173208	-3.89116058143959E-17	2.75861736776958E-17
55.6	8.02835853441893E-18	1.20390472732913E-18	-0.989833219141124	-0.0738033769514578	-0.989833219141123	-0.0738033769514575	9.88763083772304E-18	3.21090250492499E-18
55.7	-9.53730591243893E-18	-3.20137152946682E-18	-1.01605058226084	0.0711363190857416	-1.01605058226084	0.0711363190857417	2.61838933739977E-18	1.05357438674102E-17
55.8	-5.60876756624717E-18	-1.20982310284065E-17	-0.984603715870946	0.23439952876386	-0.984603715870947	0.23439952876386	-3.16530144372496E-18	3.58819670732742E-18
55.9	-3.01902581174135E-18	9.98065486272475E-18	-0.947220855145543	0.365562136069009	-0.947220855145542	0.365562136069009	-9.64212781863561E-18	1.59874485213129E-17
56	1.19449313606693E-17	6.73135866551166E-18	-0.858204506722663	0.501467312310546	-0.858204506722664	0.501467312310546	1.06415381868799E-17	2.06228615896642E-18
56.1	9.99231361559486E-18	-1.7882288823476E-17	-0.81049571616282	0.620125237021493	-0.81049571616282	0.620125237021494	1.96195794426274E-17	-1.71457091294708E-17
56.2	3.4180360499881E-18	-1.12460519095652E-17	-0.712835399080818	0.745897132701778	-0.712835399080818	0.745897132701778	1.95409291495228E-17	-3.78563496765295E-17
56.3	-9.08946484087619E-18	1.80132718456759E-17	-0.546904931849885	0.832884084238501	-0.546904931849885	0.832884084238502	-3.41339197641218E-17	3.52344197685238E-18
56.4	1.12966841942009E-17	3.41047511943751E-18	-0.479584625943686	0.91233435629156	-0.479584625943686	0.91233435629156	1.76546942869381E-17	1.27129928157411E-18
56.5	-2.41695118661547E-18	1.72710633307669E-18	-0.321731920605743	0.989713260618498	-0.321731920605743	0.989713260618497	9.66531054723212E-18	-1.96855203181526E-17
56.6	1.18418514585276E-17	-1.8392966867824E-18	-0.171383492095152	0.991472267378364	-0.171383492095152	0.991472267378364	-1.80573474954844E-20	-2.61080205608057E-17
56.7	4.19912241782471E-18	-8.83993408874169E-18	-0.0322134455315216	1.02302336386924	-0.0322134455315217	1.02302336386924	-2.48408246352807E-18	-1.8365884159202E-17
56.8	5.39686261921746E-18	-2.01829221592457E-18	0.100545886229661	1.04019147027405	0.10054588622966	1.04019147027405	1.82431749104477E-17	1.18818592091953E-17
56.9	-5.85822337594432E-18	-5.05016162734112E-18	0.253032768478858	0.98978067407528	0.253032768478858	0.98978067407528	-1.70516223506891E-17	-9.90613663796154E-19
57	-2.07098318044007E-17	1.05028003865892E-17	0.411071550457819	0.90845954197288	0.41107155045782	0.908459541972881	-2.02976708136215E-17	7.4208133995348E-18
57.1	-1.2766089672066E-17	-2.60872485709536E-17	0.526972076037398	0.87299408467836	0.526972076037398	0.87299408467836	-2.25990610453103E-17	3.32914129411889E-19
57.2	1.14296540355618E-17	1.02254833594798E-17	0.658487600606303	0.814215297220088	0.658487600606302	0.814215297220088	1.51499467028496E-17	1.10211685094525E-17
57.3	1.58165864827354E-17	-7.18734743839346E-18	0.792378064607945	0.635390770716407	0.792378064607945	0.635390770716407	-3.82933807229827E-19	1.47517388551801E-17
57.4	-2.97351944431594E-18	-6.88915555692416E-19	0.812445386480568	0.562084392225612	0.812445386480568	0.562084392225613	-3.60393935484696E-17	4.84081174538526E-17
57.5	8.39233219798109E-18	-3.20017888281291E-18	0.94419861714588	0.447249573728054	0.944198617145881	0.447249573728055	-4.30118973354351E-18	-1.42207023296636E-17
57.6	3.69878988245689E-19	-4.1505914936143E-18	0.997167103271925	0.282710342661094	0.997167103271925	0.282710342661094	5.47371815197902E-18	2.30789762443595E-17
57.7	-3.35411459207087E-18	9.76094825579827E-18	0.984972791399176	0.143499786074409	0.984972791399177	0.143499786074409	1.06191191633846E-17	4.71414229646944E-19
57.8	4.33692434602618E-19	9.46064880526688E-19	1.03581028701287	0.0175151527596457	1.03581028701287	0.0175151527596456	6.70113417500827E-18	-5.36166923787432E-18
57.9	3.19705955766079E-17	-2.2344719637511E-17	1.04382654109441	-0.116991178151295	1.04382654109441	-0.116991178151295	2.77552609222517E-19	-7.42255721146451E-18
58	-9.86654928760959E-18	-2.51208012490255E-17	0.968337649990805	-0.316263274035	0.968337649990805	-0.316263274035	7.7967603987437E-18	-4.58603412646521E-18
58.1	1.39354330233909E-17	1.27789582965982E-19	0.911201843606188	-0.395862998743063	0.911201843606188	-0.395862998743063	1.53018391624021E-17	2.32353873335981E-19
58.2	1.15214382761815E-17	-9.01870117914496E-18	0.877406197194253	-0.554866363536814	0.877406197194254	-0.554866363536815	6.92893384651179E-18	1.15645951301254E-17
58.3	6.87428049483137E-19	-2.954855166698E-17	0.769326253705875	-0.684379198978254	0.769326253705876	-0.684379198978253	-1.77256194351609E-17	9.0322517752369E-18
58.4	1.89158708462998E-17	2.91424543565938E-17	0.673033747268921	-0.720886137500829	0.673033747268921	-0.720886137500829	1.75273482519378E-17	8.94275001088572E-18
58.5	6.25192308696761E-18	1.62151785268455E-17	0.596943106244271	-0.869933454344482	0.596943106244271	-0.869933454344483	2.57010225042415E-17	-1.92221191958096E-17
58.6	-2.07455344182935E-17	-1.86009465963962E-18	0.436380453653681	-0.933192143135274	0.436380453653681	-0.933192143135273	-1.31806900212473E-17	1.58094434688162E-17
58.7	1.40843757090557E-17	-2.39340351133407E-17	0.299852436852337	-0.952675843232641	0.299852436852337	-0.95267584323264	2.12311231272849E-18	-3.79389320748157E-18
58.8	1.94758108811891E-19	-5.71270455043414E-18	0.180655083229902	-1.00466621688681	0.180655083229902	-1.00466621688681	-2.07249588156001E-18	1.46566557374446E-17
58.9	-8.13683041968023E-18	-3.12210151357727E-17	0.0541328148905044	-1.04186687663099	0.0541328148905042	-1.04186687663099	2.35076069360588E-19	-1.13654511992895E-17
59	-2.60075175664342E-18	6.67498654575139E-19	-0.127268061293185	-1.00781183869712	-0.127268061293185	-1.00781183869712	-2.08616389410286E-17	5.1232599235475E-18
59.1	-8.02250011125604E-19	1.34284276485281E-17	-0.233537370129824	-0.989370929741808	-0.233537370129824	-0.989370929741808	3.60747345210845E-18	4.20906846284951E-18
59.2	-2.91140621771375E-18	-1.55324792531088E-17	-0.376944633959194	-0.98505481372324	-0.376944633959195	-0.98505481372324	-9.48155309974206E-19	-1.55108780437753E-17
59.3	2.65693290479679E-17	-1.12401866880553E-17	-0.528599857753064	-0.865380118325413	-0.528599857753064	-0.865380118325413	3.31948161734458E-17	-1.78025199338113E-17
59.4	8.14407370788847E-18	8.14983028816898E-18	-0.614375269181961	-0.823438131184978	-0.614375269181961	-0.823438131184977	7.7330736709968E-18	6.1176185931989E-18
59.5	-1.56478613421345E-17	-1.43577992785186E-17	-0.751181051795667	-0.719578757569288	-0.751181051795666	-0.719578757569288	-5.98889132176444E-18	-8.19720541263072E-18
59.6	2.78452537749211E-17	-1.8534085081166E-17	-0.827858640570239	-0.591974052205218	-0.827858640570238	-0.591974052205218	2.6316262380505E-18	-8.96913106423183E-18
59.7	-2.74557605349978E-18	-7.21930901066525E-18	-0.917116808728909	-0.496282510274338	-0.917116808728909	-0.496282510274338	-3.91203668506636E-18	-1.54704435332533E-17
59.8	1.39245575117106E-17	-1.07317065678795E-17	-0.985677090231178	-0.357292961943172	-0.985677090231178	-0.357292961943172	-1.21612913407726E-18	-5.982505405209E-18
59.9	-2.30453046210017E-17	1.56481804558343E-19	-1.01569458004401	-0.231252109699755	-1.01569458004401	-0.231252109699755	-6.72031854271769E-18	9.48940226233712E-19
60	-1.35970508338033E-17	3.86764979076509E-18	-1.03231184939982	-0.0660357482114769	-1.03231184939982	-0.0660357482114769	-1.18255206603917E-19	9.20537113869987E-19
60.1	1.08578562412002E-17	1.34760170582036E-17	-1.02649758515204	0.0614670533211846	-1.02649758515204	0.0614670533211845	4.22930144602297E-18	1.98156048286443E-17
60.2	4.54067775827183E-18	1.07074429323923E-17	-1.0396023415205	0.188874111020204	-1.0396023415205	0.188874111020204	2.49364643546425E-17	3.04349657714805E-18
60.3	-1.36428583905076E-17	4.33501858862162E-18	-0.975567246111308	0.363064579340365	-0.975567246111308	0.363064579340364	-7.17967213923156E-18	-1.11851444149257E-17
60.4	2.43270535055414E-17	1.68846904149178E-17	-0.921446514770348	0.446587747117666	-0.921446514770348	0.446587747117666	9.01738102807466E-18	1.05934239629705E-17
60.5	8.10517539273106E-18	2.97489961012514E-18	-0.862297076122761	0.602050246412573	-0.862297076122761	0.602050246412573	8.16254531464129E-18	1.11711331625945E-17
60.6	-2.43654183253237E-18	6.4418437917738E-18	-0.768590016886292	0.707088271951185	-0.768590016886292	0.707088271951185	-3.2987043276387E-18	-5.97140306078498E-18
60.7	-2.45382876124816E-17	-6.64432352852651E-18	-0.661866442586975	0.808846748822206	-0.661866442586974	0.808846748822205	2.69229793304592E-18	-1.02682285071718E-18
60.8	-1.81027839240424E-18	-7.7249241468411E-18	-0.548547437174231	0.899107606762456	-0.54854743717423	0.899107606762456	8.8749361694016E-18	4.6312890693651E-18
60.9	-3.78001986078196E-18	-5.65810470926319E-18	-0.430746568199416	0.966295016923534	-0.430746568199416	0.966295016923534	8.16173603205193E-18	-1.12513626249786E-17
61	6.94822747864781E-18	-5.93469125664606E-18	-0.282178072785854	1.01531923289896	-0.282178072785853	1.01531923289896	-1.10540742100302E-17	-7.78307259195831E-18
61.1	2.05294165315837E-17	-1.39143944276525E-17	-0.143451072541478	1.02998221575698	-0.143451072541478	1.02998221575698	8.67392713496513E-18	-1.5088073412347E-17
61.2	-5.46253234099661E-18	-8.80696286699951E-18	-0.0172490102405518	1.05086723960615	-0.0172490102405519	1.05086723960615	2.66837751865168E-18	6.31865852493523E-18
61.3	7.48475362151216E-18	5.23716594410555E-18	0.13412220344823	1.06036250286812	0.13412220344823	1.06036250286812	-4.91471114918277E-18	1.77503894141356E-18
61.4	1.16642125555651E-17	1.46007093701774E-17	0.301442384844809	1.00471556832057	0.30144238484481	1.00471556832057	7.14037573746951E-18	1.29329997026621E-18
61.5	6.5881363237658E-18	1.47061338142687E-18	0.386866930901632	0.964146295174918	0.386866930901632	0.964146295174918	1.05144888802773E-17	1.09925704948826E-17
61.6	-7.78956442707693E-18	-1.11805501361338E-17	0.552712650559179	0.930314915386441	0.552712650559179	0.930314915386441	-8.91537333601875E-18	1.50591611767491E-18
61.7	1.54441132326759E-18	2.33391855985267E-18	0.675729036821527	0.827145512578751	0.675729036821527	0.827145512578751	9.64904102808136E-18	-1.2677308162287E-17
61.8	2.12357151153695E-18	4.67248513920141E-18	0.758094432022474	0.723949149262433	0.758094432022474	0.723949149262434	4.29103568787672E-18	1.02970243721642E-17
61.9	8.90250405762665E-18	8.1276721682008E-18	0.85737908060418	0.611623929260787	0.857379080604181	0.611623929260787	2.18094159614162E-17	5.71976407558071E-18
62	-1.68307696364903E-17	3.0467993214208E-18	0.936271824203838	0.515035548519895	0.936271824203839	0.515035548519895	-3.11887991720563E-17	-1.77538653303231E-17
62.1	9.02459979323567E-18	4.99844196613036E-18	1.01388494257693	0.371938646837834	1.01388494257693	0.371938646837833	1.6629319252422E-17	-3.97171140166883E-18
