# GHZ S RI R 50
50	-6.60578056665195E-18	-5.44974990173843E-18	0.739186291618764	-0.514288315766063	0.739186291618764	-0.514288315766063	1.51943716458456E-18	-9.36876136537028E-19
50.1	4.26105333988151E-17	5.52682892693693E-19	0.623547891355244	-0.615512569274758	0.623547891355243	-0.615512569274757	-1.00904718077273E-17	7.85993995930274E-18
50.2	-6.91967145973462E-18	-9.1977600536349E-18	0.527888093004663	-0.705628208505563	0.527888093004662	-0.705628208505562	5.35954006837834E-18	-8.75148200873253E-19
50.3	1.97478991952549E-17	-1.49719260982649E-17	0.413646711307668	-0.810468789044481	0.413646711307668	-0.810468789044481	1.14026709701601E-17	1.05048787242369E-18
50.4	5.36782384632414E-18	3.06534270314336E-17	0.23572912437073	-0.830255424903417	0.235729124370731	-0.830255424903417	-1.38717179664707E-17	-7.04889857090043E-18
50.5	-1.09228272697915E-17	-1.20974240349416E-17	0.132341264004301	-0.887784278391594	0.132341264004301	-0.887784278391594	6.1626898609676E-18	-1.04320975656223E-18
50.6	-1.7560151282038E-17	2.64022337881405E-18	-0.0320964813320462	-0.88547996521805	-0.0320964813320463	-0.88547996521805	-6.98903797359781E-18	-2.22370951104642E-18
50.7	2.11288517112725E-17	-1.24790288776325E-17	-0.161236757047592	-0.865552431437199	-0.161236757047592	-0.865552431437199	5.98647927648753E-18	5.72279207859871E-19
50.8	-4.73176376928304E-19	-5.38504263759669E-19	-0.320644439962301	-0.850685607548251	-0.3206444399623	-0.850685607548251	2.62719343196698E-18	-1.35420124395355E-18
50.9	-1.74510089087038E-18	-1.01229877479025E-17	-0.435206683795166	-0.754172317397059	-0.435206683795167	-0.754172317397059	1.84859630047575E-18	-1.1084269634705E-17
51	-3.69587395624778E-18	1.88750633295734E-17	-0.570703911919106	-0.693289492916151	-0.570703911919107	-0.693289492916151	9.34033231641937E-18	3.25426771078603E-18
51.1	1.45895461744203E-18	5.02991074544598E-19	-0.670872330984246	-0.587895691877794	-0.670872330984246	-0.587895691877794	-8.21016074262878E-18	1.08713392404681E-18
51.2	-5.83296595459746E-18	8.16711438241612E-18	-0.751415895198485	-0.468035884951701	-0.751415895198485	-0.468035884951702	-1.84087147600121E-18	2.41909916206546E-18
51.3	-5.95569025834484E-18	-3.06151490617704E-18	-0.822687482159215	-0.342237068691413	-0.822687482159215	-0.342237068691413	4.37500381771268E-18	2.4480254356419E-18
51.4	4.4164760104093E-18	8.92818489967719E-18	-0.884488832090239	-0.222684228095509	-0.88448883209024	-0.222684228095509	1.81059572279827E-17	-9.16077388099799E-19
51.5	-3.68309596546637E-18	6.12236524979182E-18	-0.874539191926719	-0.0477855474241884	-0.874539191926719	-0.0477855474241884	7.79173838293644E-18	2.19272403712472E-18
51.6	-1.65568766986468E-17	-7.18777001922709E-18	-0.895672268345058	0.0631646521811785	-0.895672268345058	0.0631646521811787	-2.38632961446423E-17	4.7951474173556E-18
51.7	-1.71460891096761E-17	-3.22894662576668E-19	-0.888810028964072	0.209836448081435	-0.888810028964072	0.209836448081435	7.27735283778276E-18	-4.56961756541803E-17
51.8	-1.12371695836328E-17	-5.24400353607742E-18	-0.786231161942782	0.341977295935679	-0.786231161942782	0.341977295935679	7.33597283448994E-18	3.35109195163987E-18
51.9	-3.58377607141009E-18	9.62781673979387E-18	-0.794255562288338	0.470725431064458	-0.794255562288338	0.470725431064459	-2.15174719557795E-17	2.69945030943766E-17
52	2.88245805549062E-18	5.99003602448426E-18	-0.648755055313589	0.596892413692191	-0.648755055313589	0.596892413692191	1.90865168283386E-17	3.06782912257431E-17
52.1	-2.00671041135311E-17	-1.56846577007676E-17	-0.555714350837144	0.676836813600545	-0.555714350837144	0.676836813600545	-1.03849779091207E-17	9.18180455771042E-18
52.2	2.61082085047329E-17	-3.06889745340609E-18	-0.469048878567369	0.762676721546698	-0.469048878567369	0.762676721546698	1.73688515926226E-17	-4.57892293593246E-17
52.3	-1.42775786011987E-17	-6.551412763331E-18	-0.347187044545684	0.827887056857027	-0.347187044545684	0.827887056857026	-1.46286650871042E-17	-2.28668397387143E-17
52.4	-1.33872233115719E-17	-1.34641656921411E-17	-0.196932878937626	0.902907783703175	-0.196932878937626	0.902907783703174	-6.1691009682569E-18	1.34694322894063E-17
52.5	7.08288092774031E-18	-3.15790614953867E-18	-0.0817484520140679	0.851928413858369	-0.0817484520140678	0.851928413858369	1.58964512826184E-17	-8.56906330108476E-18
52.6	-4.22760462911946E-18	-1.15031086834123E-17	0.0495958727945969	0.924265088138489	0.0495958727945971	0.924265088138489	-1.04693582741498E-17	1.38323180367076E-17
52.7	1.28056746224207E-17	8.72676642061283E-19	0.25282565724174	0.892303738078493	0.25282565724174	0.892303738078492	6.22386214143407E-18	-5.81644263703916E-17
52.8	1.89958099446506E-17	-4.59349040394238E-18	0.272459201023434	0.74535346476605	0.272459201023434	0.745353464766051	-2.76336830659423E-17	-1.24189937025887E-17
52.9	1.90249242120091E-17	4.59420660795245E-17	0.550627327082823	0.835269028342117	0.550627327082824	0.835269028342117	4.28626239377929E-17	-1.18443875393909E-17
53	1.73372874618649E-17	2.75631040400278E-18	0.551972961051135	0.64665860198601	0.551972961051135	0.64665860198601	6.76233940601679E-18	-1.05900776385623E-17
53.1	1.51007762574582E-17	-2.72208845060807E-17	0.669714431877573	0.617229440201547	0.669714431877573	0.617229440201547	-2.03125354479974E-17	-1.22790062447825E-18
53.2	1.30281461228899E-18	1.24485509703307E-17	0.809163424729347	0.488349728932547	0.809163424729347	0.488349728932547	7.28911356353028E-18	5.3903710481065E-19
53.3	-4.05917794868171E-17	7.89620140839088E-19	0.821659775918149	0.372935822739476	0.82165977591815	0.372935822739476	-1.96693102812462E-17	2.47100455113083E-17
53.4	-5.34848651498539E-18	-9.42251247483687E-19	0.852292638229973	0.181375013294303	0.852292638229973	0.181375013294303	1.87713060395415E-18	-4.21064304962368E-18
53.5	-1.08402136024414E-17	1.98508770290235E-17	0.928128115330515	0.138285798138427	0.928128115330515	0.138285798138427	3.17001295501541E-17	1.12575991470533E-17
53.6	1.5946201853953E-17	-1.4100885335887E-17	0.920271000110672	-0.0627020764667695	0.920271000110671	-0.0627020764667692	-8.67379098561385E-18	1.93234042144899E-18
53.7	7.53423956336621E-18	4.66370071824976E-18	0.832081463598363	-0.207353389052518	0.832081463598363	-0.207353389052518	7.10917406568191E-18	-1.82234054794572E-17
53.8	-2.36063100157012E-17	3.76137167606785E-18	0.940013971228206	-0.283815040057086	0.940013971228206	-0.283815040057087	-1.02005247747637E-17	-3.26311134800578E-18
53.9	2.11689504142903E-17	-1.10806425120562E-17	0.798577068781608	-0.450829517416676	0.798577068781609	-0.450829517416677	3.69982142875382E-17	1.21017167325097E-17
54	1.87916497320793E-17	-1.32843105169275E-17	0.701624983681598	-0.559899780548374	0.701624983681597	-0.559899780548373	-2.76912117611054E-17	-1.06019793103909E-17
54.1	2.73873887344302E-18	7.65567589934769E-18	0.634456309877247	-0.631154403562119	0.634456309877247	-0.631154403562119	4.3495707111025E-20	-8.33582981488438E-18
54.2	-4.38594520588825E-18	6.6404953350181E-18	0.542433601175378	-0.734173710536958	0.542433601175378	-0.734173710536959	1.54074090177591E-17	5.85013882075568E-18
54.3	-5.00852579508227E-18	-7.95357079201533E-18	0.376801200952443	-0.82577607548079	0.376801200952443	-0.82577607548079	1.4763891476661E-17	6.11218268739707E-18
54.4	7.54796126211528E-18	-1.01986216242562E-19	0.330156845214415	-0.812551753581835	0.330156845214415	-0.812551753581835	1.86149376146818E-17	-1.91248686958946E-17
54.5	1.5734275842082E-17	2.70079100426198E-18	0.128633491585123	-0.948246056578718	0.128633491585123	-0.948246056578718	1.0679636443146E-17	-2.67135746705806E-17
54.6	2.72158804440894E-17	-1.07485101684063E-17	0.00193522214148125	-0.884916991638342	0.00193522214148117	-0.884916991638343	-5.37425508420314E-18	-1.36079402220447E-17
54.7	7.41021596391186E-18	-2.05007827318928E-19	-0.110065361095835	-0.93179237174497	-0.110065361095835	-0.93179237174497	2.59898807436432E-18	-6.22684583615251E-19
54.8	-4.25107482988399E-19	-3.37486373475056E-18	-0.271790053356507	-0.896129941579462	-0.271790053356508	-0.896129941579463	-7.58954398381526E-18	5.07009444087283E-18
54.9	7.46303920180117E-18	1.59448489573302E-18	-0.396864219076329	-0.82023246034895	-0.396864219076329	-0.82023246034895	0	0
55	5.16398152533201E-18	-9.6056070942283E-18	-0.504404329760588	-0.781443510602209	-0.504404329760588	-0.781443510602208	2.82658988330876E-18	-1.35436857710859E-17
55.1	-2.85168267200767E-18	-2.26198639390522E-18	-0.631834511736	-0.691304137670564	-0.631834511736001	-0.691304137670564	-4.09498271436639E-19	4.5462572486418E-18
55.2	1.67429474477411E-17	-1.44224921318151E-17	-0.702489846817776	-0.59008192936007	-0.702489846817776	-0.59008192936007	1.38776849044903E-17	-5.39682755414102E-18
55.3	8.94105944279152E-18	-1.6867697505414E-17	-0.801873917216737	-0.457951446733714	-0.801873917216738	-0.457951446733714	1.54031763433642E-17	-7.36963832288736E-18
55.4	-1.24411212261527E-17	-4.01731710240459E-18	-0.85604400412656	-0.376083409419492	-0.85604400412656	-0.376083409419492	-1.77704899916527E-17	-2.38326011218292E-17
55.5	-1.45997410678497E-17	1.42540056557204E-18	-0.921690661489027	-0.216428049395348	-0.921690661489027	-0.216428049395348	-2.067197131067E-17	6.6552030642381E-18
55.6	4.46072540308094E-18	-5.10257389377077E-18	-0.917770492667074	-0.0948630180352692	-0.917770492667075	-0.0948630180352692	-1.74761011671714E-18	1.14349281332585E-18
55.7	-7.81453907577466E-18	-1.80785285988025E-19	-0.946261580969406	0.0362303148390981	-0.946261580969405	0.0362303148390982	-9.13003276350732E-18	1.31812449258058E-17
55.8	-7.26803666682854E-18	6.16360998992192E-19	-0.92214563593883	0.189979451379777	-0.92214563593883	0.189979451379777	-7.67039097808482E-18	1.62652328783548E-18
55.9	3.38069150126041E-18	-5.65257556702329E-18	-0.889867175985279	0.311288504127518	-0.88986717598528	0.311288504127518	4.10573242440975E-18	-7.21641555025566E-18
56	-7.8108095637745E-18	1.07732897812389E-17	-0.809797075817804	0.441855965410199	-0.809797075817804	0.441855965410199	1.77006137253838E-18	8.16126296597602E-18
56.1	5.52748941894588E-19	-6.37103016710093E-18	-0.769774698246571	0.549127722014249	-0.769774698246572	0.549127722014249	-2.9331025560599E-18	-1.00965010996227E-18
56.2	-8.50362718514496E-18	-9.72800157161921E-18	-0.68435736687768	0.668390796246693	-0.684357366877679	0.668390796246693	8.15974744057778E-18	-9.33458907204371E-18
56.3	-6.23457639598281E-18	7.80218367443811E-18	-0.53016026720538	0.75776110154821	-0.53016026720538	0.75776110154821	1.99266422025628E-17	2.43164330274016E-17
56.4	3.46202862803171E-18	-1.6649642288156E-17	-0.473287317295345	0.827043379823836	-0.473287317295345	0.827043379823836	-1.27675611027392E-17	-2.17286823269546E-17
56.5	-4.45184185432222E-18	1.15390750029746E-17	-0.330745272773984	0.90570125074146	-0.330745272773984	0.905701250741459	6.87211457407719E-18	2.68823203345448E-17
56.6	-1.17150352630344E-18	-2.95642347877549E-18	-0.188383424301355	0.910320978273769	-0.188383424301354	0.910320978273769	-1.00391760160309E-18	6.09887599092927E-18
56.7	6.97075760552773E-18	-5.3192487644658E-18	-0.0630871662395949	0.943169274455378	-0.0630871662395947	0.943169274455378	-1.50648887970392E-17	7.35955733130049E-18
56.8	8.56085564492371E-18	3.87654523193582E-18	0.0554991972406376	0.962284971241042	0.0554991972406376	0.962284971241042	-2.17926982294315E-18	1.97215155640181E-17
56.9	-1.27549271517344E-18	-2.79626388808974E-18	0.199859650636718	0.919734783639384	0.199859650636718	0.919734783639383	-5.92367606158763E-18	-7.43217212788913E-18
57	-6.74147486165531E-18	-1.55844539448362E-18	0.351739496278462	0.849634543345245	0.351739496278462	0.849634543345244	-5.18342683282698E-18	-7.26267857765613E-18
57.1	-3.55537044922285E-18	8.58260262769789E-18	0.455150281480838	0.82050921110546	0.455150281480838	0.82050921110546	-2.57068223332012E-18	2.71989872339382E-17
57.2	-1.21958718087942E-17	-1.54239671969439E-17	0.575394365728772	0.77299535068117	0.575394365728771	0.77299535068117	3.05642667978984E-17	3.26967550464484E-17
57.3	-1.18627686930371E-17	-1.67571543638549E-17	0.712761574885673	0.611660923488338	0.712761574885674	0.611660923488338	-4.47881200579298E-17	-1.94421324850925E-17
57.4	-6.87258041996477E-19	7.60814479807288E-18	0.725224235747591	0.540173926749941	0.725224235747591	0.540173926749941	-3.9605170350032E-18	-1.32516755422408E-17
57.5	-1.7527954282937E-17	-1.1235932464217E-17	0.851191580408069	0.445757906981775	0.851191580408069	0.445757906981775	-6.66504256457753E-18	-1.24306313473103E-17
57.6	1.02528237497557E-17	-1.20777266246228E-17	0.907505324976928	0.29520688400826	0.907505324976928	0.29520688400826	-8.36524035064567E-18	1.14973469884589E-17
57.7	-7.61915096174511E-18	2.64499344532219E-17	0.89775201785695	0.163015895024103	0.89775201785695	0.163015895024103	-4.2331904784977E-18	1.53799286436547E-17
57.8	-2.03314230407676E-18	1.07911976713654E-17	0.948174095871316	0.0545406942008562	0.948174095871316	0.0545406942008556	-6.03824207337116E-18	-2.27209226442669E-18
57.9	4.91807678123636E-18	-7.65972115556417E-18	0.959415791422008	-0.0656548838708547	0.959415791422008	-0.0656548838708549	-8.83909637054086E-19	1.71247154452378E-17
58	-9.82281894181463E-18	-2.43437692052795E-17	0.900043180924813	-0.257932564446218	0.900043180924813	-0.257932564446219	-4.27967644184311E-18	-2.98220199443929E-17
58.1	5.75786727873473E-18	-5.31293558305716E-18	0.843989469794897	-0.329894124895468	0.843989469794897	-0.329894124895469	3.29123266612297E-17	-8.4428679370025E-18
58.2	4.69887513812061E-18	-1.90036015184462E-17	0.823467435046535	-0.474005212990425	0.823467435046535	-0.474005212990425	-9.4212355908112E-18	-3.44490558214532E-17
58.3	-7.8625975179676E-18	7.88109148062696E-18	0.729192802502018	-0.598511581107929	0.729192802502017	-0.598511581107929	-3.61181981199179E-18	1.81700628359151E-17
58.4	1.24926037105186E-17	2.88988853553112E-18	0.635878300457642	-0.630395102039393	0.635878300457643	-0.630395102039394	1.11500383826273E-17	-2.68513065578254E-18
58.5	6.83109419527566E-18	6.41497068214555E-18	0.580359169460758	-0.767867981293255	0.580359169460758	-0.767867981293255	1.15143038116492E-17	-1.83005533314238E-17
58.6	-1.49781350209521E-18	8.53830616180696E-18	0.433624253078753	-0.833877062137236	0.433624253078753	-0.833877062137235	3.76354487396331E-18	-2.64018474739191E-18
58.7	-1.42384970745838E-17	-2.65478219937525E-17	0.306634707101187	-0.854338438109984	0.306634707101188	-0.854338438109985	-3.87618727940049E-18	-5.97181547933313E-18
58.8	3.4021207223092E-18	3.26307394060206E-18	0.203560821795773	-0.904376655677885	0.203560821795773	-0.904376655677885	1.17313513361904E-18	-7.69278321868938E-18
58.9	-5.95725258061236E-19	-1.28066896518886E-17	0.0938032979017489	-0.942037779171101	0.0938032979017489	-0.942037779171101	8.54069956432378E-18	-3.03966201466554E-18
59	7.96247603429771E-18	2.78000973651617E-18	-0.0769542924112403	-0.919820836015163	-0.0769542924112404	-0.919820836015163	-2.04728060471321E-18	1.00872183089212E-17
59.1	4.92806834997835E-18	-3.50546637159405E-18	-0.170639511389341	-0.903558945760028	-0.170639511389341	-0.903558945760029	-2.2482518661351E-19	-6.60682880785314E-18
59.2	7.16060597962999E-18	1.58446677182873E-17	-0.29632445779179	-0.908191648832649	-0.29632445779179	-0.908191648832649	1.34112057828657E-17	1.29951476515704E-17
59.3	-8.96615514354258E-18	-5.37767233343846E-19	-0.445115293390702	-0.804489799202743	-0.445115293390701	-0.804489799202742	-1.83975041557359E-17	1.13978418935312E-17
59.4	8.65019714430947E-18	2.7081165896854E-18	-0.517601329329368	-0.768800523773217	-0.517601329329368	-0.768800523773216	1.10032259618462E-17	1.25086622019504E-17
59.5	1.08464909882753E-17	-1.34361656081854E-18	-0.647568760274908	-0.683147976188465	-0.647568760274908	-0.683147976188465	8.16695327470829E-18	-8.79833387719417E-18
59.6	1.51525470449257E-18	-1.24275270311176E-17	-0.722279724221929	-0.568332796001457	-0.722279724221929	-0.568332796001457	-5.69676604725581E-18	1.37865991547464E-18
59.7	-7.51711772888384E-18	-2.03382591310854E-17	-0.804285494238455	-0.488921253770184	-0.804285494238455	-0.488921253770184	-9.72573801189772E-19	3.96667703141426E-18
59.8	2.07752305710393E-18	1.10236498790922E-17	-0.872857565389414	-0.367248294113247	-0.872857565389413	-0.367248294113246	-1.4830555311909E-17	-1.81500241715531E-18
59.9	7.34774845597108E-18	-3.21442015302309E-18	-0.902788870543674	-0.255017437249462	-0.902788870543675	-0.255017437249463	2.45991360341201E-18	9.12380588799582E-18
60	-1.87713114077851E-17	-5.87485927342055E-18	-0.926560092981362	-0.105403185615075	-0.926560092981362	-0.105403185615075	-1.40771871531668E-17	6.25517862449583E-19
60.1	-1.19108747919748E-17	-2.74002667829866E-18	-0.924291630777863	0.00872019914413725	-0.924291630777863	0.00872019914413746	5.02574776496196E-18	-8.61861652621672E-18
60.2	6.43881067385024E-18	-1.63479535849555E-18	-0.941913616726866	0.117707229883189	-0.941913616726866	0.117707229883189	-7.03350975804843E-18	-5.47126218296274E-18
60.3	3.53064359644559E-21	-1.86007808226961E-17	-0.893914378587305	0.281688419822504	-0.893914378587305	0.281688419822504	1.62698625528346E-18	-2.15965717044274E-17
60.4	-3.28979610906609E-18	-1.18579670295217E-18	-0.843919784814371	0.354849049715821	-0.843919784814371	0.354849049715821	1.01135531764158E-17	8.37411493539923E-18
60.5	-4.52220849733341E-18	-1.5196373327894E-17	-0.8024174050061	0.497007523039774	-0.802417405006101	0.497007523039775	1.07198378195645E-17	3.60753064045203E-18
60.6	-3.72658279178781E-19	-1.78688805327439E-17	-0.722342276769794	0.594711930185604	-0.722342276769793	0.594711930185604	8.60231101443128E-18	-8.37555723330971E-18
60.7	1.06806620278788E-17	-8.58166348203247E-18	-0.631850304995492	0.690643910981555	-0.631850304995491	0.690643910981554	-2.10241189488083E-18	2.09483510446573E-18
60.8	8.62244160919289E-18	-1.20416789436697E-18	-0.535952722697218	0.776248014176046	-0.535952722697217	0.776248014176045	-3.87057755749133E-18	3.9428054576993E-18
60.9	7.41407827394889E-18	-3.63955543586275E-18	-0.434903525655317	0.84038664863674	-0.434903525655316	0.84038664863674	-1.96296453955842E-18	1.47070303963814E-17
61	-2.41531848120027E-19	6.62571957980761E-18	-0.303983035262869	0.892296055466678	-0.303983035262869	0.892296055466678	2.03422220863065E-19	-3.73571139960645E-18
61.1	-1.41174068786337E-18	1.71856228740544E-17	-0.179815269174388	0.910375075421474	-0.179815269174388	0.910375075421475	1.52974892091851E-17	3.05820986678532E-18
61.2	-7.39642334981815E-18	1.31024177562731E-17	-0.0711897095411913	0.933764799195505	-0.0711897095411916	0.933764799195505	-4.74883410376449E-18	-1.41955828192861E-17
61.3	-8.85902204408256E-18	-8.43083120811572E-19	0.0612779867497065	0.951719245089913	0.0612779867497066	0.951719245089913	6.44867331049426E-18	6.57604365719247E-19
61.4	-2.32371181516195E-17	1.60255319637453E-17	0.217438378623942	0.91114446545303	0.217438378623942	0.91114446545303	-1.15150070981097E-17	1.17988624987093E-17
61.5	8.40012750759468E-18	-3.51434383855769E-18	0.290330406079582	0.874316169459971	0.290330406079582	0.874316169459972	3.2436839302892E-19	-1.31027227091289E-17
61.6	2.0621576779834E-18	2.74106725738962E-17	0.438425085844665	0.859233738242578	0.438425085844665	0.859233738242577	2.26319335821388E-18	5.12902545467083E-18
61.7	-5.93775883850388E-18	-6.97364181186833E-18	0.555123689708857	0.772867422891639	0.555123689708856	0.772867422891638	-2.56647457377242E-17	-1.23782545574182E-17
61.8	-1.27397827967625E-17	8.98728185024658E-18	0.631845375907704	0.682664782431152	0.631845375907704	0.682664782431152	-3.65934616716509E-18	8.3731433030511E-18
61.9	-6.7176373222622E-18	4.90108367337922E-18	0.726064550619071	0.589150704728482	0.726064550619071	0.589150704728482	-8.74902802804999E-18	1.73399459093087E-17
62	9.02483894309712E-18	9.7432935622281E-19	0.798073822439614	0.510370652936707	0.798073822439614	0.510370652936706	9.051614256978E-18	1.04496741395711E-19
