# GHZ S RI R 50
50	-2.15721598026227E-17	-2.16860926037554E-17	0.77917322009515	-0.556610629714817	0.77917322009515	-0.556610629714818	2.56191257969501E-18	3.73618823641418E-20
50.1	4.79060633137124E-17	-3.54961250672508E-18	0.656061733542171	-0.663352301186357	0.656061733542171	-0.663352301186357	-1.0619385026073E-17	-4.4129030691719E-18
50.2	3.55030817381025E-18	8.49308466890976E-18	0.552330991020054	-0.759137172064888	0.552330991020054	-0.759137172064889	1.42254754123902E-17	4.23703966578614E-18
50.3	-1.10237625845791E-18	-1.04360848977805E-17	0.427747733019841	-0.868621731100402	0.42774773301984	-0.868621731100401	-2.67766510188476E-18	7.18851581766255E-18
50.4	-5.48951415209788E-18	-6.61219886497766E-18	0.240587308834657	-0.888047237741467	0.240587308834656	-0.888047237741468	-5.86014284484505E-18	-5.97837805378798E-18
50.5	-9.82481236558739E-18	-2.73445412571978E-17	0.12673445778013	-0.948012526066752	0.12673445778013	-0.948012526066751	6.54156627144908E-18	1.36177008711201E-19
50.6	-1.73259259585702E-17	-2.13188049251792E-18	-0.0476986245888641	-0.943290886863745	-0.0476986245888639	-0.943290886863745	1.38350300429736E-18	-1.69570936152688E-18
50.7	1.33955575437556E-18	1.10661952921362E-17	-0.186079261438707	-0.920882874759503	-0.186079261438706	-0.920882874759502	5.94514733300026E-19	1.41102368936231E-18
50.8	-2.55684524010412E-17	-1.06226338971361E-17	-0.356102388933908	-0.900914126080548	-0.356102388933908	-0.900914126080547	3.89570963622005E-18	4.15801200603333E-18
50.9	1.55436822529315E-17	-3.55875452924604E-18	-0.476917145540709	-0.798296010203114	-0.47691714554071	-0.798296010203114	5.99042596749744E-18	-2.06252882726027E-17
51	-9.13155422733934E-18	6.58327719314292E-18	-0.620819304789498	-0.729599053467283	-0.620819304789497	-0.729599053467282	9.42889885228935E-18	1.52896622051785E-18
51.1	8.40296459962862E-18	2.59042583862259E-18	-0.72641272376963	-0.615696121568842	-0.726412723769631	-0.615696121568842	1.54661420274405E-18	9.31025041818232E-18
51.2	-1.27550352848204E-17	2.96568125011871E-17	-0.810882068467375	-0.48657013093336	-0.810882068467375	-0.486570130933361	-2.46475500145837E-18	1.18629205659015E-17
51.3	1.10304925710758E-17	6.04933014555194E-18	-0.884997891552481	-0.350498091692181	-0.884997891552481	-0.350498091692181	7.16866057237152E-18	-1.89178371299101E-18
51.4	2.15835545272264E-17	5.99289762338594E-18	-0.948999885210969	-0.220011625232883	-0.948999885210969	-0.220011625232882	3.10074696889415E-18	7.93586769769619E-18
51.5	-3.58363194043338E-18	1.69885800008664E-17	-0.935846015692594	-0.0356111732448353	-0.935846015692594	-0.035611173244835	4.96292102106481E-18	4.95593991270886E-18
51.6	-1.35976483968039E-17	-3.22773398213496E-18	-0.956664981099199	0.0860193999194548	-0.956664981099199	0.0860193999194548	7.03699854351227E-18	-9.4085833415421E-18
51.7	1.61431051162654E-17	1.4713379446879E-17	-0.945725913055074	0.243479729767381	-0.945725913055075	0.243479729767381	1.28197188938188E-17	8.04446495362676E-18
51.8	1.42550046581679E-17	3.27605223776481E-17	-0.836309116785955	0.381384129936335	-0.836309116785955	0.381384129936335	2.91933084496233E-17	-9.58837304583413E-18
51.9	6.1645673631516E-18	-1.2540303166947E-17	-0.838788982834781	0.522325367243364	-0.838788982834781	0.522325367243364	2.2442204767902E-17	-4.18138086438017E-17
52	7.58712751368784E-18	2.0088385819115E-17	-0.682851685444189	0.652055715136446	-0.682851685444189	0.652055715136446	8.88283748945839E-19	-2.47463765440813E-18
52.1	2.92854868138774E-19	7.79711136984262E-18	-0.581709087041572	0.737377040197818	-0.581709087041573	0.737377040197819	2.78558766458057E-17	-1.94718603255515E-18
52.2	-1.43470899295234E-17	7.13224059475733E-18	-0.485329365384573	0.828803063007551	-0.485329365384573	0.828803063007552	-1.36906148531545E-17	2.46539498196029E-17
52.3	-3.96236210425041E-19	-3.11871169684678E-18	-0.352726868223488	0.896510902094599	-0.352726868223488	0.896510902094599	4.24634550807483E-17	8.73582882039329E-18
52.4	9.20839385109093E-18	2.71077579172822E-17	-0.18909562692295	0.971752802571384	-0.18909562692295	0.971752802571384	6.05993875347603E-17	4.33902234158179E-18
52.5	2.10375875662052E-17	-1.62380641587288E-17	-0.0679836406605261	0.919149614897925	-0.0679836406605261	0.919149614897925	-1.69551691718542E-17	-4.12563585196116E-17
52.6	2.02268609296887E-17	-3.09898498606552E-17	0.0784371627922823	0.990863724895208	0.0784371627922818	0.990863724895208	-4.60128920367033E-17	-2.73784203120897E-17
52.7	-1.99780901179365E-17	-1.93928397943074E-18	0.292726659028491	0.949717523314475	0.292726659028491	0.949717523314474	9.8916365338795E-18	3.88684929727845E-17
52.8	-5.20357800634655E-18	-5.66313923285872E-18	0.31209848265221	0.800938020887139	0.31209848265221	0.800938020887139	-2.03806805248573E-17	-2.218062866203E-17
52.9	3.4403459955745E-17	4.16429115219776E-18	0.612365723485311	0.876862565254309	0.612365723485311	0.876862565254309	3.11739018132547E-17	7.20690269274663E-18
53	4.67939618320381E-18	-2.4057026538979E-18	0.610843250337229	0.684177226107335	0.610843250337229	0.684177226107335	1.04053491480832E-17	1.18302331310703E-17
53.1	-7.57698287977369E-18	-6.13050535574147E-18	0.739137865516192	0.645250926253734	0.739137865516192	0.645250926253734	1.13209338660214E-17	-1.58685701406839E-17
53.2	7.92090400468717E-18	2.02480125594197E-17	0.882667715165853	0.501145223838963	0.882667715165853	0.501145223838964	1.69559713273443E-18	-4.13375175949773E-18
53.3	6.12304400638836E-18	-1.95317781906944E-18	0.896533561509206	0.378184153365599	0.896533561509206	0.378184153365599	-3.99350771985928E-17	3.43262820842808E-17
53.4	1.71775857128117E-17	-2.28533528576668E-17	0.922907115213344	0.174435356324741	0.922907115213345	0.17443535632474	-1.69318332531206E-17	-2.38968005636048E-17
53.5	1.36214241236383E-17	4.16896680057314E-18	1.00520653984191	0.11844833454537	1.00520653984191	0.11844833454537	-2.45358989070185E-17	3.27231270803123E-18
53.6	1.28046108727334E-17	-5.96172459026884E-18	0.989156262734712	-0.0946356950941109	0.989156262734713	-0.0946356950941112	-9.74319484265469E-19	-5.04530894834139E-18
53.7	-8.96087221239836E-18	-8.53646822668637E-18	0.8935335293303	-0.245120592854171	0.8935335293303	-0.245120592854171	-7.40506738343459E-18	6.12507837099976E-18
53.8	-7.21198949588899E-18	1.93515192674899E-17	1.00273563279808	-0.340919984285194	1.00273563279808	-0.340919984285194	3.58289703090093E-17	1.90672913266513E-18
53.9	-2.77425594380587E-17	-1.84741157674507E-17	0.847760129770967	-0.511359968158808	0.847760129770967	-0.511359968158808	7.63627482350351E-18	7.39085251150257E-18
54	5.82618950973382E-18	4.71443047100909E-18	0.741190376245983	-0.626118251936081	0.741190376245983	-0.626118251936082	-7.09509074367028E-18	-6.99996536646393E-18
54.1	-8.68723192187409E-18	5.38206775576196E-18	0.666455422401389	-0.70437894916278	0.666455422401389	-0.704378949162781	-2.26212573234184E-17	4.51993462802919E-18
54.2	-1.19660176283501E-17	1.6299445091655E-17	0.56212679181116	-0.813214156246684	0.56212679181116	-0.813214156246684	1.17871267366477E-17	3.36052416529389E-17
54.3	1.2175695155556E-17	1.72896803771944E-17	0.381502780347935	-0.904115256753464	0.381502780347935	-0.904115256753464	1.68533814762914E-17	2.08953332652689E-17
54.4	1.02559730016994E-18	-1.20420094692175E-18	0.329882744825996	-0.896101115455696	0.329882744825996	-0.896101115455695	-1.88639832769035E-17	2.63303012093627E-18
54.5	-1.24582428838556E-17	1.44318839302057E-17	0.105734493311502	-1.02776653495751	0.105734493311502	-1.02776653495751	8.16669804616835E-18	2.43952019020685E-17
54.6	-7.63183033070139E-18	6.83672752765242E-18	-0.0267729995830135	-0.960069384925886	-0.0267729995830135	-0.960069384925886	8.61279324460436E-18	1.0738069531013E-17
54.7	-3.01408965842127E-18	-1.03407769260713E-17	-0.154240251579761	-1.00540405921294	-0.154240251579761	-1.00540405921294	3.10640133525307E-18	9.0522371192212E-19
54.8	-2.88584316093587E-18	-2.28502114255661E-18	-0.326878682939349	-0.96043480169531	-0.326878682939349	-0.96043480169531	1.37218082910816E-17	1.19697146246176E-17
54.9	1.42099959955419E-17	8.89564563727801E-18	-0.45922133264586	-0.875647965049019	-0.45922133264586	-0.875647965049019	6.44214621333275E-18	8.57597961357189E-18
55	6.94462488959404E-18	1.62506259808772E-18	-0.577127806856406	-0.828763092770734	-0.577127806856406	-0.828763092770734	1.03199538498595E-17	-7.50188050507091E-18
55.1	8.16184173598194E-18	-4.93089076884641E-18	-0.71128645404171	-0.72574333316685	-0.711286454041711	-0.725743333166851	-1.73690984353251E-18	-2.72249093392713E-18
55.2	3.87148174570745E-18	3.04120923019978E-18	-0.786149396476295	-0.614495470339131	-0.786149396476295	-0.614495470339131	1.42579485020828E-17	-1.42269613153904E-17
55.3	8.32650443804044E-18	-1.7457106880095E-18	-0.88747992419086	-0.467313225397283	-0.88747992419086	-0.467313225397283	-1.07634401292327E-17	2.74940426746286E-17
55.4	7.96343569211336E-18	6.9332543821637E-19	-0.94623521611141	-0.374001738291402	-0.94623521611141	-0.374001738291402	7.69785207537388E-18	2.29014959311912E-18
55.5	-2.72810598460971E-19	-9.02956301093586E-18	-1.0090534126747	-0.198260461274374	-1.0090534126747	-0.198260461274374	4.32451182503229E-17	-8.83030683107572E-18
55.6	7.08647419404719E-18	-1.67337099299566E-17	-1.00282633750825	-0.0663938391745044	-1.00282633750824	-0.0663938391745044	3.81590479982351E-18	-1.54010653375077E-17
55.7	-7.88269252925616E-18	2.93173420376138E-19	-1.02776030453402	0.0794409491817578	-1.02776030453402	0.0794409491817577	-8.63580680763293E-18	-2.10427137326297E-17
55.8	9.24279366632777E-18	-6.89710569400115E-18	-0.995185880427524	0.244814564295106	-0.995185880427523	0.244814564295107	4.76580419574016E-18	-6.6093129460672E-18
55.9	3.35544267997695E-18	1.56567800182864E-17	-0.955618761874091	0.377006142749476	-0.95561876187409	0.377006142749477	-6.86329210688277E-18	1.14248631036512E-17
56	2.63154453280938E-17	-1.17097921508841E-17	-0.864445764218036	0.514869458705506	-0.864445764218035	0.514869458705506	2.51574163376423E-17	-2.43205801749737E-17
56.1	-2.82541930504E-17	8.03360319196073E-18	-0.81477086842903	0.632919287605861	-0.814770868429031	0.632919287605862	4.52928815237787E-18	-1.027814227457E-17
56.2	4.83734545375996E-19	-3.8108732233905E-18	-0.71553945121937	0.75911932591947	-0.71553945121937	0.75911932591947	4.98470411973417E-18	-1.16416498745577E-17
56.3	2.92814493077638E-18	-4.23417328404642E-18	-0.546751703328558	0.847911896129039	-0.546751703328558	0.847911896129039	1.68402559594875E-17	-2.70134658516915E-17
56.4	1.25284427156145E-17	-4.27500426398346E-18	-0.47795418340676	0.924934305264282	-0.47795418340676	0.924934305264282	3.23504536568012E-17	1.08660762485083E-19
56.5	4.1089219835931E-18	-4.14901864235734E-18	-0.318624301956851	1.002625134131	-0.318624301956851	1.002625134131	1.69752607426326E-17	2.59589030933305E-18
56.6	5.37214044499147E-19	6.80969849149076E-18	-0.165105441673769	1.0034122857995	-0.165105441673769	1.0034122857995	-1.86922361142504E-17	-6.3225713376814E-18
56.7	-1.09918280833353E-17	1.61799257884436E-17	-0.0249066865319615	1.03364875292069	-0.0249066865319618	1.03364875292069	-4.21809103713496E-17	2.76726224249049E-17
56.8	-2.98901085969421E-18	4.56653687423657E-18	0.108352680874206	1.04909936905146	0.108352680874206	1.04909936905146	-8.3546714511223E-18	-2.58528448133043E-17
56.9	1.32680744045339E-17	9.61784529855818E-19	0.262937182275486	0.997149196714786	0.262937182275486	0.997149196714785	3.41870204075788E-17	6.0691144845002E-18
57	-4.48723384654443E-19	5.97269578297879E-18	0.423276710775922	0.914458989912406	0.423276710775922	0.914458989912406	-1.14770112367195E-17	-2.8102819754288E-18
57.1	1.15739115647001E-19	-2.0538375464178E-17	0.538544191946005	0.876897979322412	0.538544191946005	0.876897979322412	-1.3892022281627E-17	-1.32232628957139E-17
57.2	-2.86526383716424E-17	-1.9551336815044E-17	0.669575773856236	0.816886480013061	0.669575773856235	0.81688648001306	-3.9088244118598E-17	-3.15087695985172E-17
57.3	-1.10001045931875E-17	3.27507600625613E-17	0.80649686775448	0.636480892071249	0.806496867754481	0.636480892071249	-1.08821713134358E-17	2.14267765448674E-17
57.4	-1.61345220377198E-17	-9.8940556092696E-19	0.824188146281986	0.559150793263384	0.824188146281986	0.559150793263383	-2.10771265712111E-17	7.73665995863472E-17
57.5	-8.12725128100472E-18	3.06134925030526E-18	0.955518223755035	0.444750797379665	0.955518223755035	0.444750797379665	-1.4873286297339E-18	3.71392621065615E-17
57.6	1.18904541649565E-17	4.64107809204437E-19	1.00869934881795	0.278274860142467	1.00869934881796	0.278274860142467	-1.23659727539249E-17	5.88879554384481E-18
57.7	7.38118986471225E-18	2.56631683426382E-17	0.994978453188936	0.135952893872849	0.994978453188935	0.135952893872849	1.57868740768097E-18	2.04153531978169E-17
57.8	-4.40319804852307E-18	7.48270903614602E-18	1.04423797213625	0.0101784559071644	1.04423797213625	0.0101784559071649	-4.11472214943124E-18	1.69490275161221E-17
57.9	5.62468924841694E-18	3.13897379513697E-18	1.05061554279437	-0.124764942829985	1.05061554279437	-0.124764942829985	2.97968853954825E-18	-4.21315192141098E-18
58	2.12572832552191E-18	4.14434730164529E-18	0.975170626620811	-0.327049894183058	0.975170626620812	-0.327049894183058	-2.32771708482283E-18	-9.16749204369959E-18
58.1	8.84812199206098E-18	-7.23019175670962E-18	0.914271638497345	-0.407059385303091	0.914271638497345	-0.407059385303091	2.24221163904019E-17	3.82290628458544E-18
58.2	-4.02013159293993E-18	6.51271089303156E-18	0.880172374357841	-0.565484090518795	0.880172374357841	-0.565484090518795	-1.71060954434263E-17	8.88222810252276E-18
58.3	1.02718033710004E-17	-1.77537791194555E-17	0.770606309578338	-0.695995313628944	0.770606309578338	-0.695995313628944	1.61590053145856E-17	1.66896841064513E-17
58.4	1.96071277492882E-17	8.56745578117676E-18	0.670257948615315	-0.731550979972419	0.670257948615315	-0.731550979972419	-2.98098763092798E-19	-3.40233299272905E-18
58.5	1.59781592572682E-17	-2.18704689578726E-18	0.59504527321121	-0.879378964101712	0.595045273211211	-0.879378964101712	-1.44387017087658E-18	1.74326502478809E-17
58.6	3.06816250990115E-18	1.21443958105735E-17	0.43235508669412	-0.943118299309319	0.432355086694121	-0.943118299309319	-6.28956749551662E-18	-4.44011970764053E-18
58.7	1.23635631214497E-17	8.31445122287161E-18	0.293230155092854	-0.961492237949513	0.293230155092854	-0.961492237949512	-1.10362188869941E-18	2.42634793975205E-18
58.8	8.00873561343417E-18	4.77194820233052E-18	0.173666943471459	-1.01182650958339	0.173666943471459	-1.01182650958339	-4.3091948336059E-18	-1.52413513444408E-18
58.9	1.5279953181775E-17	4.1998210779167E-19	0.0471120502057847	-1.04741966164701	0.0471120502057841	-1.04741966164701	1.39022971376785E-17	5.08261509260335E-18
59	-1.37748523159894E-17	-1.59574431744643E-17	-0.136415997909454	-1.01306816641861	-0.136415997909453	-1.01306816641861	1.66167186531161E-17	-1.13712464342611E-17
59.1	-5.69897403274882E-18	-2.13334904458672E-18	-0.242649717231541	-0.992004536110081	-0.242649717231541	-0.992004536110082	-1.48819448461512E-17	-7.04271971879016E-18
59.2	4.34112554633858E-18	3.27948837249231E-18	-0.385010083455187	-0.986836733179943	-0.385010083455188	-0.986836733179943	-7.37345349324244E-18	1.33017691298682E-18
59.3	-5.55434789239878E-18	3.11166562528825E-18	-0.538927517386963	-0.86593860300706	-0.538927517386963	-0.86593860300706	6.77531412990646E-18	2.58060686461905E-18
59.4	9.1311793573932E-18	7.35154507281452E-18	-0.622865004727455	-0.821726385658242	-0.622865004727455	-0.821726385658243	1.67064004470337E-17	1.04352297670065E-17
59.5	2.41312841764969E-17	7.15321577956537E-18	-0.759848238905237	-0.717454263360766	-0.759848238905237	-0.717454263360767	3.44327112796485E-18	-6.12788412546112E-18
59.6	5.54435850891624E-18	1.0047243570973E-17	-0.836413987964293	-0.587831754478096	-0.836413987964293	-0.587831754478096	2.47353203656011E-18	1.51811647861763E-18
59.7	1.53301476219822E-18	3.55099423168169E-18	-0.924110562332561	-0.491666601862748	-0.924110562332561	-0.491666601862747	7.79510394736813E-18	3.91576486575886E-18
59.8	5.73227017071344E-18	-4.01284587133507E-18	-0.992110773690065	-0.351917966620382	-0.992110773690064	-0.351917966620381	-7.24643052223815E-18	5.87862235439036E-18
59.9	9.23632928579278E-18	-6.42281999983486E-18	-1.0205553174734	-0.224780620835393	-1.0205553174734	-0.224780620835393	5.65878962531104E-18	-2.07726302098103E-18
60	2.12519878768957E-17	1.18199731160612E-17	-1.03677620769595	-0.0585289546381707	-1.03677620769595	-0.0585289546381712	5.12049533003676E-18	-3.65579304858718E-18
60.1	-6.64883688077958E-18	-9.59822350885392E-19	-1.02909154974231	0.0695335319693633	-1.02909154974231	0.0695335319693635	3.391697749079E-19	-1.12206767739143E-17
60.2	-7.24883454543691E-18	2.83008582204488E-18	-1.04070397946064	0.195953104131586	-1.04070397946064	0.195953104131586	1.84942892165854E-17	-3.01933561048642E-17
60.3	-1.42407260813235E-18	-2.15374268784765E-17	-0.976375264836264	0.3714550140652	-0.976375264836264	0.3714550140652	3.24622148717673E-17	-4.8087779527515E-18
60.4	1.69419480061398E-18	-5.59338615000964E-18	-0.919312881660669	0.454280726495725	-0.919312881660669	0.454280726495725	5.60423536088632E-18	-4.32541282697502E-18
60.5	8.82186470523369E-18	1.06134277851989E-18	-0.860239546223624	0.609207655687211	-0.860239546223623	0.609207655687211	1.32173178149224E-18	-1.57825097373255E-18
60.6	-3.46875449865331E-19	-2.2396009576173E-17	-0.765139285649813	0.713788940082947	-0.765139285649813	0.713788940082946	1.01328615194662E-18	-8.81545222218939E-19
60.7	-2.18850049493914E-17	-1.56989062092662E-17	-0.657495957685668	0.814976992860566	-0.657495957685668	0.814976992860566	6.38176594818306E-18	2.51138800743783E-18
60.8	-4.7767601589638E-18	3.35818176165759E-18	-0.543573833729175	0.904357715025365	-0.543573833729175	0.904357715025365	7.8683123699841E-18	-6.26776403051913E-19
60.9	8.16037462917599E-18	-6.94471199577551E-18	-0.42515463511265	0.970285101580704	-0.42515463511265	0.970285101580705	-1.19979408150515E-17	7.09035846908311E-18
61	-8.79103957656891E-18	-7.93647118343539E-18	-0.275902033978481	1.01874995663272	-0.275902033978481	1.01874995663272	6.68224986855982E-18	-6.16664042550603E-18
61.1	-1.85839804553956E-17	-3.29095888066889E-18	-0.136272046749644	1.03210961646656	-0.136272046749644	1.03210961646656	-4.08816315583825E-18	-7.42593257434845E-18
61.2	-1.44322554201831E-17	2.35202049314878E-18	-0.0103933064908325	1.05137301073573	-0.0103933064908323	1.05137301073574	4.7270306079681E-18	3.45014171178729E-18
61.3	1.09556834946459E-17	-1.27153524806325E-17	0.140441105944976	1.06019466812356	0.140441105944976	1.06019466812356	-6.76127609066618E-18	-1.26897326186533E-17
61.4	-1.97251451182648E-17	9.92896811048678E-18	0.308809404744808	1.00409091086609	0.308809404744808	1.00409091086609	-8.04451819929535E-18	6.04372862588545E-18
61.5	2.17598062674806E-17	6.13400193466378E-18	0.39317858484176	0.960764883385425	0.39317858484176	0.960764883385425	5.47371468192952E-18	-2.43203605089217E-18
61.6	1.11725760413742E-17	2.66366531846967E-17	0.557832403837312	0.92756901559718	0.557832403837312	0.92756901559718	-8.79926632654842E-19	8.16104360237198E-18
61.7	6.10914418061142E-18	1.02425396671457E-17	0.680996672374257	0.823471074282049	0.680996672374256	0.823471074282048	-2.20555785648986E-17	4.60773570679729E-18
61.8	3.78139528972802E-18	-5.8238843931162E-19	0.762581081630853	0.718623315330376	0.762581081630853	0.718623315330375	-1.4570257981621E-17	-4.38142356173442E-18
61.9	6.05623327449232E-18	5.48929558507861E-18	0.861134161565415	0.60590326693968	0.861134161565416	0.605903266939681	1.25530234328256E-17	1.3630045441034E-17
62	-6.1112067887726E-18	-1.66571014947671E-17	0.938224095713854	0.509178495198658	0.938224095713854	0.509178495198658	-5.8017020462836E-19	2.73470270774816E-18
62.1	1.29412048221838E-17	2.28206621033497E-19	1.01542750161047	0.366277875200743	1.01542750161047	0.366277875200743	-1.0966782462909E-18	2.19046693888551E-17
