# GHZ S RI R 50
50	5.86508055666948E-18	1.97061116676753E-18	0.850584066536615	-0.611523464700327	0.850584066536615	-0.611523464700327	-5.47069787890765E-18	6.19535873315622E-18
50.1	-7.04503011486534E-18	8.34253596274273E-18	0.713774073130362	-0.732113894561906	0.713774073130362	-0.732113894561906	4.09551728429735E-18	-1.73385745546849E-17
50.2	1.91475123775313E-18	2.24488139888501E-17	0.595689519763072	-0.833762111156672	0.595689519763072	-0.833762111156673	2.85594491167513E-18	-2.90384593328181E-18
50.3	-2.99177734370661E-17	-3.44820870525942E-18	0.460941875376498	-0.947201777429811	0.460941875376497	-0.94720177742981	-3.23644800450083E-18	-7.24691748256141E-18
50.4	-4.60498762799859E-18	-1.16575623407071E-17	0.253794084804039	-0.975883659244329	0.253794084804039	-0.975883659244329	5.33399457219778E-18	-1.31818979890156E-17
50.5	1.45005546005653E-17	3.68538434738858E-18	0.128877096740271	-1.03028364191447	0.128877096740271	-1.03028364191447	-4.08581169356489E-18	8.91223238223513E-19
50.6	2.18388154771614E-17	-2.62920620005477E-18	-0.0615448568752856	-1.02610400838453	-0.061544856875286	-1.02610400838453	-3.42070206285567E-18	2.25810232310591E-18
50.7	-5.78263050020377E-18	-2.16191636696603E-17	-0.214115807832973	-0.996750932928235	-0.214115807832973	-0.996750932928235	-8.0566593281646E-18	-3.26080545483783E-19
50.8	1.43550912572935E-17	2.86200460733468E-17	-0.393007480562534	-0.97294252359606	-0.393007480562533	-0.97294252359606	-4.26521926644912E-18	1.20822988810029E-17
50.9	3.16545473737166E-18	-2.36526680830728E-18	-0.52985908494263	-0.859044888738823	-0.52985908494263	-0.859044888738823	-9.47518602478345E-18	-4.75877119972325E-18
51	1.13346524455173E-17	-2.818455442554E-19	-0.679803260539102	-0.782546888526224	-0.679803260539102	-0.782546888526224	-7.12203950512034E-18	-2.88821829560268E-18
51.1	-1.55000180956152E-18	1.15295193477182E-17	-0.793289727952998	-0.656521213681128	-0.793289727952998	-0.656521213681129	3.52680647239421E-18	8.69066426722733E-18
51.2	-2.46936705767182E-17	3.1743635113133E-17	-0.883367425621245	-0.514134658353758	-0.883367425621246	-0.514134658353758	8.05611142995756E-18	1.41814625534197E-17
51.3	-8.34619592886613E-18	-9.89825960485062E-18	-0.960003858026248	-0.365940746700218	-0.960003858026248	-0.365940746700218	2.73286524427654E-18	2.43766485220353E-18
51.4	4.00019010375832E-18	-1.28964903163872E-18	-1.02219971465233	-0.225121404158394	-1.02219971465233	-0.225121404158395	-5.54306529995197E-18	4.76396649686176E-18
51.5	-9.5705787224957E-18	2.44795674559331E-17	-1.01209968722574	-0.0230761424945612	-1.01209968722574	-0.0230761424945612	-2.43090512314658E-19	5.32809873580671E-18
51.6	2.34400546887412E-19	-3.3427879310626E-18	-1.0246447163524	0.107100651128716	-1.0246447163524	0.107100651128717	-5.4062541097072E-18	1.33747121223589E-17
51.7	-2.24420178285518E-17	1.42117254803317E-17	-1.00916715099116	0.273231692801429	-1.00916715099116	0.27323169280143	-9.16661423144372E-18	3.93970407712816E-17
51.8	7.59087461785245E-18	1.90876971146046E-17	-0.891523906649814	0.429366353940946	-0.891523906649813	0.429366353940947	-2.44434610564725E-17	-2.38357071608536E-17
51.9	-8.6166361777484E-18	-8.86520516208271E-18	-0.886590476031304	0.567683956299289	-0.886590476031304	0.56768395629929	-2.59184918442699E-17	-3.47410166770126E-18
52	2.52999589724147E-17	-2.2907239043241E-17	-0.722063526433447	0.713041429508898	-0.722063526433447	0.713041429508898	-8.67312133004249E-18	-2.06545650183654E-17
52.1	5.75255137163615E-18	7.50238825486183E-18	-0.607672016375504	0.801714301312432	-0.607672016375504	0.801714301312432	-2.3366600016412E-17	-5.29362144595843E-18
52.2	-1.15166964353456E-17	1.33836814424477E-17	-0.501309339910797	0.89184082421964	-0.501309339910797	0.89184082421964	-2.16197956516524E-17	4.13165224375374E-17
52.3	-7.79807248321807E-19	-1.99523207176206E-17	-0.358080509428574	0.959920102777954	-0.358080509428573	0.959920102777954	-1.95395240357912E-17	-2.47678009097672E-18
52.4	-6.14548798082704E-18	-1.10533852678306E-17	-0.188120261533371	1.03710486618719	-0.188120261533371	1.03710486618719	-1.33098341005609E-17	1.3532529136701E-17
52.5	1.00359138603423E-17	-9.05330432904995E-18	-0.0463974847939382	0.977289848123416	-0.046397484793938	0.977289848123416	-1.57043750333394E-17	-1.49451983164758E-18
52.6	2.09951877438348E-18	-4.2896988586368E-18	0.0986782137067804	1.04475681436564	0.0986782137067805	1.04475681436564	-1.42973416883862E-17	6.61463002739259E-18
52.7	-8.93695750712715E-18	-9.12228723981498E-18	0.324009414244214	1.00718166580059	0.324009414244214	1.00718166580059	1.11554236106207E-17	4.21875562621158E-17
52.8	-5.18480715634912E-18	-2.8375525308327E-18	0.364462631985807	0.832782355308812	0.364462631985808	0.832782355308812	4.91535782690895E-18	-4.22942958037605E-17
52.9	-1.37851717858991E-18	1.36770366230936E-17	0.650934176816532	0.926042798217588	0.650934176816532	0.926042798217588	-2.81066656123618E-17	-6.65676344874561E-19
53	3.66781208517399E-17	-9.3972428564379E-18	0.667578598421429	0.706927360938759	0.667578598421428	0.706927360938758	-1.26204380159692E-17	-6.64316123462274E-17
53.1	9.93899096288739E-18	-7.35368660362375E-18	0.789210964254033	0.663024583537574	0.789210964254033	0.663024583537574	-2.0414283891331E-18	9.71300714238086E-18
53.2	-8.40047563878519E-18	-1.70567080800183E-17	0.937893473673997	0.517431324208253	0.937893473673997	0.517431324208253	-4.32275732850858E-17	6.07649614111837E-18
53.3	4.79320200941938E-19	-5.78204090748042E-18	0.949659094392903	0.377902619194918	0.949659094392903	0.377902619194918	-1.86050395327057E-17	2.23127582620869E-17
53.4	-1.27996979666485E-17	2.12522285525141E-19	0.983153665357795	0.161901505783621	0.983153665357794	0.161901505783621	-1.69161023397002E-17	7.00111545735574E-18
53.5	1.56767563418063E-17	1.01311042062365E-17	1.05015812203027	0.106875435720954	1.05015812203027	0.106875435720954	-8.29827868108317E-18	-7.62686829697894E-18
53.6	1.60568436803226E-18	1.12978998751026E-17	1.03870098802802	-0.116990716684832	1.03870098802802	-0.116990716684833	-7.03714738335449E-18	-2.65830220522157E-17
53.7	7.50118584275245E-18	-3.01637210322648E-18	0.93756514802007	-0.284806461701151	0.937565148020071	-0.284806461701151	2.89107776812681E-17	-1.03311774176959E-17
53.8	1.88013034003642E-17	1.34114017753985E-17	1.03598066057494	-0.364132288463629	1.03598066057494	-0.364132288463629	1.36835236818837E-17	-2.97456460223282E-17
53.9	1.04933771025821E-17	4.00889515612818E-18	0.877909761268229	-0.552073628615048	0.877909761268229	-0.552073628615048	3.60698574507291E-17	-1.47479806964772E-17
54	4.36744997692676E-18	2.29315707415975E-17	0.762601602776664	-0.673159932980983	0.762601602776664	-0.673159932980983	4.45208006945252E-18	7.79250531825613E-18
54.1	-3.38360030312995E-19	5.36336023075566E-18	0.676285788329839	-0.749149595584679	0.676285788329839	-0.749149595584678	1.93793088993106E-18	1.57758493870104E-18
54.2	6.91363930359962E-19	-1.12441265718043E-17	0.566854241977133	-0.857179757530831	0.566854241977132	-0.85717975753083	-3.08315303649618E-18	-1.66064982609372E-17
54.3	-5.950708855984E-19	1.9614960715251E-18	0.38046147901985	-0.955048341021992	0.38046147901985	-0.955048341021991	-5.32467401192287E-18	-5.04262054835504E-18
54.4	-3.1655365876737E-17	-8.27671366892176E-18	0.314284341566927	-0.931924018743554	0.314284341566927	-0.931924018743554	-1.01616328761636E-17	1.33523006775635E-17
54.5	-3.77485142419583E-18	9.55791079556843E-18	0.0962028721487368	-1.07355422882607	0.0962028721487371	-1.07355422882607	-2.30823143143706E-17	-8.26634487342326E-18
54.6	-1.04833787993025E-17	8.09773386963023E-18	-0.0530145710397684	-0.998857579675172	-0.0530145710397679	-0.998857579675172	-2.4123485298394E-17	3.57313842934239E-17
54.7	2.65124254547007E-17	1.30838921519112E-17	-0.177291349706708	-1.03762312554661	-0.177291349706708	-1.03762312554661	1.62352597053085E-17	-1.63915307867206E-18
54.8	-1.74791145498914E-17	-3.03815820467885E-18	-0.356233655891938	-0.991152029552613	-0.356233655891938	-0.991152029552612	-1.25791214853659E-17	2.89792625330236E-18
54.9	2.86234236047983E-18	6.39551523957236E-18	-0.496013026152856	-0.899406040262459	-0.496013026152856	-0.899406040262459	3.09555930729468E-18	1.95295967990201E-18
55	8.28809290354657E-19	1.86748394970305E-17	-0.612186332773784	-0.845459576850319	-0.612186332773784	-0.84545957685032	1.14164091643814E-17	1.36974221878541E-17
55.1	-1.15386006499716E-17	-1.00374148762999E-18	-0.74935751382407	-0.738611220495856	-0.74935751382407	-0.738611220495855	1.13830050803096E-17	-9.76784550748193E-18
55.2	-3.01489572258263E-18	2.80109019052681E-18	-0.824385432522327	-0.617509294849854	-0.824385432522327	-0.617509294849854	7.52018240801124E-18	9.30341563359499E-18
55.3	1.97431703202379E-18	-2.05415345567301E-18	-0.928732792074919	-0.466362664189697	-0.92873279207492	-0.466362664189697	3.7084876666437E-18	1.12542206800998E-17
55.4	7.33046004617691E-19	-1.38571991668831E-17	-0.980166276034994	-0.367202160972677	-0.980166276034993	-0.367202160972677	2.49744096703496E-18	-2.86537634471459E-18
55.5	-6.4447209961706E-18	-1.07524698616465E-17	-1.04555516666641	-0.188152690770186	-1.04555516666641	-0.188152690770186	6.31198076834241E-18	-2.82013814731315E-17
55.6	4.55532748416759E-18	-8.90327025102676E-18	-1.03357606974347	-0.0477929857366808	-1.03357606974347	-0.0477929857366807	1.07524773621809E-17	4.72671013653947E-18
55.7	1.58461528408446E-17	-2.15238029995052E-20	-1.05476417586024	0.0987525672515466	-1.05476417586024	0.0987525672515458	1.43368158746049E-17	-1.06334258187539E-17
55.8	-1.52722478319685E-17	2.19969342445354E-17	-1.02017399340763	0.269419114907462	-1.02017399340763	0.269419114907462	-1.80191853290461E-17	1.91147219626046E-17
55.9	-1.02366077162118E-17	6.1409539763984E-18	-0.974545649773989	0.403628581339341	-0.974545649773989	0.403628581339341	-2.11550812616116E-17	4.77533972848856E-18
56	0	0	-0.878337540358783	0.547249741328198	-0.878337540358783	0.547249741328198	2.07102926248424E-17	-8.4586910537128E-18
56.1	-1.08687504249772E-17	-2.39521456272734E-18	-0.823380809178195	0.661684223064142	-0.823380809178196	0.661684223064143	-1.50506185176663E-18	-2.01518518152963E-17
56.2	7.46817738980579E-18	-2.65368618356333E-18	-0.721224799436446	0.788341401320949	-0.721224799436446	0.788341401320948	-1.12009689145967E-17	-2.97859346699613E-18
56.3	-8.19636666493615E-21	-8.37076702830952E-18	-0.545669354413865	0.883878887028539	-0.545669354413865	0.883878887028539	-1.67702213399463E-17	-2.92812918657535E-17
56.4	9.43541744177751E-18	7.60130560518655E-18	-0.473278237090278	0.951501195468018	-0.473278237090278	0.951501195468018	1.28386610800262E-17	-2.19955909512039E-17
56.5	1.42290453112679E-17	1.85438130294833E-17	-0.311895618687923	1.03059267409999	-0.311895618687923	1.03059267409999	1.56221375247609E-17	1.28258327171134E-17
56.6	1.22623856358616E-17	-1.74838853052423E-18	-0.149328450303294	1.02933463635543	-0.149328450303294	1.02933463635543	-3.33890498914744E-17	1.35924280644413E-17
56.7	1.64454156448091E-17	-7.19572269366042E-19	-0.00793254860430255	1.05564575044112	-0.00793254860430222	1.05564575044112	5.8572433712037E-18	-3.7789325190723E-18
56.8	1.90733935499731E-17	-1.47975761485979E-17	0.124846714773137	1.06588589001199	0.124846714773137	1.06588589001199	3.42106550128756E-17	-2.45533280211877E-17
56.9	3.73545979503995E-18	1.34161651539491E-17	0.285080497861703	1.01067802629466	0.285080497861703	1.01067802629466	2.04925281320329E-17	-1.34158550674286E-18
57	1.92269153533187E-17	-3.68737461092804E-18	0.452025588630676	0.925920137998572	0.452025588630676	0.925920137998573	-1.03395081384321E-17	1.27729924993281E-18
57.1	3.35060992199739E-18	1.98958025738761E-17	0.563488930381435	0.882453463812951	0.563488930381434	0.88245346381295	-1.39762581769575E-17	1.65769267447868E-17
57.2	1.66131411541456E-17	-8.28197604972928E-18	0.69122567124562	0.820227399772371	0.69122567124562	0.820227399772371	1.8041645067529E-17	1.07708296929337E-18
57.3	-1.01183477754611E-17	6.79686447138325E-18	0.838774725506093	0.638330414214787	0.838774725506093	0.638330414214786	1.42487239682475E-17	-9.93849056610766E-18
57.4	-4.16213118726361E-18	2.516651612792E-17	0.848274238355819	0.547731260011836	0.848274238355818	0.547731260011836	6.65277410499495E-18	3.19272143927956E-17
57.5	1.07476483505257E-17	9.0733019643503E-18	0.977099026045665	0.438117464517405	0.977099026045665	0.438117464517405	-5.14436872287486E-18	-2.07255684481187E-17
57.6	-6.98800790342984E-18	-1.63284081074611E-18	1.03187097892857	0.267795383527408	1.03187097892857	0.267795383527408	-1.45603285534614E-17	9.94639183742656E-18
57.7	-1.18863609258373E-17	-2.76175702056688E-18	1.01421611041166	0.116276228720572	1.01421611041165	0.116276228720572	-4.79344890225652E-18	-1.13217797295367E-17
57.8	-2.93634725476224E-18	-1.90856880209859E-18	1.05820918786156	-0.0061593807246619	1.05820918786157	-0.00615938072466172	-6.73087130461654E-18	5.90661484103879E-18
57.9	1.12188447962654E-17	-6.23478579671065E-18	1.05989099771856	-0.140418357093969	1.05989099771856	-0.140418357093969	-3.93636125070476E-18	8.24991040363538E-18
58	-5.84845268246773E-18	-2.22870018419302E-17	0.98787219790626	-0.351257748174797	0.987872197906261	-0.351257748174798	-1.01810783972504E-17	-6.46542851821761E-18
58.1	-3.94993188697332E-18	4.80041490684079E-18	0.915001851731868	-0.432044525894097	0.915001851731868	-0.432044525894097	-1.06716489180481E-17	5.01996303927553E-18
58.2	1.68658799940564E-17	-3.51207431466287E-17	0.882039071227424	-0.586146243262883	0.882039071227424	-0.586146243262882	-1.9182908132425E-18	-9.24729258784638E-18
58.3	-8.29745042557459E-19	-1.9877281722653E-18	0.770153418806074	-0.719339793586693	0.770153418806074	-0.719339793586693	7.40423441093846E-19	1.74300202283772E-17
58.4	4.81758667851471E-18	9.81746514385632E-18	0.656946047968831	-0.751785467379088	0.656946047968831	-0.751785467379088	1.51402542471958E-17	-2.99653978784952E-17
58.5	-2.10833793263041E-17	1.12525178795008E-17	0.587819549966967	-0.893609467812674	0.587819549966967	-0.893609467812675	-1.91187787189299E-17	1.5808605289762E-17
58.6	-2.14416071313727E-18	-1.35677163185967E-17	0.420606832011603	-0.959772573038586	0.420606832011603	-0.959772573038586	6.45536822627024E-18	7.00285144798378E-18
58.7	-1.51490680529285E-17	-5.08594996980384E-18	0.274421070132608	-0.975196445581495	0.274421070132608	-0.975196445581494	3.80385151014314E-19	-9.15713266978964E-18
58.8	-3.28940984818414E-19	-2.03843775301185E-18	0.15605639037592	-1.01993417067271	0.15605639037592	-1.01993417067271	-5.2929607969895E-18	6.08291733698486E-18
58.9	5.96963200172867E-18	-3.47624890959767E-18	0.0318820352942418	-1.05045161795308	0.0318820352942418	-1.05045161795308	-1.24191145317474E-18	-2.69480991887181E-17
59	-2.34387734875416E-17	2.10205882372618E-18	-0.156899862249581	-1.01749519411133	-0.156899862249581	-1.01749519411133	-1.75324842016954E-17	5.53879358335393E-18
59.1	-5.71116182933211E-19	4.49621076274714E-18	-0.261406933172183	-0.988307812678295	-0.261406933172183	-0.988307812678295	-3.1794535151562E-19	-9.72614631922122E-18
59.2	-1.32492878308797E-17	-1.0875318866976E-17	-0.397654234684016	-0.981754704150728	-0.397654234684015	-0.981754704150728	-2.13364541677535E-17	-1.08302725340378E-17
59.3	1.83043695579572E-18	-1.02911772924328E-17	-0.558737507665769	-0.85988889766854	-0.558737507665769	-0.85988889766854	-2.31537533717727E-18	7.17429588577834E-19
59.4	1.02908460670088E-17	2.23540313207795E-17	-0.634938789797815	-0.809081267373332	-0.634938789797815	-0.809081267373333	1.47321595240716E-17	9.27294622745058E-18
59.5	-1.63464701897335E-17	-1.6551945728443E-18	-0.771562603234132	-0.706497701645198	-0.771562603234131	-0.706497701645198	-6.04902481193589E-18	-3.75476192071029E-18
59.6	-1.04417194908161E-17	3.23023672715573E-18	-0.847856767936892	-0.572386798006976	-0.847856767936892	-0.572386798006977	-7.57029359368731E-18	5.49807996602374E-18
59.7	-1.09559505752575E-18	-1.08664297337126E-17	-0.92948435405522	-0.477113697205234	-0.929484354055219	-0.477113697205234	-8.0611901846826E-18	-1.28606627235003E-17
59.8	3.30444957530987E-18	1.46131974623452E-17	-0.995906264916032	-0.337604863032581	-0.995906264916032	-0.337604863032581	1.05463513615368E-17	9.89092689023116E-18
59.9	6.95559294821249E-18	2.84739304247083E-18	-1.01950156665516	-0.208882074559292	-1.01950156665516	-0.208882074559292	-7.89538265944078E-18	-1.84454678388918E-18
60	-2.06988894817966E-18	-2.07415492840035E-17	-1.03586456891044	-0.0416582298088004	-1.03586456891044	-0.0416582298088004	4.94536552261645E-18	-3.34246271756575E-18
60.1	-2.85064081010397E-17	1.22669597528553E-17	-1.02285926123407	0.0863981879775615	-1.02285926123407	0.0863981879775617	-1.37832041566957E-17	7.22804510983186E-19
60.2	1.69436234686801E-17	-2.93788339501953E-18	-1.03034910621219	0.206929762658575	-1.03034910621219	0.206929762658574	5.75788618112637E-19	-8.54878147439826E-18
60.3	1.15516077602316E-17	-8.33489057064874E-18	-0.967909816010891	0.385240862066986	-0.967909816010891	0.385240862066986	9.1473021549047E-19	3.02184658037914E-18
60.4	6.43500710206197E-18	2.02165336850801E-19	-0.901924762700801	0.464626267649649	-0.901924762700801	0.464626267649649	-9.9622156452802E-18	1.66897859009476E-18
60.5	-1.40541025580083E-17	6.44047995308643E-18	-0.845944299953561	0.615853855342978	-0.845944299953561	0.615853855342978	3.29472553940475E-18	-9.32305336818635E-19
60.6	-1.23144293960742E-17	4.16008193418055E-18	-0.748477909124432	0.718122881198819	-0.748477909124432	0.718122881198819	-8.50755243240659E-18	2.44971257183189E-18
60.7	1.34340897938756E-17	-1.58104810449599E-17	-0.640383025874212	0.81682745806066	-0.640383025874212	0.81682745806066	5.30221230357742E-18	5.91347273448524E-18
60.8	1.11667546656597E-17	-1.01130634528185E-17	-0.527164819566817	0.902874139439765	-0.527164819566817	0.902874139439766	2.78851383371741E-17	-2.67443051987564E-18
60.9	4.68607373090047E-18	8.95993962553628E-18	-0.409219949095982	0.96448914436547	-0.409219949095983	0.964489144365471	1.63860569404868E-17	-1.31859547141299E-17
61	6.57536431814587E-18	-1.59859377071371E-19	-0.26040394720511	1.01186930123236	-0.26040394720511	1.01186930123236	3.6717385234922E-19	6.68963695467998E-18
61.1	-1.08549080340225E-18	-7.3361470748661E-18	-0.119897202269405	1.02181163490993	-0.119897202269405	1.02181163490993	-1.9945066310337E-17	8.46602471756764E-18
61.2	1.20284753289478E-17	-1.74071288222792E-17	0.00243928356917892	1.03634457170301	0.0024392835691788	1.03634457170301	2.19263694506669E-20	4.65775040582752E-18
61.3	-1.3641524379223E-17	-1.06104761786647E-17	0.14877702739149	1.04443130910643	0.148777027391491	1.04443130910643	-2.00661994256814E-17	-1.62822291804915E-17
61.4	1.81879427494011E-17	2.50253981711887E-18	0.31904579970859	0.989459262714016	0.319045799708591	0.989459262714017	-6.58265759339084E-19	2.15528447921046E-17
61.5	2.34273272670243E-17	-7.43116898757633E-18	0.398459335550252	0.937755559155611	0.398459335550252	0.937755559155611	1.01162832798103E-17	-1.27612727971333E-17
61.6	-8.86039383067291E-18	4.33340494355039E-18	0.556641815940527	0.909567289062072	0.556641815940527	0.909567289062072	-7.96273941099129E-18	2.57681289290158E-18
61.7	-1.66838608337938E-17	1.76712524224025E-17	0.679633783942297	0.805144866142555	0.679633783942297	0.805144866142555	-6.01875855958157E-18	9.28664746484975E-19
61.8	1.42304749077466E-17	-6.39359819705045E-18	0.75819276740479	0.696899696326469	0.75819276740479	0.696899696326469	-5.68492069912089E-19	4.20206046179091E-18
61.9	-7.92142472955408E-19	8.28033052481065E-18	0.853877278421177	0.585752216740914	0.853877278421177	0.585752216740914	-6.34810304805659E-18	1.06734553819853E-17
62	1.36994612801211E-18	8.82117829502662E-18	0.924304164310591	0.491163820070254	0.924304164310591	0.491163820070254	-3.28815936264115E-18	1.07367889453887E-18
62.1	7.33577329257763E-18	-9.1299906151018E-18	1.00060705333234	0.352184987510288	1.00060705333234	0.352184987510289	-1.29308428713425E-17	-1.19547006279396E-17
