# GHZ S RI R 50
50	-1.81426965573228E-18	-7.9553070146285E-18	0.813765612984224	-0.578758351616382	0.813765612984224	-0.578758351616381	7.69399152017698E-18	-7.38089762198026E-20
50.1	-2.97192939879475E-17	2.50186864924923E-17	0.684404397726789	-0.692507838934749	0.684404397726789	-0.692507838934749	5.60881360609754E-19	-2.220858036572E-17
50.2	-6.19389881140708E-20	-9.56444039022223E-18	0.574348726428086	-0.790830320811805	0.574348726428085	-0.790830320811805	1.06319230917843E-18	-2.08853925807246E-18
50.3	2.5037994816962E-17	-5.58084258349472E-18	0.446149077684503	-0.902217303225782	0.446149077684503	-0.902217303225783	1.60014465927836E-18	2.0948004669708E-18
50.4	4.52510854412615E-18	2.24873285550204E-17	0.249209062529869	-0.927145408795171	0.249209062529869	-0.927145408795172	-3.27758530865962E-18	8.7270653176311E-19
50.5	-1.53696715665264E-17	1.14020536213473E-18	0.131279546451198	-0.984071573726462	0.131279546451198	-0.984071573726462	-1.44018233907135E-17	-5.6839168799358E-18
50.6	6.05107656498256E-18	-6.50877499855384E-18	-0.0505355127242893	-0.980467022243617	-0.0505355127242897	-0.980467022243616	3.43811116231958E-19	3.32637300919424E-18
50.7	2.79745271753941E-17	-1.63702915993939E-18	-0.195300822945689	-0.954975744240526	-0.195300822945689	-0.954975744240527	-3.03172855099955E-18	1.29415609300789E-18
50.8	3.58566974741586E-18	3.83525187084328E-18	-0.368725065640749	-0.9342995060177	-0.368725065640749	-0.9342995060177	-3.32776164569889E-19	9.89456215767886E-18
50.9	-1.76298308708683E-17	1.25929311377582E-17	-0.497668491148222	-0.826573214919704	-0.497668491148222	-0.826573214919704	-1.44397489195664E-17	-3.35702408209618E-19
51	9.25078951030436E-18	-1.45264129617852E-17	-0.64390377953852	-0.755312144991695	-0.64390377953852	-0.755312144991696	-2.16333005770237E-18	1.3498878262172E-17
51.1	2.20444819498141E-17	-1.17362234519884E-18	-0.753366143604414	-0.636312193151873	-0.753366143604414	-0.636312193151873	5.5538751667969E-18	2.47979108567972E-18
51.2	-2.64754819079957E-18	-1.40443368887746E-18	-0.840720388848551	-0.501512934979174	-0.840720388848551	-0.501512934979174	2.13584887720296E-18	-3.0424541288491E-18
51.3	1.08279795230313E-17	1.58279878371502E-17	-0.916261788900515	-0.360544386868757	-0.916261788900515	-0.360544386868757	-1.06142311722023E-18	3.60786558887761E-18
51.4	-1.00709079941404E-17	1.26398655400405E-17	-0.979439472725603	-0.226279340142724	-0.979439472725603	-0.226279340142724	-4.53380846346699E-18	7.54010248663336E-18
51.5	-1.67227235647346E-17	-1.22869199770231E-17	-0.96892531311688	-0.0333536652724468	-0.968925313116881	-0.0333536652724471	-6.28238145425229E-18	-3.70180496562492E-18
51.6	-1.85473736609702E-17	1.29728314838852E-17	-0.985732584027909	0.0911934471514781	-0.985732584027909	0.091193447151478	1.11626415638346E-17	1.34809677633316E-17
51.7	-2.68736300489824E-17	-4.14954895369278E-18	-0.973504333639737	0.251912552102496	-0.973504333639737	0.251912552102497	-2.15229149043818E-17	3.91482648001646E-18
51.8	-6.79289304848439E-18	-1.49494426980556E-17	-0.860784946586268	0.399406026734835	-0.860784946586268	0.399406026734835	-1.21027043186551E-18	1.53419638784305E-17
51.9	-1.99954029849678E-17	8.35835395345801E-18	-0.860801010937874	0.537126444917155	-0.860801010937874	0.537126444917155	3.31115081923722E-18	1.35493624210071E-17
52	5.71390516547236E-19	6.61175521967953E-18	-0.701860251309223	0.675583170765372	-0.701860251309222	0.675583170765372	-4.30894008716235E-18	4.98393532732136E-18
52.1	2.25900785143442E-18	-7.67180519131076E-18	-0.594927078473051	0.762269237355496	-0.594927078473052	0.762269237355497	-1.07207001082325E-17	-2.74956793171417E-18
52.2	-8.10484659848484E-18	1.04526645381013E-17	-0.494894705734599	0.852555913531194	-0.494894705734599	0.852555913531194	2.50805010058624E-18	4.39154346168459E-18
52.3	1.94177232326478E-17	1.26400320139515E-17	-0.358239276808741	0.920626304843936	-0.358239276808742	0.920626304843937	6.1768535967547E-17	1.53023143851645E-17
52.4	-1.50925583681855E-17	-2.00752058433824E-17	-0.193249936897772	0.99766356715348	-0.193249936897773	0.997663567153481	-1.33780779091886E-18	3.32368526837773E-18
52.5	1.70058231673771E-17	6.90378721735665E-18	-0.0615004209090269	0.941511561306534	-0.0615004209090266	0.941511561306534	3.62104901204664E-17	-3.26298772541425E-17
52.6	1.57622825028688E-17	-4.7840733992939E-17	0.0817534957514109	1.01182356957524	0.0817534957514107	1.01182356957524	-6.54422290524677E-17	-2.3765702931252E-17
52.7	-1.65452028529846E-17	-1.82171618322853E-18	0.300976659851613	0.974766328591417	0.300976659851612	0.974766328591417	-3.57873083492509E-17	2.44289516711458E-17
52.8	-9.55133014535128E-18	1.31301504933201E-17	0.332156812855485	0.811813961296262	0.332156812855485	0.811813961296262	3.02310862700226E-17	-3.51349285873328E-18
52.9	4.9899386771434E-18	-3.36904465641186E-17	0.621993629213758	0.90102528018598	0.621993629213757	0.901025280185981	-1.66240313898531E-17	2.03838433872727E-17
53	-4.04742878166991E-18	1.0351806716727E-17	0.631324734877788	0.693932261299309	0.631324734877788	0.693932261299309	-1.78050214766602E-18	-1.35874517199099E-17
53.1	1.0398858342787E-17	-1.2854657156387E-17	0.754727683583903	0.654345206080324	0.754727683583904	0.654345206080324	3.06041287662696E-17	1.83482115621132E-17
53.2	6.57484469822026E-18	-7.17405252155846E-18	0.90133181489764	0.512066694631456	0.90133181489764	0.512066694631456	3.50270609932075E-17	-6.77117267196187E-18
53.3	1.53865676216099E-17	-9.85870733927619E-18	0.914208036524382	0.381073745515925	0.914208036524382	0.381073745515926	1.93820492438076E-17	-2.87933360067172E-17
53.4	1.28536193336747E-17	2.26810296356945E-18	0.945923575938145	0.172132373661695	0.945923575938145	0.172132373661695	2.0800069799744E-17	2.6676971339286E-17
53.5	1.19056535548259E-17	1.31467480974813E-17	1.0193043547759	0.11908778925303	1.0193043547759	0.11908778925303	8.07828434179454E-19	-1.52981025451903E-17
53.6	-4.31899593513751E-18	-1.72782044478486E-17	1.00780463437724	-0.0985684305972445	1.00780463437724	-0.0985684305972444	-9.68486792578076E-19	-3.24448911262976E-17
53.7	5.08258669209197E-18	4.16845138867292E-18	0.910576439662629	-0.258293089732734	0.910576439662629	-0.258293089732734	-1.53889107793916E-17	-2.37499070520905E-18
53.8	-6.3313390037135E-18	4.81115799652874E-18	1.014503605218	-0.341724236348773	1.014503605218	-0.341724236348773	7.53412850284568E-18	-3.22832324560037E-18
53.9	-2.15375760338815E-17	-4.27150842284539E-18	0.860176985745111	-0.522194145137782	0.860176985745112	-0.522194145137782	1.93861760601246E-17	1.60221218526597E-17
54	5.40578177095991E-18	1.96671345571321E-17	0.750521026253653	-0.640156871628885	0.750521026253653	-0.640156871628886	-3.13697023160306E-18	-1.24670407040964E-17
54.1	-1.56119913156462E-17	-8.18249525675586E-18	0.670822776318405	-0.71647840882309	0.670822776318405	-0.71647840882309	1.24611703966002E-17	-1.42191561836026E-17
54.2	-2.97415497512094E-18	1.88123005505243E-17	0.565848396850581	-0.824619454327119	0.565848396850582	-0.824619454327119	1.47551580196735E-17	-7.54854709421888E-18
54.3	1.40359178794506E-17	-5.30003809920606E-19	0.384311747823874	-0.920371896352119	0.384311747823874	-0.92037189635212	1.16024597669098E-17	-1.76414635912754E-18
54.4	-2.80444524126961E-17	3.77342162668358E-18	0.325478649166523	-0.903373822929556	0.325478649166522	-0.903373822929555	-2.55907683760867E-18	3.31838860505599E-17
54.5	-3.29986112230071E-19	-4.48437684722516E-17	0.108120023572309	-1.0424152862027	0.108120023572309	-1.0424152862027	-2.31881045785335E-17	-3.79567308315332E-17
54.6	-5.87458145704509E-18	1.02665355413698E-17	-0.0331866817051699	-0.971840659412751	-0.0331866817051704	-0.97184065941275	-2.9191079504943E-17	2.99463957565335E-17
54.7	1.06348307637734E-18	-8.00459617703606E-18	-0.156569737957893	-1.01448860963675	-0.156569737957892	-1.01448860963674	3.94715299059522E-18	6.42023898178889E-18
54.8	-3.34994503158145E-18	-4.33180638519918E-18	-0.331558967894899	-0.970723169466847	-0.331558967894899	-0.970723169466847	3.2151580413387E-18	-4.79388049331451E-18
54.9	2.65615954530365E-18	-2.64963326405818E-18	-0.46748385170854	-0.88380838528541	-0.467483851708541	-0.883808385285411	6.28261501594779E-18	-3.06527514532945E-18
55	-4.54371439759055E-18	4.56197079813461E-18	-0.583271890321469	-0.834702565087238	-0.583271890321469	-0.834702565087238	-5.06738966407571E-18	-1.8554026758948E-18
55.1	9.03192943017807E-18	5.35503757253557E-18	-0.718779390840735	-0.731878128070191	-0.718779390840735	-0.731878128070191	3.58434132540549E-18	3.71619267226108E-18
55.2	1.04545158801427E-17	-1.48726952703974E-17	-0.793679672010143	-0.616817406152543	-0.793679672010142	-0.616817406152543	-2.13123717014702E-18	-1.26573606453812E-18
55.3	7.3704059777749E-18	-1.86025762660753E-18	-0.897217298614034	-0.469837796042552	-0.897217298614034	-0.469837796042552	1.91219694601422E-17	-2.08283420812105E-17
55.4	-5.44147490979594E-18	9.82150714012691E-18	-0.951750211179095	-0.375137568772362	-0.951750211179095	-0.375137568772362	-1.02633408745014E-17	3.76047289081031E-17
55.5	-8.51657952305007E-18	-1.85885762517849E-17	-1.01730170494281	-0.199883150196696	-1.01730170494281	-0.199883150196696	1.15653213301741E-17	1.60578795133643E-17
55.6	-7.20741849588023E-18	-1.34369179163703E-17	-1.00877127515165	-0.0646071094516898	-1.00877127515165	-0.0646071094516899	-1.79818207590511E-17	-1.30355725483992E-17
55.7	1.30021896657561E-17	1.39970918579322E-17	-1.03286919820731	0.0795878852503659	-1.03286919820731	0.0795878852503663	1.36599485726764E-17	1.67209127748111E-17
55.8	-1.49262759507715E-18	8.07106745823698E-18	-1.00108716330537	0.246627854038165	-1.00108716330537	0.246627854038165	-4.69844019228747E-18	1.28761702991575E-17
55.9	1.75944345302285E-19	-5.2204006523177E-18	-0.959757113952737	0.378732680829999	-0.959757113952736	0.378732680829998	5.71899943171791E-18	4.76578795924306E-18
56	-1.00066217414345E-17	1.67823556037363E-17	-0.86785136440219	0.519364317017775	-0.86785136440219	0.519364317017775	-1.46412660089598E-17	1.22834274614641E-17
56.1	4.05669851446237E-18	-8.77237340485584E-19	-0.817135962299898	0.634257711248935	-0.817135962299898	0.634257711248936	1.45159715697892E-17	-1.92752986530936E-17
56.2	-1.07803922909522E-18	1.96282601901099E-18	-0.718694851268395	0.760377957198787	-0.718694851268394	0.760377957198787	1.51678592701584E-17	-8.55598211087226E-19
56.3	-6.12939807183446E-19	6.17428400338646E-18	-0.548336080356597	0.853909557691101	-0.548336080356598	0.853909557691101	1.08199718709388E-17	1.07660468914997E-17
56.4	-5.20863627879264E-18	1.05871662734182E-17	-0.479560219734116	0.92503586569957	-0.479560219734116	0.92503586569957	-7.10402580602045E-18	-1.90364919470794E-18
56.5	-3.07719804354135E-18	1.26209749756649E-17	-0.321585906322408	1.00452218934388	-0.321585906322408	1.00452218934388	2.15542338545693E-17	2.96001598838651E-17
56.6	-9.52310948868236E-18	-5.57370066647827E-18	-0.164383031089261	1.00540268874184	-0.164383031089261	1.00540268874184	-2.39201143696613E-17	3.35906531607193E-18
56.7	-1.61389639414348E-17	6.64182252877068E-18	-0.0255729424322086	1.03454380132151	-0.0255729424322085	1.03454380132151	-2.07580008915728E-17	4.36142772136294E-17
56.8	1.30171525149955E-17	-3.62818032861745E-18	0.105452580476901	1.0482818105793	0.105452580476902	1.0482818105793	7.13006515034318E-18	-4.46778300665463E-17
56.9	8.33109293286005E-18	1.63673259738227E-18	0.262225503834413	0.996479726840137	0.262225503834413	0.996479726840137	2.52031802742661E-17	9.02326888965532E-18
57	-1.83511722012486E-17	5.33490649323994E-18	0.425708590179894	0.915022033132318	0.425708590179895	0.915022033132318	-1.19497490942308E-17	-7.75288628348487E-18
57.1	-9.51581172051377E-18	-1.76752649465551E-17	0.537520912970057	0.875876238791909	0.537520912970057	0.875876238791909	-2.15695374734858E-17	4.24689682158494E-17
57.2	2.23011092336785E-17	3.01692045994682E-17	0.665687834185416	0.816945491550513	0.665687834185416	0.816945491550513	4.11203884359574E-17	1.04454179830711E-17
57.3	5.2695286663579E-18	1.01213550602638E-17	0.809717738733356	0.638710402138356	0.809717738733355	0.638710402138356	1.04836452655648E-18	-1.54286858930284E-17
57.4	1.0956335826973E-18	-4.12518387938576E-18	0.822433406495207	0.554782702059947	0.822433406495207	0.554782702059946	1.96940076965711E-17	5.78715224888949E-17
57.5	6.51171544015191E-18	-4.27250726654549E-19	0.95241083848447	0.446331186299046	0.95241083848447	0.446331186299046	9.14962429175201E-18	7.98971716028759E-18
57.6	-4.08064653239448E-18	8.61947405981643E-18	1.00781392894552	0.279912920923648	1.00781392894552	0.279912920923648	-1.19104983159606E-17	2.16276473771661E-17
57.7	1.38814554392863E-17	-1.60623611870753E-17	0.993081809961613	0.133567960794292	0.993081809961614	0.133567960794292	7.11047272052005E-18	-6.17874916424641E-18
57.8	-1.4437203959155E-17	-5.03205138663871E-18	1.04027078302265	0.0121395373799426	1.04027078302265	0.0121395373799425	3.75399688294208E-18	8.76271697964162E-20
57.9	-1.25193443072082E-17	-3.9784438415037E-18	1.04537362656769	-0.120535429793715	1.04537362656769	-0.120535429793715	2.64811031038794E-18	-5.55061432704184E-18
58	2.41570021627904E-18	8.52077218172482E-18	0.974938661307301	-0.326956705973411	0.974938661307302	-0.326956705973412	-1.26794618516399E-18	4.40699211759607E-18
58.1	-2.31133834785083E-18	1.29067379584355E-17	0.908282878522777	-0.406671227745332	0.908282878522777	-0.406671227745332	-2.91717624073197E-17	3.8945654441803E-18
58.2	-1.30836702067548E-17	1.26108788692065E-17	0.877458568610889	-0.561118853169707	0.87745856861089	-0.561118853169707	-3.07746207459715E-17	3.96768891077488E-17
58.3	-6.20395185557762E-18	1.22212530817386E-18	0.76916938087795	-0.693066068623035	0.769169380877951	-0.693066068623035	7.39804327396363E-18	7.7216678192868E-19
58.4	2.52529736902667E-17	1.78815098647733E-17	0.662579767695179	-0.726879713815436	0.662579767695179	-0.726879713815436	2.30831982594748E-17	-5.51165631338611E-18
58.5	1.38883896810539E-17	9.0503047364514E-18	0.594151954145804	-0.870540977065757	0.594151954145804	-0.870540977065757	7.8025863193457E-18	9.36256866476129E-18
58.6	4.80823824376001E-18	-1.1405191628088E-17	0.431156453207357	-0.936873110016073	0.431156453207357	-0.936873110016072	-2.0805034094497E-17	-1.86213821139525E-17
58.7	1.06292689120554E-18	1.31671556099181E-17	0.289589948550007	-0.954582481731275	0.289589948550007	-0.954582481731276	2.36985157227839E-17	2.6510389332903E-19
58.8	-1.32702581980286E-17	1.05202543496945E-17	0.173041462247326	-1.0024127239698	0.173041462247326	-1.0024127239698	9.95269364852145E-18	-7.89019076227089E-18
58.9	-6.53109206121467E-18	-1.00106259258801E-17	0.050120056661746	-1.03613176669882	0.0501200566617456	-1.03613176669881	3.5076687902726E-18	-7.16169332685039E-18
59	-2.78087728706639E-18	-3.40059167771606E-18	-0.135113035447134	-1.00509489407076	-0.135113035447134	-1.00509489407076	2.74765638228339E-18	-1.02324479232047E-17
59.1	-2.15322729728462E-17	1.41397445804561E-17	-0.238917750258739	-0.980606703268038	-0.238917750258739	-0.980606703268038	-1.8109972166823E-17	-9.02725567799884E-18
59.2	2.41051376152567E-18	5.50327076245305E-18	-0.375801879924942	-0.976727329642399	-0.375801879924942	-0.976727329642399	-5.20764437189361E-18	4.86367513342273E-18
59.3	2.69899673442542E-17	-1.76973692240327E-17	-0.533954980804132	-0.858196930443826	-0.533954980804132	-0.858196930443826	7.72966376927937E-18	3.49965473729122E-19
59.4	4.68021286677384E-18	1.62601002207355E-17	-0.61230325327086	-0.811783548743119	-0.61230325327086	-0.811783548743119	1.86002066541225E-17	3.44983724359393E-18
59.5	1.82139916286109E-17	1.18108100189505E-17	-0.748899930364604	-0.711532159933033	-0.748899930364604	-0.711532159933034	1.8369180025452E-18	-3.25763179170961E-19
59.6	-4.87579773551948E-18	7.38463093585359E-18	-0.825850007059263	-0.58155049056893	-0.825850007059262	-0.58155049056893	1.93844696979127E-18	5.41542088745303E-18
59.7	4.66849948925434E-18	5.7851323902431E-18	-0.90997737200764	-0.488466671322812	-0.909977372007639	-0.488466671322812	6.52082828771611E-18	8.99724501925964E-18
59.8	-2.37367249795228E-17	2.27328904465626E-18	-0.977999507682648	-0.351421116064962	-0.977999507682648	-0.351421116064961	-3.45094548666352E-18	5.65370928067E-18
59.9	-8.34476031155173E-19	1.76653073461136E-18	-1.00459474406858	-0.225337657346719	-1.00459474406858	-0.225337657346719	1.89459395168204E-18	-7.23951055229349E-18
60	3.54704282974673E-18	-2.98385198663216E-17	-1.02280923585778	-0.0605797666058316	-1.02280923585778	-0.0605797666058316	3.78745417867977E-18	-8.71951727799928E-18
60.1	5.01597493436455E-18	2.4608512206531E-17	-1.01348163944213	0.0658516436579981	-1.01348163944213	0.065851643657998	1.04546196344391E-17	2.48010104922629E-17
60.2	-3.73641675670333E-17	2.61489475021584E-17	-1.02424322911236	0.186719743901079	-1.02424322911236	0.186719743901079	-3.0413622042075E-18	2.12430942002961E-17
60.3	-1.90557393914495E-18	-7.76685044206389E-19	-0.963995116883875	0.362916512238574	-0.963995116883875	0.362916512238574	4.24193851974052E-18	-4.87575673238215E-20
60.4	9.46430374619202E-18	-1.04308922176994E-17	-0.903131795567152	0.442915060425551	-0.903131795567153	0.442915060425552	1.75272568955215E-17	7.46696252208023E-18
60.5	2.94538239799851E-18	1.0984819285547E-17	-0.84889738414587	0.594600395744935	-0.848897384145871	0.594600395744935	4.17907691939826E-18	3.50235738178901E-18
60.6	-7.16381936200566E-18	-2.40373960041988E-18	-0.754846279097137	0.697621755399973	-0.754846279097137	0.697621755399974	-3.87027897978799E-18	2.45213220548918E-18
60.7	5.67505853614103E-18	-1.33517269308496E-17	-0.649587956885759	0.79743314456281	-0.649587956885759	0.797433144562809	-6.90522817173259E-18	-1.07538991720121E-17
60.8	-1.08196160904899E-17	2.36826373949975E-17	-0.538752630563666	0.885163460570683	-0.538752630563667	0.885163460570682	-2.78845870983888E-18	1.70423737092696E-18
60.9	-5.43545919071188E-18	-5.34656462321973E-18	-0.423066505187373	0.94912873488587	-0.423066505187374	0.94912873488587	3.89759288876743E-18	1.53404757610324E-18
61	-6.70411362049398E-18	3.19435683210988E-19	-0.276501011419432	0.998311880249434	-0.276501011419432	0.998311880249433	1.24505410724222E-17	9.57375728032169E-19
61.1	5.91298820419525E-18	1.24317495373087E-17	-0.138249762534492	1.01110873284747	-0.138249762534492	1.01110873284747	5.96288599187741E-18	1.05701819637697E-17
61.2	-1.53139790330586E-17	-9.56825948162867E-18	-0.0165750380034068	1.02891457887985	-0.0165750380034065	1.02891457887985	1.48100091180362E-18	1.10752578444647E-17
61.3	6.67496162202221E-18	3.41355152093172E-17	0.129462893123685	1.03935047765068	0.129462893123685	1.03935047765068	8.66429808629385E-18	-6.48653622587901E-18
61.4	-3.81893694888914E-17	-2.84019371929599E-18	0.297910182177586	0.986757935870075	0.297910182177586	0.986757935870075	7.54357997225598E-19	7.79652167193139E-18
61.5	-2.26078649539612E-17	-2.97231228942835E-18	0.378297221405226	0.939850888814483	0.378297221405226	0.939850888814484	-9.47364606734218E-18	1.71253428418498E-17
61.6	4.53429456097094E-18	-4.16251150451296E-18	0.537515809344088	0.912756073709345	0.537515809344088	0.912756073709345	-7.33086801495493E-18	-6.84791472351366E-18
61.7	-1.05119658204853E-17	-1.47792084927613E-17	0.660514392094202	0.811287736621495	0.660514392094202	0.811287736621494	-3.76644457090097E-18	-5.37504506729385E-19
61.8	-6.88803063320079E-20	-1.47496139658104E-18	0.740432635657174	0.70666157997622	0.740432635657174	0.70666157997622	5.26177624364905E-19	-8.21140484649931E-18
61.9	-3.28446995779993E-18	-9.55256873817096E-18	0.837553692625688	0.597701812456946	0.837553692625688	0.597701812456945	-8.15535002765289E-18	-2.53687303422189E-18
62	1.23626099995336E-17	5.58305754013689E-18	0.910798413387055	0.504805606634267	0.910798413387055	0.504805606634267	5.88219815696364E-18	-3.48966426776249E-19
62.1	2.94636934321938E-18	-6.37480299921651E-18	0.988607253311592	0.367181536088197	0.988607253311591	0.367181536088197	1.71866229277666E-17	-1.03396732354381E-17
