# GHZ S RI R 50
50	2.50298388335692E-17	1.95252247025993E-17	0.855636790988256	-0.616873737748132	0.855636790988257	-0.616873737748132	-7.30382329977089E-18	5.70493583011207E-18
50.1	9.70898850655515E-18	7.13914985461926E-18	0.719833815016686	-0.736453559757487	0.719833815016686	-0.736453559757487	-8.96730060291283E-18	-9.91637516796982E-18
50.2	-1.24673468705891E-17	-2.0771658001998E-17	0.602340415553969	-0.841357631751538	0.602340415553968	-0.841357631751538	8.82883299316343E-18	2.88038252979112E-18
50.3	-3.25473499339269E-18	-8.07768360880196E-18	0.463858601612152	-0.958160615353843	0.463858601612152	-0.958160615353843	1.55981212230233E-18	-4.36619756486253E-18
50.4	5.17362846146343E-18	1.27073679185631E-17	0.258658391036354	-0.983167683183767	0.258658391036355	-0.983167683183767	-1.2486047334995E-17	-7.05836975121314E-18
50.5	9.2207428213393E-18	3.40037425772992E-17	0.129878071373483	-1.0437781708232	0.129878071373483	-1.0437781708232	-1.63273556842013E-17	1.36888943985367E-17
50.6	4.92479283570653E-18	-6.25909976224898E-18	-0.0617262472651356	-1.03842315702758	-0.0617262472651357	-1.03842315702758	7.45592839863701E-18	-8.89537951028295E-19
50.7	-3.62167278834759E-18	-1.71845811899925E-17	-0.21593617156864	-1.01149481608729	-0.21593617156864	-1.01149481608729	1.78364372213089E-19	-4.1456825851631E-18
50.8	1.90187954197797E-18	1.32285044502773E-17	-0.400509291742882	-0.986118189225838	-0.400509291742882	-0.986118189225837	1.52376128407544E-18	-9.7069230281901E-18
50.9	-8.78631027701695E-19	9.76782347498615E-18	-0.535804577031499	-0.873351156848988	-0.535804577031499	-0.873351156848989	8.25131106499337E-18	-1.62351225239749E-17
51	-5.74186778850208E-18	1.32811390574907E-17	-0.691193898661727	-0.794542574625544	-0.691193898661727	-0.794542574625544	2.37042362919411E-17	1.10841882616011E-17
51.1	-1.53026684456466E-17	9.78075773039978E-19	-0.806690243504668	-0.667564212421051	-0.806690243504668	-0.667564212421051	-1.15659523905041E-17	2.66467322887165E-19
51.2	3.45292142236898E-18	9.90903304131195E-18	-0.898664984502133	-0.52391410557583	-0.898664984502133	-0.52391410557583	6.31787519345763E-18	-7.89100879780481E-18
51.3	-2.39721521634755E-18	-1.55040729188812E-17	-0.977807101385224	-0.372783708680205	-0.977807101385224	-0.372783708680205	-2.5848460655052E-18	-9.94345599060483E-18
51.4	9.04533858971845E-18	5.22401986833212E-18	-1.04407341634538	-0.227336570406637	-1.04407341634538	-0.227336570406637	-3.93089302485405E-18	8.00313670145115E-18
51.5	-5.99449091851505E-19	2.15552577876712E-17	-1.03086922330017	-0.0253592519079408	-1.03086922330017	-0.0253592519079409	3.77541864510214E-18	-1.66096298974911E-18
51.6	1.02899076336889E-17	1.01249295428973E-17	-1.04835449079805	0.110539867544221	-1.04835449079805	0.110539867544221	3.41650884448019E-17	-3.87024304063279E-19
51.7	6.80817810211102E-18	1.74668595262543E-18	-1.03254958698174	0.282577380210789	-1.03254958698174	0.282577380210789	-2.05671832486954E-18	6.19090466206179E-20
51.8	1.25047962636327E-17	-1.30852642087612E-18	-0.913900020486848	0.435651504979724	-0.913900020486847	0.435651504979724	9.65850394379347E-18	-1.32672788276981E-18
51.9	8.5985125387939E-18	-9.20112632884199E-18	-0.908407038950215	0.586988208428199	-0.908407038950216	0.5869882084282	-3.17885223192746E-17	1.12694207582477E-17
52	-4.42436411298607E-18	-1.73670210509847E-17	-0.739542508801112	0.728886484921216	-0.739542508801112	0.728886484921217	-1.9409551331961E-17	-1.59477682643833E-17
52.1	9.9693784401147E-18	8.26849108331653E-18	-0.62490757412817	0.821848435074261	-0.62490757412817	0.821848435074262	4.37673653810638E-18	8.86037319995175E-18
52.2	-1.52813561390205E-17	-1.9327400957838E-18	-0.515036976006243	0.918752041894289	-0.515036976006243	0.918752041894288	-1.67281459223172E-17	3.16623634239583E-17
52.3	3.31878567809753E-18	-2.90578316771882E-17	-0.367531761295899	0.990076935085601	-0.367531761295899	0.990076935085601	-4.3576905365835E-17	-3.24171224993561E-17
52.4	-1.77335585182994E-17	-3.46896335836685E-17	-0.188689881348507	1.06767828944775	-0.188689881348507	1.06767828944775	-6.84478470504187E-17	-2.06320033383112E-17
52.5	-3.80898410422881E-18	2.29343017537192E-18	-0.0513793824778917	1.01122242196227	-0.0513793824778916	1.01122242196227	1.98560839011756E-17	-1.94289925763508E-17
52.6	-7.62357852653228E-18	3.63144398730246E-18	0.108240347624625	1.08115765085341	0.108240347624625	1.08115765085341	-4.44346721349982E-18	-1.16383735963478E-17
52.7	-6.29497534265364E-18	-2.59787627864002E-17	0.338608918268098	1.03472741311984	0.338608918268097	1.03472741311984	9.17766213595886E-18	-1.18258886375975E-17
52.8	8.68201540021846E-19	-1.43280625221852E-17	0.369644668004636	0.872285323959473	0.369644668004637	0.872285323959474	-1.24485327361697E-17	-2.07180670865838E-17
52.9	-1.49006364686127E-17	7.49869013985644E-18	0.683086772098678	0.945145858127004	0.683086772098678	0.945145858127005	-1.19979042237703E-17	-2.38410183497803E-17
53	-2.44752916309407E-18	1.04504153421715E-17	0.689638684879517	0.735920618627245	0.689638684879516	0.735920618627245	1.8297025772777E-17	4.49535173171826E-17
53.1	-2.21882737330087E-18	-2.29503152101395E-17	0.824962145873611	0.686212288917476	0.824962145873611	0.686212288917476	1.47670466058694E-17	3.58620550342241E-17
53.2	-3.00383271417843E-17	-1.86401080722806E-17	0.97585225746531	0.528063171219802	0.97585225746531	0.528063171219801	-4.21821753647751E-17	1.35313813923144E-17
53.3	2.63785806143516E-17	-1.17398391846303E-17	0.991138315660652	0.389800815341954	0.991138315660652	0.389800815341954	-3.97729684406048E-17	1.67469723479199E-17
53.4	-6.90113133833E-18	2.59778980182131E-17	1.01860652001408	0.16883395659896	1.01860652001408	0.16883395659896	3.79919020621784E-18	3.18103715432503E-19
53.5	3.81938840021992E-18	-8.97425215514981E-18	1.099725011712	0.101297401318111	1.099725011712	0.101297401318111	-2.74797219709505E-17	-1.42516193981145E-17
53.6	9.04214522244142E-18	-1.0625625392166E-17	1.07987545619354	-0.128534749245474	1.07987545619354	-0.128534749245474	1.62656129307054E-17	1.92882017295935E-17
53.7	4.63864985186451E-18	-5.23345641267574E-18	0.975896386300485	-0.2938652474232	0.975896386300485	-0.2938652474232	-8.13089992645416E-18	3.22383151517096E-18
53.8	-3.04978286649012E-18	-1.06545842294573E-17	1.08104641844407	-0.399253040911172	1.08104641844407	-0.399253040911172	5.06664947129688E-19	-6.49647179112095E-18
53.9	5.4462057744423E-18	-1.65541798084365E-17	0.91333982081261	-0.582750947723593	0.91333982081261	-0.582750947723592	-3.69322382518137E-18	-1.71595710283129E-18
54	-1.19721273743649E-17	1.07093832762085E-18	0.794234194015515	-0.706933013472705	0.794234194015515	-0.706933013472706	1.42042963918958E-17	-3.27858603989808E-18
54.1	1.97255645742176E-17	-8.12945636702105E-18	0.706994483994869	-0.791460202741784	0.706994483994869	-0.791460202741785	1.59005987522549E-17	-3.32573143429455E-17
54.2	1.57440263991344E-17	-6.98926369441903E-18	0.589161632616633	-0.906154340625034	0.589161632616633	-0.906154340625034	1.85223839989817E-18	-8.22266316990474E-19
54.3	3.27480496731456E-19	8.50332601547385E-18	0.392297221266704	-1.00116565598584	0.392297221266705	-1.00116565598584	3.406602299476E-18	-3.67950271341888E-18
54.4	-6.63532371781392E-18	-3.75521905641247E-18	0.328141213664982	-0.991266238214663	0.328141213664982	-0.991266238214662	-1.07419389830221E-17	-3.62695897519694E-17
54.5	2.12002354999255E-17	-2.13055512505637E-17	0.0868900503275318	-1.12529999056684	0.0868900503275319	-1.12529999056684	-3.39196357978684E-17	-1.19784850334137E-17
54.6	1.03068874137366E-17	-2.82889414791669E-17	-0.0601220390886207	-1.05129794786895	-0.0601220390886209	-1.05129794786895	-1.25312201191398E-18	5.95227079336871E-18
54.7	-5.7525142393726E-18	2.1848321525917E-18	-0.200487266012768	-1.09252952992992	-0.200487266012768	-1.09252952992992	5.26190928388872E-18	2.91005876883925E-19
54.8	1.3281576414367E-17	-5.83976765763954E-18	-0.386895942961294	-1.03929598842995	-0.386895942961294	-1.03929598842995	1.98878681954986E-17	-3.09015316619665E-18
54.9	2.06788371632601E-17	-9.54688651104346E-18	-0.530575931366398	-0.943674668215201	-0.530575931366398	-0.943674668215201	2.79765971537882E-17	9.52022028735617E-19
55	6.06856828461504E-18	1.83504777131089E-18	-0.657887692758195	-0.886243320164897	-0.657887692758195	-0.886243320164897	4.9364961877927E-19	5.66882282761616E-18
55.1	-1.73562973828729E-17	-5.58369587898089E-18	-0.800647843757496	-0.770071308010731	-0.800647843757496	-0.770071308010729	4.48650076278279E-18	5.18114259986099E-18
55.2	7.67492969477769E-18	2.79404294017432E-19	-0.880569614770481	-0.644846568042637	-0.880569614770481	-0.644846568042637	0	0
55.3	3.50541289226208E-18	-5.70844759587743E-18	-0.986270966716724	-0.482199153077896	-0.986270966716723	-0.482199153077896	6.33051228585539E-18	1.49431060684359E-17
55.4	-1.08537881318634E-17	-1.99191089823315E-18	-1.04639135547616	-0.375218036620123	-1.04639135547616	-0.375218036620123	-5.06829202083671E-18	-2.08286102286971E-17
55.5	-3.52312143475782E-19	1.03767917680026E-18	-1.10900843105434	-0.18313127077005	-1.10900843105434	-0.183131270770051	-2.03021443352999E-17	5.25863706079025E-18
55.6	-4.6659398487138E-18	-8.72056418661754E-18	-1.09878433760513	-0.0369914979662941	-1.09878433760513	-0.0369914979662941	6.69906841886876E-18	-5.85296026470553E-18
55.7	-1.1088703334108E-17	1.59898324917538E-17	-1.11933210181339	0.123080055430398	-1.11933210181338	0.123080055430398	1.19270289757168E-17	-7.16218888683657E-18
55.8	-5.65910446181802E-19	-9.30415858783262E-19	-1.07894203652479	0.30235652194355	-1.07894203652479	0.30235652194355	9.30415858783262E-19	-5.65910446181802E-19
55.9	3.63808657666459E-18	1.69013505502585E-17	-1.03026582662773	0.446294414243155	-1.03026582662773	0.446294414243156	-6.18211293459754E-18	1.98920039769389E-19
56	1.32322835410851E-17	1.43954480510193E-18	-0.927109102561555	0.594693635088397	-0.927109102561555	0.594693635088397	4.7032764796349E-18	-1.57773495268581E-19
56.1	-1.14945055791854E-17	4.61306079874763E-18	-0.86616407490243	0.721549330319923	-0.866164074902431	0.721549330319923	5.92988766950546E-18	-7.87673282225691E-18
56.2	-9.10772812606557E-18	-1.13302146519104E-17	-0.753173902843696	0.855196378423442	-0.753173902843696	0.855196378423442	-4.97498219843711E-18	2.33433872801106E-17
56.3	1.63099607938346E-18	7.53940329217491E-18	-0.567994156435285	0.948148878966464	-0.567994156435285	0.948148878966464	2.69456602555497E-17	1.44226316044233E-17
56.4	-7.93100597973229E-18	2.39324644990914E-17	-0.486137146811638	1.02818997726597	-0.486137146811639	1.02818997726597	-1.9449750318235E-17	2.75838165522467E-17
56.5	-1.91676161001552E-18	7.55343542765749E-18	-0.310462877471805	1.10667287542314	-0.310462877471805	1.10667287542314	-1.69459139021748E-17	3.66377628621115E-17
56.6	9.8577126847117E-18	-7.97920725866582E-18	-0.14170728983351	1.10408658972786	-0.14170728983351	1.10408658972786	6.78223616438093E-18	-4.5134647997136E-19
56.7	2.52683434541655E-17	-1.05719071954528E-17	0.0131543883561947	1.13068117162318	0.0131543883561945	1.13068117162318	3.21263374626193E-17	-4.9557708290578E-17
56.8	2.46514596215997E-17	-1.42437957716461E-17	0.160146824323674	1.1407031056219	0.160146824323674	1.1407031056219	8.0448115299499E-18	-2.62470695118206E-17
56.9	3.22097556251392E-19	1.0406857714778E-17	0.327711589080284	1.07936570669403	0.327711589080284	1.07936570669403	5.82621265312559E-18	6.72521261204311E-18
57	-3.4972562086623E-19	1.48214503952589E-17	0.499962026596071	0.984971583662861	0.499962026596071	0.984971583662861	4.7945378801186E-18	1.13723705757534E-17
57.1	-6.85768644049187E-18	-6.4272284539014E-18	0.624947866322624	0.936859112003109	0.624947866322624	0.936859112003109	7.10169278750829E-18	-1.13428573425781E-17
57.2	4.91150074273245E-18	1.69026429288315E-17	0.764870144322277	0.864467610425473	0.764870144322278	0.864467610425473	-2.11672113398934E-17	2.06881144586421E-17
57.3	1.82397841241798E-17	-8.03103614704208E-18	0.907910501974584	0.666635589496449	0.907910501974585	0.666635589496449	4.27566863381405E-17	-3.64856115954607E-17
57.4	3.68605094189321E-18	2.79557033802909E-18	0.927440112568191	0.576634198464654	0.927440112568191	0.576634198464654	-9.1973192723876E-18	3.27974888646471E-17
57.5	-2.46849586321397E-17	-1.77700383105279E-17	1.06285748286375	0.446439299720863	1.06285748286375	0.446439299720863	-4.53359471541064E-17	9.73926952395852E-18
57.6	-5.60151231113277E-18	3.56282922338056E-18	1.1150132792944	0.26335129145844	1.1150132792944	0.263351291458441	-8.15129740028945E-18	2.1382700258149E-17
57.7	-2.13699095266078E-18	8.16734149389632E-18	1.09679619083133	0.106444519721764	1.09679619083133	0.106444519721765	-5.22376330927892E-18	3.76137696675285E-17
57.8	1.64751436560284E-17	1.55748528529691E-19	1.14270310099519	-0.0339501086717741	1.14270310099519	-0.0339501086717746	1.99645691255993E-17	-8.00082465849898E-18
57.9	1.79535955779933E-18	1.36222836206858E-17	1.14272205795092	-0.182675618152047	1.14272205795092	-0.182675618152047	-1.47617454641672E-17	1.46232550617756E-17
58	2.69189947350455E-19	-1.05460018198193E-17	1.05548030882084	-0.399008868600561	1.05548030882084	-0.399008868600561	1.11854796243391E-17	4.94069681211159E-17
58.1	7.68717491294156E-18	-6.64901912711068E-18	0.984294624371761	-0.488038791843589	0.98429462437176	-0.488038791843589	2.08550994205639E-19	-3.78723509596377E-18
58.2	1.05197095610852E-17	1.10900908074559E-17	0.938531295428804	-0.657815090286379	0.938531295428804	-0.657815090286379	4.78837895586129E-17	-1.17110414791093E-17
58.3	2.20325302450388E-17	2.0744780639441E-17	0.814191662036321	-0.796084483640435	0.814191662036321	-0.796084483640435	2.76038881805323E-17	2.3120006681861E-17
58.4	2.74441109083463E-18	3.70044017881116E-18	0.700542648015693	-0.834833162160881	0.700542648015693	-0.834833162160881	1.14589969370051E-17	-6.2041749828125E-18
58.5	-2.40658276057254E-17	2.5195652306202E-17	0.610268255351069	-0.989267481281244	0.610268255351069	-0.989267481281244	1.57136150693953E-17	-5.26683308505088E-18
58.6	-2.37510483129597E-18	8.15758123411626E-19	0.430675838603598	-1.05325476420088	0.430675838603598	-1.05325476420088	-1.91451777282456E-17	-9.35608024730609E-18
58.7	1.67232533077408E-17	1.8937706785084E-17	0.276344143684168	-1.06930448440084	0.276344143684168	-1.06930448440084	-5.02634609964847E-18	6.89151504329025E-18
58.8	-1.03074351492844E-17	2.2348577688891E-17	0.14172014894146	-1.11752618116944	0.14172014894146	-1.11752618116944	-8.05979114773923E-18	7.01531330822819E-18
58.9	-6.85190121410796E-18	-2.74858313093049E-17	0.000384778551492567	-1.14897969790731	0.000384778551492529	-1.14897969790731	3.43208601512245E-18	4.58250573690126E-18
59	2.46721089026609E-18	6.66548182826786E-18	-0.197980010758969	-1.10520112257153	-0.197980010758968	-1.10520112257153	2.62609086772288E-17	1.64766280611658E-18
59.1	-7.60344413856557E-18	2.04381378049479E-17	-0.315842973216992	-1.07578381270169	-0.315842973216992	-1.07578381270169	-9.99609474068212E-18	2.78077283877828E-17
59.2	6.6058002304267E-19	4.93060889239108E-18	-0.470861063956306	-1.06087982032136	-0.470861063956305	-1.06087982032136	-3.93508553277178E-18	1.9550547903797E-18
59.3	1.81201028305619E-17	-8.33829394988326E-18	-0.6340073807669	-0.924557999526849	-0.6340073807669	-0.924557999526849	8.05848166240396E-18	-1.17865585192363E-17
59.4	1.35888532887793E-18	-1.21735222911499E-17	-0.725434816699136	-0.868685672375424	-0.725434816699136	-0.868685672375424	-4.87927398447432E-18	-1.66909968060546E-17
59.5	3.48599487839708E-18	7.84198440396083E-18	-0.869208782797814	-0.748371487282395	-0.869208782797813	-0.748371487282395	-2.17207525022394E-18	9.03287097700234E-19
59.6	1.10468129419977E-17	-2.02996082777707E-17	-0.948355416928773	-0.602789458022676	-0.948355416928773	-0.602789458022675	8.22763850186224E-18	-5.67183603762675E-18
59.7	-2.18352224905339E-18	7.7169234730002E-18	-1.03863449228933	-0.491220657137298	-1.03863449228933	-0.491220657137299	1.32758053984381E-18	-1.08957618263045E-18
59.8	-1.349010709718E-17	-4.81547847377273E-18	-1.1059120377179	-0.334747302815885	-1.1059120377179	-0.334747302815886	4.49670236572666E-18	1.60515949125758E-18
59.9	-1.66298732274293E-17	1.29273930062349E-17	-1.13114672228369	-0.19245046855441	-1.13114672228369	-0.192450468554411	-7.65408155512565E-18	4.57779402913026E-18
60	1.86308279463565E-17	-3.13058907815037E-17	-1.14118465776316	-0.0100877567880116	-1.14118465776316	-0.0100877567880119	1.39831060222645E-17	-2.40441576000815E-17
60.1	-3.88274050160238E-18	7.79611465638063E-18	-1.12620706996892	0.131607942823546	-1.12620706996892	0.131607942823546	3.44810277119842E-18	4.24656068500856E-20
60.2	2.8091405760678E-17	-2.48599226487306E-17	-1.13005840471991	0.271693376228483	-1.13005840471991	0.271693376228483	2.07428494455997E-17	-2.63713568525914E-17
60.3	-6.96066981348569E-18	-1.26847840860159E-17	-1.05238321716237	0.459669508528918	-1.05238321716237	0.459669508528918	-1.00694880103475E-18	-1.57455340736779E-17
60.4	3.2332857440277E-17	6.88822913892553E-18	-0.984055491291378	0.550876201613838	-0.984055491291379	0.550876201613838	-1.14050545392304E-18	1.03000761153567E-17
60.5	-1.3386711626743E-18	1.04498090608242E-17	-0.910398463350689	0.715894674474758	-0.910398463350689	0.715894674474759	-2.20319938134679E-18	7.84564402819489E-18
60.6	-1.60590470074119E-17	5.18708262019979E-19	-0.80014388021204	0.826405863469336	-0.800143880212039	0.826405863469336	-5.99472806222852E-18	-7.84427055298452E-18
60.7	-1.62526076405421E-17	-1.64701623771269E-17	-0.676308986632474	0.931783002438203	-0.676308986632474	0.931783002438204	-1.22299803290948E-18	-7.46198029933625E-18
60.8	-1.65101669873751E-17	-1.57093849500572E-18	-0.545838319824326	1.02342672253776	-0.545838319824326	1.02342672253776	-1.63116056657957E-18	-4.52629857775258E-18
60.9	1.58919410756192E-17	1.16409716212865E-17	-0.411157738194255	1.08926301393391	-0.411157738194255	1.08926301393391	8.39860584079916E-18	2.07086696908364E-17
61	1.70645248580209E-18	1.03934853295081E-17	-0.24494549498567	1.134539884667	-0.24494549498567	1.134539884667	1.93599005044964E-17	1.38992525499297E-17
61.1	4.5203271372476E-18	1.51308469322957E-17	-0.0899814497341511	1.1423621239164	-0.0899814497341508	1.1423621239164	1.22432450021005E-17	-2.67178166986939E-18
61.2	-1.34992432145054E-17	4.515431292557E-17	0.0507105984087096	1.15544950000076	0.0507105984087092	1.15544950000076	2.07715608991807E-17	-8.81492163106705E-18
61.3	-9.21181998687582E-18	-1.37822722372112E-17	0.216546817857638	1.15547701709475	0.216546817857638	1.15547701709475	-9.88922216460337E-18	-7.24998182310664E-18
61.4	5.38415812116016E-18	7.60577131770226E-18	0.397584387854923	1.08625569084628	0.397584387854923	1.08625569084628	-3.56377720625416E-18	5.67163328770745E-18
61.5	-1.67159639999443E-17	9.78519574575425E-18	0.49124750890183	1.03224117094889	0.49124750890183	1.03224117094889	-9.21165558882262E-18	1.80747327552141E-17
61.6	2.32164560018885E-18	2.73520887638157E-17	0.667728073065546	0.98462683319766	0.667728073065546	0.98462683319766	1.90456096078151E-17	6.92364496465633E-18
61.7	2.7726780803693E-17	1.42614291524959E-17	0.7974111047836	0.864137360904077	0.797411104783599	0.864137360904076	1.2320811784313E-17	-1.85589768137783E-17
61.8	-5.43507687596277E-18	9.29255166120604E-18	0.882821786562366	0.743692457006164	0.882821786562366	0.743692457006165	7.52055559263502E-18	2.80856961602633E-18
61.9	-1.01784963684226E-17	1.63596539112821E-17	0.984278966606456	0.613781030643926	0.984278966606456	0.613781030643926	4.27857249542338E-18	3.42691507701334E-18
62	4.45576579948464E-18	-2.12549171016496E-18	1.06283055086124	0.500828762892032	1.06283055086124	0.500828762892032	1.01942202465484E-17	1.24198883636206E-19
62.1	1.9274274013201E-17	-9.31901449349565E-18	1.13826030644738	0.339683958230222	1.13826030644738	0.339683958230221	-4.06840167730509E-18	6.26514178207231E-19
