# GHZ S RI R 50
50	1.05004050575424E-17	-4.35221147987414E-18	0.849933827640725	-0.604904498787122	0.849933827640725	-0.604904498787122	4.49941038495794E-18	7.55424518120162E-18
50.1	-4.38853263231869E-17	3.48942312833406E-18	0.713384991386869	-0.726372826833104	0.713384991386869	-0.726372826833104	3.83422448842449E-18	-1.17587513619163E-17
50.2	-8.54723758343415E-18	5.43273128199776E-21	0.595663993117618	-0.826993598000234	0.595663993117618	-0.826993598000234	3.98907305435474E-18	5.67280564297345E-19
50.3	1.80659989812651E-17	7.12749352488017E-18	0.4632285420881	-0.939453502610956	0.4632285420881	-0.939453502610956	-1.57120228944178E-18	4.20486318274983E-18
50.4	2.8415812074306E-18	5.62391302041682E-18	0.25557787185771	-0.970617211031614	0.25557787185771	-0.970617211031613	-6.97415202790611E-18	-8.96637569508839E-18
50.5	-3.46828794406626E-18	-8.55050457395189E-18	0.132763647384037	-1.02283471746101	0.132763647384037	-1.02283471746101	3.24781003167825E-18	-8.68580918668945E-18
50.6	-3.15961418597114E-17	-5.56952769603438E-18	-0.056962566276481	-1.02003625528529	-0.0569625662764811	-1.02003625528529	-9.3997061382429E-18	-2.59067008872824E-18
50.7	1.89951389349328E-17	-1.85788826737297E-17	-0.208784587269812	-0.990358046461215	-0.208784587269812	-0.990358046461215	3.25162832877732E-18	-1.43476547295561E-18
50.8	2.85609719933439E-17	2.80148103320005E-18	-0.385141161567622	-0.968091913560049	-0.385141161567622	-0.96809191356005	2.82136882607256E-17	-8.53098765801371E-18
50.9	-4.58543865484587E-18	-1.01614504335308E-17	-0.523058768147222	-0.85443312562738	-0.523058768147223	-0.854433125627379	3.00175584761315E-18	1.32625721412553E-17
51	1.16763068492236E-17	-1.58709383761439E-17	-0.670858124433158	-0.779717557868371	-0.670858124433158	-0.779717557868371	-1.49635394658641E-17	-1.15393427573065E-17
51.1	1.796970259869E-17	-2.33440979066222E-18	-0.783958787584915	-0.65474607613802	-0.783958787584915	-0.65474607613802	-3.07077923107668E-18	-6.80090109885593E-18
51.2	4.33595567243502E-19	7.78289975280334E-19	-0.873803108750495	-0.513449334486658	-0.873803108750496	-0.513449334486658	-9.51728202177735E-18	1.22279577131369E-18
51.3	-1.83134579497452E-18	-1.66325829199459E-18	-0.949988304804312	-0.367010499518485	-0.949988304804312	-0.367010499518485	4.17262565126627E-18	-5.93237260065119E-18
51.4	6.13226684786631E-18	-6.36872612624722E-18	-1.01103417889544	-0.228601332909874	-1.01103417889544	-0.228601332909873	-1.7351431093293E-18	-8.2693011619293E-19
51.5	8.60808248279307E-19	2.64424511903225E-19	-1.00324761524535	-0.026619254865541	-1.00324761524535	-0.0266192548655407	-1.30858500177192E-17	-6.9490517411857E-19
51.6	-8.02520463553988E-18	-2.9637266006807E-17	-1.01425713473069	0.100924845784209	-1.01425713473069	0.100924845784209	-7.64791644286715E-18	-4.89664530695399E-18
51.7	2.09040237053123E-17	1.79875163126365E-17	-0.999719161816294	0.264462061339986	-0.999719161816295	0.264462061339986	3.08787453857052E-17	-9.0294005605767E-18
51.8	-2.67355688818388E-18	1.92093543688163E-17	-0.8833317249815	0.422394713383647	-0.8833317249815	0.422394713383647	-2.7662674165956E-18	-6.50421515678957E-18
51.9	1.12008466309715E-18	-4.5305098321612E-18	-0.8792917890964	0.555016811858183	-0.8792917890964	0.555016811858183	-1.04888928377036E-17	2.20111513432795E-17
52	-4.12502271568189E-18	-1.1896199397077E-17	-0.717447284687804	0.702587557569477	-0.717447284687804	0.702587557569478	-4.34465255348238E-18	-1.40314431737911E-18
52.1	-3.9840736206629E-18	-1.58084590300049E-18	-0.603637742919581	0.789913175693833	-0.603637742919581	0.789913175693833	-1.26276813319871E-17	-7.22399757199985E-18
52.2	-1.25834316006587E-17	1.77658133529772E-17	-0.49926519149617	0.877577261616648	-0.49926519149617	0.877577261616647	1.91398492075378E-17	2.87386976797828E-17
52.3	2.5473876018656E-18	-1.49003962339645E-17	-0.358269906158421	0.944915364439647	-0.358269906158421	0.944915364439647	-4.47259304148975E-18	-3.23579103338477E-17
52.4	8.57915904478671E-18	3.85437517792083E-18	-0.192598794593263	1.02269298161584	-0.192598794593263	1.02269298161584	3.17677546727543E-17	-4.00330144818553E-17
52.5	-9.51390803545801E-19	-6.56999435318008E-18	-0.0487129188667955	0.962171414717687	-0.0487129188667957	0.962171414717687	-3.45779943891186E-17	-1.80754126219897E-17
52.6	6.41992444190389E-18	2.04904931006578E-17	0.0897273749965119	1.02920805349007	0.0897273749965118	1.02920805349007	-1.98377139803624E-17	-5.91389496128643E-18
52.7	2.11502670428564E-17	7.17910313669006E-18	0.312946613882531	0.996579782156589	0.312946613882531	0.996579782156588	3.04991597512083E-17	-4.89329049033477E-17
52.8	2.43616598989719E-17	-1.97726073543832E-18	0.358342659110078	0.817305698243976	0.358342659110078	0.817305698243976	-3.99763912549082E-17	-3.30685407447438E-17
52.9	6.06118844135954E-18	2.32869168912214E-18	0.632539654470447	0.920637208029825	0.632539654470446	0.920637208029825	-2.92214161017547E-17	-2.05012735971308E-17
53	-1.38404975605808E-18	-3.26888049311604E-18	0.654755514716873	0.697453152736041	0.654755514716873	0.697453152736042	1.61190510241303E-17	-3.35543394625984E-18
53.1	-4.65078332867071E-18	-1.7712399369858E-17	0.770672568595893	0.656590167049079	0.770672568595893	0.65659016704908	3.08750556620771E-18	-3.19830830691909E-18
53.2	1.47249778429423E-19	-3.47470906186461E-18	0.919026962491255	0.517174718294903	0.919026962491255	0.517174718294904	4.34339374481287E-17	-1.39575284693311E-17
53.3	1.36259275601725E-17	-1.84276702251832E-17	0.930023801803242	0.37714297333295	0.930023801803242	0.37714297333295	-1.73310721664192E-17	-2.21313657088571E-18
53.4	6.23594073420359E-18	7.47247134062953E-18	0.967191125035899	0.163505717951018	0.967191125035899	0.163505717951018	8.77044705998512E-18	1.54240029369012E-17
53.5	1.73624341682867E-17	-1.79861679948572E-17	1.02830459481297	0.114074671298201	1.02830459481297	0.114074671298201	5.55662798814559E-18	-7.79181091791455E-18
53.6	-4.49230038838315E-17	2.6371778933688E-17	1.0215751486893	-0.107190341099809	1.0215751486893	-0.107190341099809	3.34040477648503E-18	5.54232135075891E-17
53.7	-1.44136126467835E-17	3.71538916629977E-18	0.922558377717682	-0.276597270750721	0.922558377717682	-0.276597270750721	7.11407862145543E-18	4.94800560422305E-18
53.8	-4.61928942725348E-18	1.04620428955779E-17	1.01821709042781	-0.344314587047685	1.01821709042781	-0.344314587047686	1.85348159977228E-17	1.10630933367922E-17
53.9	5.62021592793002E-18	-1.20502607043526E-18	0.865358017284645	-0.534891271306997	0.865358017284645	-0.534891271306996	6.02133827322857E-18	-4.01525253686739E-18
54	-1.17419567560633E-17	9.26711192041753E-18	0.752281418400872	-0.655245363073862	0.752281418400873	-0.655245363073862	4.18285212063821E-18	7.55155283616494E-18
54.1	-2.97034540113429E-19	-3.36791660825407E-18	0.666666923886435	-0.728051622229596	0.666666923886436	-0.728051622229596	4.90335764232439E-18	-2.12951011429718E-18
54.2	6.79976976366311E-18	-6.54387208538784E-18	0.561312340265013	-0.833747276196293	0.561312340265013	-0.833747276196293	8.3200813469059E-18	4.18713788992137E-18
54.3	1.12648544942826E-17	3.59874409389131E-18	0.379933009975566	-0.933744956114886	0.379933009975566	-0.933744956114886	-1.1389820417645E-17	-1.35702927810218E-17
54.4	2.8826970523978E-17	-6.5638973369876E-19	0.31260036107693	-0.90538593262423	0.31260036107693	-0.90538593262423	4.9096832407306E-18	-6.26239252510628E-18
54.5	-5.2875115788003E-18	-1.29202553130089E-17	0.105230685046954	-1.05115425608245	0.105230685046954	-1.05115425608245	2.46892057156775E-17	-4.88243210798974E-18
54.6	-5.36199242786258E-18	-1.2833569695664E-17	-0.045404850494152	-0.977007318370722	-0.0454048504941519	-0.977007318370723	1.0950415796581E-17	-7.68652328578018E-18
54.7	-1.32020676118547E-17	2.41239892355534E-18	-0.162687021364595	-1.01519769333547	-0.162687021364595	-1.01519769333547	-1.62275578871348E-17	-2.38365809266779E-18
54.8	-8.43652644116867E-19	-4.02593355857487E-18	-0.338661445997804	-0.972492736519463	-0.338661445997804	-0.972492736519463	8.96985375734558E-19	-7.75287199190488E-18
54.9	-5.79659879128191E-18	-6.20959050390407E-19	-0.477293676226446	-0.883100030691147	-0.477293676226446	-0.883100030691148	5.58417699979409E-18	1.04503919790727E-18
55	6.49557388526338E-18	3.23462878348117E-18	-0.589027928116182	-0.831100302755678	-0.589027928116182	-0.831100302755678	5.69166510705694E-18	9.06199779129128E-20
55.1	-3.71462472218376E-18	8.19111968687744E-18	-0.72433724708274	-0.728870624823284	-0.72433724708274	-0.728870624823284	-1.28675295192809E-17	7.24675450442597E-18
55.2	-2.2625637706708E-18	-1.65088744391148E-18	-0.797953962069761	-0.609820372743954	-0.797953962069761	-0.609820372743954	-1.4585422208182E-17	1.30357221744667E-17
55.3	-1.24323360488796E-17	2.57743111772704E-18	-0.90245513083158	-0.464071473024391	-0.90245513083158	-0.46407147302439	5.09493397456537E-18	1.17299328987496E-17
55.4	-9.58180182100951E-18	-1.95710032467695E-19	-0.950671545580646	-0.3683216773333	-0.950671545580647	-0.3683216773333	-1.92062302673934E-18	-1.39513624733603E-17
55.5	-1.07016705318343E-17	1.68069578362907E-17	-1.0180819316987	-0.195151261364238	-1.0180819316987	-0.195151261364239	1.05814570540682E-17	1.37412857018017E-17
55.6	4.3363576450738E-18	-3.05235874150834E-18	-1.00608074965361	-0.0570576642118199	-1.00608074965361	-0.0570576642118199	1.06583603108412E-17	1.53960313740953E-17
55.7	-7.27909904585138E-18	-1.61272862102632E-18	-1.02816268923782	0.0837082081480698	-1.02816268923782	0.0837082081480694	1.78428006136468E-17	2.32636401011058E-17
55.8	-1.36226323024309E-18	-4.47051602484252E-18	-0.996864408760523	0.250922693444402	-0.996864408760522	0.250922693444402	-1.47738113047707E-17	-3.83726334113265E-19
55.9	1.88074832127322E-19	-7.75366148469005E-18	-0.953110819774466	0.381318352744564	-0.953110819774466	0.381318352744564	-5.80312265812941E-18	-2.72945442231879E-17
56	3.15640365381854E-17	-5.45598857016183E-18	-0.860554947246943	0.523454245454834	-0.860554947246943	0.523454245454834	1.85309280724104E-17	2.54521851020282E-17
56.1	-1.50483099945386E-17	1.32349899346734E-17	-0.808525353797889	0.632933939796912	-0.808525353797889	0.632933939796911	9.69794177019294E-18	-2.3978375017784E-17
56.2	2.33573622913097E-17	1.35568784724558E-17	-0.711498164082906	0.757121590387977	-0.711498164082906	0.757121590387977	2.07863894567375E-17	1.74691442683319E-17
56.3	-1.87308876360031E-17	3.97709448817377E-18	-0.540527807268049	0.854699723174969	-0.540527807268048	0.854699723174969	-5.05526801108133E-17	-1.13620098993358E-17
56.4	-4.82743363306934E-18	-1.47062964054826E-17	-0.472209213924324	0.917377262784497	-0.472209213924324	0.917377262784496	-4.82440921658382E-18	-3.05923969110999E-17
56.5	1.74218555186622E-18	-5.75192539872942E-18	-0.317237288870363	0.997465343169948	-0.317237288870362	0.997465343169947	-1.93560593633369E-17	-5.54872532881536E-18
56.6	-1.178621003102E-17	-3.80805485660379E-18	-0.157168233113177	0.99765442598322	-0.157168233113177	0.99765442598322	-1.68891636816298E-17	-1.10353190736717E-17
56.7	3.79222634681966E-18	-3.48687855709669E-18	-0.021477573199072	1.02444661081108	-0.0214775731990721	1.02444661081108	-1.63779860338118E-17	-6.8703252687668E-19
56.8	1.51402135012911E-18	7.36017780738473E-18	0.105378311142951	1.03528643255977	0.10537831114295	1.03528643255977	5.46208627631041E-18	2.18912807533881E-17
56.9	7.97888536263519E-18	-1.49652793041866E-17	0.262873051424007	0.983462664810581	0.262873051424007	0.983462664810581	4.28192257022968E-17	2.3145065177511E-18
57	-2.87131726630424E-17	2.41220257804324E-17	0.428046550117294	0.903618781912582	0.428046550117294	0.903618781912582	-1.80017673307345E-17	1.10380082421525E-17
57.1	2.80589420701845E-18	6.38174111918488E-18	0.534108826950297	0.86244607495797	0.534108826950298	0.862446074957971	4.36956350166043E-20	2.39506460372631E-17
57.2	2.03499358924473E-17	7.98390002368215E-18	0.657005639259704	0.804934163666897	0.657005639259705	0.804934163666897	8.08952813370226E-18	-2.16898503978874E-18
57.3	-9.7157768332228E-18	2.42491513803871E-18	0.807377400953725	0.630634898969948	0.807377400953725	0.630634898969948	-1.23699295007566E-17	1.43466253950301E-17
57.4	4.32960906285032E-18	1.75958542544452E-18	0.81329115845512	0.539502612187503	0.81329115845512	0.539502612187503	2.06550631491365E-17	-2.75492419001E-17
57.5	-4.32792569869262E-18	-1.4626465556917E-17	0.939664897451572	0.439051626598807	0.939664897451572	0.439051626598807	-8.12006502113907E-18	1.92653106661847E-18
57.6	6.63833466583009E-18	-1.11415290231846E-17	0.996383151399267	0.2743307410072	0.996383151399267	0.274330741007201	4.06508074734179E-18	-2.1301451131193E-17
57.7	3.07179182695983E-18	2.52705160666835E-17	0.979812385088802	0.124796221782831	0.979812385088802	0.124796221782831	-4.82791973324905E-19	8.61610233236933E-18
57.8	1.67513353425846E-18	7.30189252826016E-18	1.02338406295829	0.00996289499530913	1.02338406295829	0.00996289499530953	3.52713718358348E-18	5.52063692496176E-18
57.9	1.64146706978408E-17	-1.61954083922445E-17	1.02626020080822	-0.118360643608986	1.02626020080822	-0.118360643608986	7.97170577030589E-18	-1.46969778877086E-17
58	-6.29880979797988E-18	-9.83763093621273E-18	0.961798575481866	-0.327202589851306	0.961798575481866	-0.327202589851306	-2.1040068511713E-17	1.08238757597034E-17
58.1	1.78634978695797E-17	1.22253371987248E-17	0.88846062904464	-0.405187759657526	0.888460629044639	-0.405187759657526	1.75080566937688E-17	1.08213470594871E-17
58.2	2.20203524110891E-18	-6.98683995551861E-18	0.861386734513507	-0.552806735108049	0.861386734513507	-0.552806735108049	-5.43940293627786E-18	-1.64852025559943E-17
58.3	1.61429673445355E-17	1.59296211538923E-18	0.755324238121622	-0.684458602174656	0.755324238121622	-0.684458602174655	-4.28345667281181E-18	1.58774736586373E-17
58.4	6.7165693550707E-18	2.50024464224219E-18	0.642216346120433	-0.715099374964481	0.642216346120433	-0.71509937496448	3.43216014117265E-19	3.18667667047672E-18
58.5	-3.80791085381688E-19	4.11181032448216E-18	0.582370197803192	-0.851710077236084	0.582370197803192	-0.851710077236084	8.22362064896432E-18	7.61582170763377E-19
58.6	1.03731596798277E-17	-4.2774295269411E-18	0.420626950374023	-0.919662187694266	0.420626950374023	-0.919662187694266	-7.17811055952248E-18	-1.37284158688954E-17
58.7	1.20447562638048E-17	1.1784934998116E-17	0.277727326930476	-0.93563108199583	0.277727326930476	-0.93563108199583	-3.88738802946982E-18	1.12711706152277E-17
58.8	-1.97113678201887E-17	-3.26031107427111E-18	0.16614755548332	-0.979327025995701	0.16614755548332	-0.9793270259957	-4.11735119749672E-18	4.00077690905792E-18
58.9	-6.37151658648901E-18	-7.74735962929485E-18	0.049086835139872	-1.00984244712369	0.049086835139872	-1.00984244712369	-3.1857582932445E-18	-3.87367981464742E-18
59	1.71260917272248E-17	-5.27256074056666E-18	-0.135860529895845	-0.982371394604173	-0.135860529895845	-0.982371394604174	-4.21026571177602E-18	-2.35805984773908E-18
59.1	1.88921443084133E-18	8.97832101202683E-19	-0.23520170839713	-0.953577081344344	-0.23520170839713	-0.953577081344344	1.06207128948668E-17	-2.27084934450356E-18
59.2	6.90065785411213E-18	-1.05394058052824E-18	-0.363674799584109	-0.950820807951508	-0.363674799584109	-0.950820807951507	9.54898924723961E-18	-1.46573917424827E-18
59.3	-7.40471215613636E-19	-2.35096874255977E-18	-0.524528812738004	-0.835874483874596	-0.524528812738004	-0.835874483874596	9.70081208416614E-19	1.87561087032735E-18
59.4	9.12832520085594E-18	6.10183311220796E-18	-0.594788650787748	-0.787140333243165	-0.594788650787748	-0.787140333243165	1.20382352577342E-17	2.09697892352683E-17
59.5	-6.95911563946929E-18	1.233826717809E-18	-0.728811256071863	-0.692476617543972	-0.728811256071863	-0.692476617543972	1.03042966236807E-17	-4.47720554595489E-18
59.6	-9.33249256682567E-19	-9.90226912819867E-18	-0.804651239639303	-0.563371914257958	-0.804651239639303	-0.563371914257959	-1.10093370680306E-17	4.00813050414327E-18
59.7	-1.32497168255415E-18	-1.21475029340599E-18	-0.882998988967688	-0.474961258624531	-0.882998988967687	-0.474961258624531	-1.19489092836052E-18	-3.39070916017919E-18
59.8	-1.5922242590113E-18	-3.61871160187016E-18	-0.949623733510674	-0.34268684698416	-0.949623733510673	-0.342686846984159	-7.64993996160211E-18	-4.6247249267451E-18
59.9	-1.45100279425655E-17	-1.63984963811317E-18	-0.973089027615325	-0.21945862123539	-0.973089027615325	-0.219458621235389	-1.69424549217605E-18	-7.49423242590932E-18
60	-1.9852126654354E-17	7.15307907279819E-18	-0.992804717025458	-0.0585491537071985	-0.992804717025458	-0.0585491537071987	-1.62982197026045E-17	1.36209185130588E-17
60.1	-2.09586818902635E-17	7.82629741401945E-18	-0.981088763389231	0.0641474338335241	-0.981088763389231	0.064147433833524	-2.5090177904641E-17	-4.31563767052514E-18
60.2	-1.17034174916417E-17	-1.29865346182675E-18	-0.990287903310446	0.176693240118441	-0.990287903310447	0.176693240118442	2.60248570205381E-18	1.21363019789173E-17
60.3	7.81859387704796E-18	-2.52329807688532E-17	-0.93501957327317	0.351232692130914	-0.935019573273169	0.351232692130913	8.79104329274804E-18	1.50734879626178E-18
60.4	-1.81192212731951E-17	2.43792243563305E-18	-0.870089715675433	0.426364861949714	-0.870089715675433	0.426364861949713	-3.38785554386095E-18	3.04050480866229E-18
60.5	-2.71926895307501E-18	7.33937332521086E-18	-0.821886005825296	0.571971814217488	-0.821886005825296	0.571971814217488	5.68640411257796E-18	-3.45774582490654E-18
60.6	-3.18664887701725E-18	-2.83548126242247E-18	-0.729980085526425	0.671335739910694	-0.729980085526425	0.671335739910694	-8.21609917115247E-18	-4.11327765470908E-18
60.7	-9.39332989611216E-18	-1.20483835860195E-17	-0.628654671088452	0.767739724147568	-0.628654671088452	0.767739724147568	-3.2496849570221E-18	1.41566109499944E-17
60.8	-1.38905207109444E-17	-5.82075861684698E-18	-0.522744000394307	0.851888219204132	-0.522744000394308	0.851888219204132	-2.9123647054351E-18	-9.50165864218967E-19
60.9	2.59693929901852E-18	-1.87258288496171E-17	-0.411736013291882	0.912189511777647	-0.411736013291881	0.912189511777647	-1.72404580392033E-18	-1.95458895395002E-18
61	7.16848531122442E-18	-6.76363585515636E-18	-0.270216216918175	0.961023655402315	-0.270216216918176	0.961023655402315	-1.71099062922704E-17	-6.39652799186091E-18
61.1	5.07508256886051E-18	1.5784808478721E-17	-0.135511261825886	0.972425812404471	-0.135511261825886	0.972425812404471	4.41924405539145E-18	-1.78624343188422E-18
61.2	-4.28302511760044E-18	1.09276351424466E-18	-0.0205737564048747	0.987839808205025	-0.0205737564048749	0.987839808205025	-8.12535293924796E-18	-8.3898265767259E-18
61.3	-1.18508846376012E-17	-8.0105235312221E-18	0.117719815012922	0.999609269631663	0.117719815012921	0.999609269631663	-2.62910051177582E-17	-7.94940972473796E-18
61.4	7.97771748645267E-18	-5.22448784542754E-18	0.283777354871837	0.951299992356304	0.283777354871837	0.951299992356303	-2.03451189756027E-18	2.35414453292541E-18
61.5	-3.24019589850348E-17	-1.53366818376738E-17	0.357935916611741	0.90053533278575	0.357935916611741	0.900535332785751	-1.14958992123316E-17	-1.09901883962661E-17
61.6	4.83528921054075E-18	1.31494200952678E-17	0.508408264427641	0.88067775769578	0.508408264427641	0.88067775769578	6.1808648134646E-18	1.08192847901961E-17
61.7	-4.58143851770777E-18	-1.98420697952392E-17	0.629121549802649	0.783335189068022	0.629121549802648	0.783335189068022	-1.24502725231242E-17	-8.57967441033203E-18
61.8	-3.7549882463902E-18	-1.15327343839877E-17	0.705478019734691	0.680207703542605	0.705478019734691	0.680207703542605	-5.61884959433839E-19	-1.54002232815363E-17
61.9	4.24010748403549E-19	-1.47893271493693E-17	0.799154715693804	0.576995516790841	0.799154715693804	0.576995516790841	1.71858602123288E-18	-3.23087158327091E-17
62	9.65636692325226E-18	2.71423760063147E-18	0.866468083696441	0.489865269417401	0.866468083696441	0.489865269417401	8.69222168103951E-18	-2.22155093909554E-18
