# GHZ S RI R 50
50	4.24453849141455E-19	-1.0420623178343E-17	0.767523394126243	-0.543082801254123	0.767523394126243	-0.543082801254123	-6.54720927079132E-18	2.56848103142105E-18
50.1	-6.99868247034723E-18	-1.66812872881621E-17	0.645548962578749	-0.649140397531612	0.645548962578749	-0.649140397531612	1.09444183160999E-17	7.20889607953749E-18
50.2	6.26051935496678E-18	2.95597701484596E-17	0.543566239747152	-0.741741649970906	0.543566239747152	-0.741741649970906	4.19769423028995E-18	1.32888989243798E-17
50.3	-2.948612286917E-18	1.88042596765467E-17	0.42377584332016	-0.848452750866951	0.42377584332016	-0.848452750866951	-4.67960528863168E-18	1.56428820449758E-18
50.4	-1.1033486769454E-17	-1.87925550489262E-17	0.237437923880305	-0.870093998112381	0.237437923880305	-0.870093998112381	9.50595146126616E-18	8.88187651998128E-18
50.5	-6.78644238116835E-18	-6.6504204908999E-18	0.128592567283932	-0.926149570935164	0.128592567283932	-0.926149570935163	1.60520672677804E-17	4.54516792664684E-18
50.6	-2.64652190709956E-17	3.209711612428E-18	-0.0429054360665672	-0.922824470424318	-0.0429054360665671	-0.922824470424318	-5.93338655858959E-18	-1.58030537901646E-17
50.7	9.49506384651475E-19	-1.30182053943479E-17	-0.178100426281076	-0.899742111723567	-0.178100426281076	-0.899742111723567	5.55959631252248E-19	1.34929585866736E-18
50.8	-1.36936515957396E-17	-1.16433615621159E-18	-0.342461866981178	-0.882220897988383	-0.342461866981178	-0.882220897988383	-1.96993639738658E-19	4.38984825622623E-18
50.9	5.69633584093203E-18	1.48680640718966E-18	-0.46274859675228	-0.780360877635338	-0.46274859675228	-0.780360877635338	-8.65301015958391E-18	-7.98503327474131E-18
51	-2.21147438099475E-18	-1.38402334094741E-17	-0.601704981598344	-0.715134237750976	-0.601704981598344	-0.715134237750975	-8.18007765868389E-18	-6.03338136211491E-18
51.1	1.19316510531379E-17	-1.09788765848182E-18	-0.704998688406397	-0.603898617950414	-0.704998688406397	-0.603898617950415	1.15873181318673E-17	-3.31355142336576E-18
51.2	-4.0682919095545E-19	1.51504155336992E-17	-0.787604271023499	-0.477775521338985	-0.787604271023499	-0.477775521338985	-5.9569386992821E-18	-1.87633785306151E-18
51.3	2.4792784602554E-17	2.07031202176526E-17	-0.859828156311505	-0.345922054500796	-0.859828156311504	-0.345922054500795	-8.59567483100248E-20	-4.21367605839899E-18
51.4	-4.61189000117695E-18	1.25006930709073E-17	-0.921239628495797	-0.220833430602973	-0.921239628495797	-0.220833430602973	7.8054267057493E-19	3.97027152498466E-19
51.5	2.1181565291141E-17	-6.70695467747728E-18	-0.910750671591346	-0.0384542508820474	-0.910750671591345	-0.0384542508820476	1.19984368081237E-17	-2.2130730607219E-17
51.6	-6.2579630482445E-18	1.42956952713583E-18	-0.929095358413533	0.0772132037792187	-0.929095358413532	0.0772132037792188	2.90521261975202E-17	-1.70924556977733E-17
51.7	-3.7888071043199E-17	1.83336442046648E-17	-0.919613384906044	0.228799169442717	-0.919613384906044	0.228799169442717	-7.73227067568568E-18	-1.0006056921796E-17
51.8	6.35607557803762E-18	2.30402794514327E-17	-0.812360689814633	0.367257475938131	-0.812360689814632	0.367257475938131	3.2935809699933E-17	3.26966890076185E-18
51.9	1.82537119086808E-17	2.71340398382473E-18	-0.816984012281394	0.497908762803945	-0.816984012281394	0.497908762803945	1.21954801335767E-17	-9.79061279471959E-18
52	-2.8469628637367E-18	-1.40153659282018E-17	-0.66595491732961	0.629088745997579	-0.665954917329609	0.629088745997579	-1.84587070478576E-17	4.05200515008117E-18
52.1	-8.4971576613881E-18	-1.79216414237554E-17	-0.567034006697164	0.710796403886973	-0.567034006697164	0.710796403886973	-8.75272489893987E-18	6.77535285630387E-18
52.2	-9.24758127636834E-18	-6.89039115906782E-18	-0.475196130596073	0.797233755378886	-0.475196130596074	0.797233755378887	-5.22059848590138E-18	9.19392991793355E-18
52.3	-7.87162315618336E-18	-9.13676637716866E-18	-0.347682016243973	0.86274906426211	-0.347682016243972	0.862749064262111	-5.99932783904714E-18	1.92224465020622E-17
52.4	1.15971567090586E-17	9.28987689714894E-18	-0.192328485053217	0.93810315028302	-0.192328485053218	0.938103150283021	4.38179945113876E-18	-1.02371772879175E-17
52.5	1.38996019420831E-17	-5.44451618129662E-19	-0.0700876803848537	0.883961457822404	-0.0700876803848536	0.883961457822403	-2.05199002152149E-17	1.60632497794419E-17
52.6	7.72566643928684E-18	3.7638338850767E-18	0.0643904509035943	0.954903271435096	0.0643904509035943	0.954903271435096	-5.70909276185388E-18	-1.84685303902297E-17
52.7	-2.00156173139266E-17	1.56001004007722E-18	0.273495965058151	0.921326568272676	0.273495965058151	0.921326568272676	3.3712816712941E-18	1.69244112065282E-17
52.8	-1.28112053015715E-17	8.57359227092309E-18	0.298160826979993	0.765974545377718	0.298160826979993	0.765974545377718	1.69555809254325E-17	1.14389008510802E-18
52.9	2.45648623613948E-18	-1.10210708585357E-17	0.578252055973219	0.857739226882603	0.57825205597322	0.857739226882603	-6.88323663946757E-18	-2.78486359733758E-18
53	1.60273623462322E-17	1.98885425858824E-18	0.583220663701195	0.660066444442299	0.583220663701194	0.660066444442299	4.63806823216075E-18	6.33930891715333E-18
53.1	-2.87430239309644E-17	-3.57901106093244E-17	0.701426161934433	0.627070311397685	0.701426161934433	0.627070311397685	-2.70398513845271E-17	6.89948851993014E-18
53.2	1.73502672220983E-17	1.40095838192527E-17	0.843163979859939	0.493898056016007	0.843163979859939	0.493898056016006	2.19560182257703E-17	-2.18058110372145E-17
53.3	7.12547645931207E-18	2.12022769869649E-18	0.854837429360883	0.372015305369589	0.854837429360883	0.372015305369589	9.09138835942927E-19	-2.55707300720577E-17
53.4	9.62158793296667E-19	1.26115862621896E-17	0.885980527780023	0.173841036784407	0.885980527780022	0.173841036784407	2.48494227332263E-17	1.39604350903057E-17
53.5	-1.41738949284103E-17	-9.7530567394699E-18	0.958994232234937	0.128313322544507	0.958994232234937	0.128313322544507	-4.70258594321753E-18	-1.0538612663261E-17
53.6	4.92428050567775E-18	7.7660432147383E-19	0.950031766793239	-0.0787136158461162	0.950031766793239	-0.0787136158461159	-1.52847912616723E-17	3.29167548967966E-17
53.7	-1.35138156568319E-19	1.58665067288039E-17	0.857903692594516	-0.229443343455214	0.857903692594516	-0.229443343455214	4.68893738000485E-17	1.56163926360061E-17
53.8	-1.02186189049377E-17	-5.26152520420107E-18	0.963419867799458	-0.305646564155698	0.963419867799457	-0.305646564155697	-2.26629286951614E-17	3.55086185497314E-17
53.9	-2.52261024892094E-19	5.21119403182423E-18	0.817313037555804	-0.478207558539657	0.817313037555804	-0.478207558539657	8.60654878094785E-18	1.64350648757334E-17
54	1.37442371412175E-17	3.49497199465098E-17	0.715336097438716	-0.590097565880116	0.715336097438716	-0.590097565880115	6.09521480086205E-18	-7.93626500193289E-18
54.1	-1.06280424812673E-17	1.5830384491091E-17	0.643087757432388	-0.662011663245972	0.643087757432388	-0.662011663245972	3.21116719105811E-18	8.7766321882043E-18
54.2	-2.45067540150537E-18	1.05885146154345E-17	0.546616072134321	-0.765958746297053	0.546616072134321	-0.765958746297054	4.44761066517187E-18	-1.7772382673159E-17
54.3	-1.91415586207903E-17	-7.21800811520701E-18	0.375537054760559	-0.859043238382569	0.375537054760559	-0.859043238382569	-3.3006243825665E-18	1.55172958893801E-17
54.4	-7.71407787356672E-18	-4.10821694037052E-18	0.323996218996462	-0.842406734985187	0.323996218996461	-0.842406734985187	-5.81252659194357E-18	2.33096856230916E-17
54.5	3.34348130236258E-18	1.47401493741106E-17	0.118445063283199	-0.979852172568007	0.118445063283199	-0.979852172568007	3.28237800505838E-17	8.05318676938544E-18
54.6	2.22279564644965E-17	-6.4749110150336E-18	-0.0141057123175255	-0.912976487260634	-0.0141057123175257	-0.912976487260633	1.22954458744894E-17	-2.35315947786638E-17
54.7	5.9690997421012E-18	3.4023123697904E-18	-0.128766863114602	-0.957578256713665	-0.128766863114602	-0.957578256713665	4.34980453943895E-18	-1.63030571186093E-17
54.8	7.13650131331175E-18	-1.13066125923365E-18	-0.294761105110179	-0.918960558594965	-0.29476110511018	-0.918960558594965	3.94270241021696E-18	-2.81934714953371E-18
54.9	9.38644345116384E-18	-4.57989073222778E-18	-0.423393435280389	-0.838687757399929	-0.423393435280389	-0.83868775739993	1.60886085300604E-17	1.40716012158657E-18
55	3.4904900496435E-19	-5.01945974553305E-18	-0.532684462848869	-0.795907536504722	-0.532684462848869	-0.795907536504721	-5.79229475876783E-18	-1.09946291720731E-17
55.1	2.28488300198708E-18	2.45576527020662E-18	-0.66234567969997	-0.70143129170555	-0.66234567969997	-0.70143129170555	5.93890833858983E-18	9.23515790335503E-18
55.2	-5.73848406874687E-18	2.79339862296175E-18	-0.73369620608987	-0.594986121675461	-0.733696206089871	-0.594986121675461	4.71399200652792E-19	-1.27558176488114E-17
55.3	-3.79159764310473E-18	-1.62052746882848E-17	-0.834126265877609	-0.458007349583505	-0.83412626587761	-0.458007349583505	1.37347094322499E-17	-3.58472923887883E-19
55.4	-8.48731310863323E-18	-2.90980981236692E-18	-0.887087559667503	-0.37188595947496	-0.887087559667503	-0.37188595947496	-5.91646615612084E-19	2.83233258725731E-18
55.5	1.61059712220098E-17	-3.51273368538671E-18	-0.952503477336766	-0.207385788293439	-0.952503477336765	-0.207385788293439	4.28361792931181E-18	6.48946261116855E-18
55.6	9.9716844950648E-19	1.604561244706E-17	-0.946089755601313	-0.0811425699930821	-0.946089755601313	-0.0811425699930818	-2.39708734779186E-18	1.38717429572534E-17
55.7	-9.08198356310524E-18	-7.27435842690806E-18	-0.972496362176414	0.0535747477534411	-0.972496362176414	0.0535747477534408	-1.11976015956232E-17	-2.07371674527203E-18
55.8	2.83909560906187E-18	3.16290794615406E-18	-0.945510881555788	0.211455899193626	-0.945510881555789	0.211455899193627	-2.2098917223152E-18	1.04048984874256E-18
55.9	-4.13649363855372E-18	-1.36264835145133E-17	-0.909613414424194	0.335715849788163	-0.909613414424194	0.335715849788163	4.18140780045342E-18	-1.64442530395467E-17
56	3.20906860795627E-17	1.18064570379288E-17	-0.825235114437121	0.469387516723436	-0.825235114437121	0.469387516723436	9.7335588199411E-18	2.03412655056471E-17
56.1	-1.62918143134414E-17	2.24339823089035E-17	-0.781385868838849	0.57801392134165	-0.781385868838849	0.57801392134165	-4.16341521706394E-17	3.52429177466169E-17
56.2	1.26683880274354E-17	-1.18709965999403E-17	-0.691732652624878	0.698842818909237	-0.691732652624877	0.698842818909237	1.02688611723389E-17	2.00231744178302E-17
56.3	-1.50837310831411E-17	-1.00056571877401E-17	-0.531976255057018	0.789604086858362	-0.531976255057018	0.789604086858362	5.95157072212586E-18	-3.97397634228736E-17
56.4	-1.15175061393525E-17	1.51942536892494E-17	-0.471378486040614	0.857919477252698	-0.471378486040614	0.857919477252699	-3.46391384201913E-17	3.38218337952519E-17
56.5	-4.34275577395018E-18	2.20536080435321E-17	-0.324200431610258	0.936482263233084	-0.324200431610258	0.936482263233084	-1.05335169037045E-17	1.33902109798377E-17
56.6	8.78452164337749E-18	-5.07714417677658E-18	-0.176742730149291	0.939257066012643	-0.176742730149291	0.939257066012644	1.21676126602752E-17	-2.24671428365542E-17
56.7	3.73896741643086E-18	-4.56584767146345E-18	-0.0476531086054946	0.970184460418516	-0.0476531086054946	0.970184460418516	1.20189049055871E-17	-2.18419575710258E-17
56.8	1.43850833370184E-17	-1.84965620448842E-17	0.0741641141245497	0.986811705636543	0.0741641141245497	0.986811705636542	9.27761895892144E-19	3.29597641737912E-18
56.9	2.53820742044176E-17	9.05061937972819E-18	0.222352392392156	0.940840549512529	0.222352392392155	0.940840549512529	2.755856715691E-17	1.15872752639708E-17
57	6.65785478393954E-18	1.95047158217206E-18	0.377886980983535	0.866874749468224	0.377886980983536	0.866874749468224	-2.2730475971414E-18	-2.11175958965673E-18
57.1	2.58713644656134E-18	5.2012599410085E-18	0.482856304577717	0.83404271022723	0.482856304577717	0.834042710227231	6.21084390777831E-18	-7.58108218463871E-18
57.2	1.88469382819336E-17	8.43319654912268E-18	0.60458027306774	0.782858599540179	0.604580273067739	0.782858599540179	5.65408148458007E-17	2.5299589647368E-17
57.3	-2.6422266306966E-17	2.15182867313086E-17	0.744503385980048	0.616275180044896	0.744503385980048	0.616275180044896	2.56745641548339E-18	3.08504971594489E-17
57.4	-1.9467424194344E-19	-2.36521044083456E-17	0.755570927004403	0.539873970589918	0.755570927004403	0.539873970589918	-1.41002646767155E-17	-3.19347170417714E-17
57.5	7.08193503136252E-18	5.24620419527778E-18	0.88200583892542	0.441962592058924	0.88200583892542	0.441962592058924	4.6102353916513E-17	-5.99783064833617E-18
57.6	2.691530004569E-18	-6.23091674049981E-18	0.93771673477342	0.286529940553031	0.937716734773419	0.286529940553031	2.96459193680895E-17	-8.17500869652557E-18
57.7	1.73132686285187E-17	-3.28158610723739E-17	0.925581140551037	0.149524259987175	0.925581140551036	0.149524259987174	1.00971157473419E-17	-2.07499934090807E-17
57.8	1.95958812950015E-17	3.18291146980131E-18	0.974144212040472	0.0379524137394305	0.974144212040472	0.0379524137394303	1.3149433766059E-17	1.02615483269595E-18
57.9	6.23773200753568E-19	-1.47835647130073E-17	0.982760181791863	-0.0854227586672962	0.982760181791863	-0.0854227586672964	-6.82066055462137E-18	-1.9370695990386E-17
58	-7.14066429939782E-18	-8.74990255269694E-18	0.920145159181155	-0.282328443763825	0.920145159181155	-0.282328443763825	-4.28119333885041E-18	-6.31968328029886E-18
58.1	8.49410057384535E-18	-8.79729702345579E-22	0.859532114515621	-0.35608200772009	0.859532114515621	-0.35608200772009	-5.50758406087936E-18	2.98677768272137E-18
58.2	-3.64217760350329E-18	-1.93669522340195E-18	0.83598717525443	-0.502297763287861	0.835987175254431	-0.502297763287861	-2.70098024124458E-17	1.7407365854895E-17
58.3	2.06825257709634E-17	9.90534820366816E-18	0.737274296651609	-0.628729904454955	0.737274296651609	-0.628729904454955	2.40587614431853E-17	-6.04854263312349E-18
58.4	2.3896052991615E-17	1.38590884998695E-17	0.638791088731376	-0.660249955042282	0.638791088731376	-0.660249955042282	4.97515250488601E-17	-1.64414009331479E-18
58.5	-1.72001628992722E-17	1.26923664025224E-17	0.580221432676778	-0.798451796409309	0.580221432676778	-0.798451796409308	-5.38543869461916E-18	5.30233638584645E-18
58.6	2.80652687003268E-18	9.02007995751038E-18	0.428406009745312	-0.864272099044163	0.428406009745312	-0.864272099044163	-1.9617918513399E-17	-1.24550196453507E-17
58.7	-2.89402711118937E-18	-2.48557935533445E-17	0.296683420534019	-0.883108165958842	0.296683420534019	-0.883108165958841	-3.90946746271934E-18	-1.07233454082954E-18
58.8	-1.47994452360647E-17	1.07387974439E-17	0.190116993765453	-0.93150888284531	0.190116993765453	-0.93150888284531	-6.89214164401174E-18	2.17711838695441E-18
58.9	1.12155713576584E-17	1.25500378484152E-17	0.0771337764907145	-0.967129255307216	0.0771337764907144	-0.967129255307216	-1.01316874925192E-17	1.16037937900708E-17
59	-4.1705707702158E-18	1.0419188815815E-17	-0.0979799703999492	-0.942106945924193	-0.0979799703999494	-0.942106945924192	-1.00233921862686E-17	1.66198025237587E-17
59.1	-7.25032246527306E-18	-6.91187704351752E-18	-0.19394536721244	-0.922366347397249	-0.19394536721244	-0.92236634739725	-2.60961730886012E-18	7.46193737824935E-18
59.2	8.223866574996E-18	3.02186685622534E-18	-0.321791175962187	-0.924200307272647	-0.321791175962187	-0.924200307272648	-8.17169120995766E-18	-2.81078172303738E-19
59.3	7.61089840459829E-18	-9.04160403575118E-18	-0.473506672419457	-0.81590274213068	-0.473506672419457	-0.815902742130681	-4.78492504276672E-19	5.50499424617018E-18
59.4	-1.05841345499595E-17	5.33979262119963E-18	-0.546365738713904	-0.776415436857622	-0.546365738713904	-0.776415436857621	-2.06204742973913E-17	4.23165477515887E-18
59.5	1.20376050032729E-17	5.6089330506353E-18	-0.677701396959583	-0.686696538415482	-0.677701396959583	-0.686696538415481	-1.63854603189096E-18	1.79512872475716E-18
59.6	1.28916157524643E-17	-1.65123010073556E-17	-0.75248533492218	-0.56711588603381	-0.752485334922181	-0.56711588603381	1.89569856021984E-18	-1.01564553686449E-17
59.7	5.95104533182433E-18	2.26079024405041E-17	-0.834002295210267	-0.484014196706688	-0.834002295210267	-0.484014196706688	1.55016468520037E-18	8.40290885455082E-18
59.8	4.97464391187941E-18	-7.65547674320027E-18	-0.901777761544026	-0.358143411182378	-0.901777761544025	-0.358143411182378	-9.99799598777153E-18	-6.06132513747763E-18
59.9	-1.22814745968301E-17	1.87052544265514E-17	-0.929810390002905	-0.242060401877368	-0.929810390002904	-0.242060401877368	-1.64111998176423E-17	1.78890433377844E-17
60	1.05564342583567E-17	-1.3336169245311E-17	-0.951581610213732	-0.0883202484909643	-0.951581610213733	-0.0883202484909641	1.33297235210474E-17	-1.52347006972989E-17
60.1	-1.62650279061485E-20	1.24658855558914E-17	-0.94640178959244	0.0289282263045848	-0.94640178959244	0.0289282263045849	8.07767993313447E-18	1.74240045689702E-17
60.2	-5.51992745633454E-18	1.87334143730278E-17	-0.961377146170448	0.140300319235531	-0.961377146170448	0.140300319235531	-6.57935108635992E-18	-4.87276577997754E-18
60.3	-4.71757054377469E-18	9.64086496213966E-18	-0.909793600776204	0.307603331348625	-0.909793600776205	0.307603331348625	-9.55514668106038E-18	5.28213798458114E-18
60.4	1.43868351304135E-17	-2.18771014569122E-17	-0.855659784546567	0.381844023358017	-0.855659784546566	0.381844023358017	-1.91172058267522E-18	-1.04120034354268E-17
60.5	-5.67932038868958E-18	2.78625713845762E-18	-0.810727529681694	0.525869178798727	-0.810727529681694	0.525869178798727	-1.38680610268084E-17	6.22606670230481E-18
60.6	-9.30234757575005E-18	8.24486232079637E-18	-0.726406113073445	0.624331567777472	-0.726406113073445	0.624331567777472	-7.55891230847402E-18	2.07062034884793E-18
60.7	-1.49883289571893E-17	-1.00723338564613E-17	-0.631706227914276	0.720603190135262	-0.631706227914276	0.720603190135262	-3.35956178781788E-18	-7.18898234384788E-18
60.8	-1.96193542479362E-18	-5.09789919711396E-18	-0.531744394585275	0.805979671751094	-0.531744394585275	0.805979671751094	6.85023103511683E-18	-2.49200399753553E-18
60.9	3.04221027727945E-18	7.92646166500875E-18	-0.426773033320329	0.869159670215501	-0.42677303332033	0.869159670215501	9.35960358874202E-18	-5.17746210408414E-18
61	9.39487252938008E-18	9.09598807753448E-18	-0.291694934894302	0.919725569941727	-0.291694934894303	0.919725569941728	9.54406527736405E-18	-5.12641906754776E-18
61.1	9.27573797529684E-18	-7.25636192375672E-18	-0.163765055135693	0.935542383139001	-0.163765055135693	0.935542383139001	-9.99592064226584E-18	-1.11453127700499E-18
61.2	-2.84035169081373E-18	-3.31332130687964E-18	-0.0521612874947948	0.956528754100689	-0.0521612874947951	0.956528754100688	4.49421243984545E-18	-1.91254872884295E-17
61.3	-1.04599519258287E-17	9.7640855995237E-18	0.0833073313222026	0.971973197415725	0.0833073313222028	0.971973197415725	-1.9990050462817E-17	-4.19162565040711E-18
61.4	-3.05099367079867E-17	-1.03153944144887E-17	0.242682825208514	0.9278244501181	0.242682825208513	0.927824450118099	-2.54881164086091E-17	1.0460860772068E-18
61.5	-2.32319834937794E-17	-1.3808555839385E-17	0.316696012926071	0.887165049412121	0.316696012926071	0.887165049412122	-9.31421864979318E-18	5.63212222535222E-18
61.6	-9.81539004170233E-18	5.64901516644419E-18	0.466830191217013	0.869056773520823	0.466830191217013	0.869056773520823	-7.31935278983021E-19	-9.59643792633466E-18
61.7	-2.39380848851313E-17	-9.14478907761136E-20	0.584766891629853	0.778330890386045	0.584766891629853	0.778330890386044	-3.11927725090578E-17	-7.5434642594197E-18
61.8	-2.93155412902044E-18	-6.38117570454889E-18	0.661558877062343	0.683757780808219	0.661558877062343	0.683757780808218	-5.99262511966789E-18	-8.83887502456823E-18
61.9	2.43850059383528E-18	-9.63834507789017E-18	0.755808423834556	0.586132451178023	0.755808423834556	0.586132451178023	3.24996372798445E-18	-3.29293769385462E-18
62	-4.38355672539421E-18	-1.39832394944469E-18	0.827037717602249	0.503759866782343	0.827037717602249	0.503759866782343	-1.04874296208352E-18	3.28766754404566E-18
