# GHZ S RI R 50
50	1.93408031091581E-17	8.6929536545785E-18	0.758614668098057	-0.529335778941537	0.758614668098056	-0.529335778941537	-9.37352758557411E-18	1.29811035831891E-18
50.1	3.09473798839147E-17	-1.60911111034374E-17	0.637084270849514	-0.6356948971768	0.637084270849514	-0.6356948971768	2.09844045360697E-18	4.219888100594E-18
50.2	2.07529274377812E-17	-9.2904857419697E-18	0.536344514809826	-0.724717780885006	0.536344514809826	-0.724717780885006	-5.09450532483994E-18	7.45469548820584E-18
50.3	4.36701522105309E-18	-2.5872531462354E-17	0.42205991250837	-0.8283051669011	0.42205991250837	-0.8283051669011	2.25966899381116E-17	-2.05512714444584E-18
50.4	2.22707971190333E-17	-2.2746512932926E-17	0.235167453957738	-0.85366510644786	0.235167453957738	-0.85366510644786	6.78461745030902E-18	7.21200921856639E-18
50.5	-4.14271796388968E-19	1.38862719333207E-18	0.132029051658794	-0.90438970970435	0.132029051658794	-0.904389709704349	-4.86019517666224E-18	-1.44995128736139E-18
50.6	6.11257977941531E-18	5.18611169527396E-18	-0.0369625719319558	-0.903062985160383	-0.0369625719319557	-0.903062985160383	-2.82467286867232E-18	2.31617021035339E-19
50.7	6.83532545573706E-18	2.12888594784798E-18	-0.169169303312196	-0.878711830473758	-0.169169303312196	-0.878711830473758	9.80262344613195E-18	-5.41569101822051E-18
50.8	3.63384568047637E-18	1.7539261338447E-17	-0.326993901208194	-0.864223270399981	-0.326993901208193	-0.864223270399981	-1.23984541720333E-18	3.07105001929712E-18
50.9	1.67480960277637E-17	-7.75027708167291E-18	-0.447928656781165	-0.762561086705529	-0.447928656781165	-0.762561086705529	1.04346679526959E-17	-1.59302842488386E-17
51	1.97291499980689E-17	4.0982901783579E-18	-0.581110142352292	-0.701344133502186	-0.581110142352292	-0.701344133502186	-1.60889866633756E-17	-1.14331807139651E-19
51.1	2.41766091785398E-17	9.10786888631922E-18	-0.682187725844725	-0.592696640095403	-0.682187725844725	-0.592696640095403	2.59029857064048E-18	8.21890071652837E-18
51.2	-3.71002684217193E-18	6.55198063615E-18	-0.762976277209913	-0.469483090607302	-0.762976277209913	-0.469483090607302	1.30673867108544E-17	-1.91901890361579E-18
51.3	8.14495479804813E-18	1.00258949611884E-17	-0.833130248687749	-0.342166006669716	-0.833130248687749	-0.342166006669716	7.42371116106074E-18	-6.51237778266339E-18
51.4	-1.79083714213476E-17	2.05163040958551E-18	-0.891255057601099	-0.223230338043696	-0.891255057601098	-0.223230338043696	6.78607058884456E-18	9.43841258551424E-18
51.5	-6.56167297473909E-18	-2.84635197708282E-18	-0.884573762082557	-0.0420735744460342	-0.884573762082556	-0.0420735744460343	6.22347114312758E-18	-7.73245937089744E-19
51.6	-2.36952454945646E-17	-2.14281884466012E-17	-0.899304932388746	0.0666368178800861	-0.899304932388746	0.066636817880086	1.26612381729857E-17	-1.17358951377781E-18
51.7	1.98441783726347E-17	-9.1593513482783E-18	-0.891497364496615	0.211443369335042	-0.891497364496615	0.211443369335041	-7.88900611036413E-18	-3.51514590651813E-17
51.8	3.35679424781418E-18	2.71798827449188E-17	-0.786528793361464	0.352049375524983	-0.786528793361464	0.352049375524983	4.76294265581478E-17	1.14557377300036E-17
51.9	1.00873820737106E-17	-9.18077940697297E-18	-0.793452247103541	0.46953386518023	-0.793452247103542	0.46953386518023	3.14356307143634E-18	-3.02359490898835E-17
52	2.88824555766204E-19	-4.07374888646E-18	-0.648170138063333	0.603842574111949	-0.648170138063333	0.603842574111949	-7.1075089304689E-18	-5.62169779364637E-18
52.1	5.0473578890846E-18	1.30610857232518E-18	-0.551186253919156	0.681348920259033	-0.551186253919156	0.681348920259033	-2.42184543264106E-17	1.42631616410935E-18
52.2	-1.20371927760183E-17	-1.15278565823919E-20	-0.46443294322798	0.761531141846619	-0.464432943227979	0.761531141846618	-2.07870505506225E-17	1.69132831008384E-17
52.3	2.22772912625895E-18	-1.19728799592277E-17	-0.342622784581619	0.824467422518822	-0.342622784581619	0.824467422518823	-3.41255488800008E-17	-4.21242345049674E-17
52.4	8.73349155637019E-18	-1.5443560542894E-17	-0.197311214102194	0.900233273078831	-0.197311214102193	0.900233273078831	1.95458314623894E-17	-7.22054344396899E-18
52.5	3.40329781887534E-18	-5.09598057070778E-18	-0.0721539641891834	0.843882364171431	-0.0721539641891835	0.843882364171431	1.09492780608459E-17	-1.95800975356604E-17
52.6	4.94515082733401E-18	-2.97062701376808E-17	0.0472811513975777	0.913620319124231	0.0472811513975775	0.913620319124231	-3.27443385486476E-17	-6.08951060393557E-18
52.7	1.33631036491868E-17	1.61655553135363E-17	0.250579793529683	0.890022389141774	0.250579793529683	0.890022389141774	1.1961877817012E-17	3.09298847948979E-17
52.8	7.48465161619535E-18	-1.18830432955295E-18	0.283439742182829	0.724902973940157	0.283439742182829	0.724902973940158	1.42474798239523E-18	-2.63449788574921E-17
52.9	-1.15797013718761E-17	-1.53646664307071E-18	0.53712767070709	0.837641839423603	0.537127670707091	0.837641839423604	2.97861543951059E-17	1.74555452915966E-17
53	-2.71998538436436E-19	1.10594815567593E-17	0.551949126940959	0.632143548195446	0.551949126940959	0.632143548195446	1.55884156376999E-17	1.22930131132304E-17
53.1	-2.27705137674437E-17	1.08849306628686E-17	0.657203428881191	0.606188931835193	0.657203428881191	0.606188931835192	5.22409710453977E-18	3.01845925139725E-17
53.2	3.10970247387898E-18	6.05652500638855E-18	0.797028382635935	0.486717500710527	0.797028382635935	0.486717500710526	-1.1876114143259E-17	-3.2561494870807E-18
53.3	-2.39413538636392E-17	1.2879785090224E-17	0.806121935971536	0.365048697626408	0.806121935971536	0.365048697626408	2.17121330557648E-17	-8.21195061603539E-18
53.4	9.12485543464163E-18	-2.12999236541121E-17	0.843873673174815	0.173147329581397	0.843873673174815	0.173147329581397	-4.93666388656906E-17	-5.47605916833364E-17
53.5	1.41255183373694E-17	8.30778656450716E-18	0.904274392563426	0.140451589795279	0.904274392563426	0.140451589795278	-1.44663864162042E-18	-5.03413923064287E-18
53.6	-7.10820300440946E-18	-4.81305135525936E-18	0.904637051716891	-0.0595398513927986	0.904637051716891	-0.0595398513927987	-2.00998338878871E-18	2.83105970489115E-17
53.7	4.43877234152285E-18	3.58712119959786E-19	0.816789762076488	-0.211767407543519	0.816789762076488	-0.211767407543519	5.63560680769794E-18	-1.01984594544439E-17
53.8	-1.47030081379357E-17	1.81364655338509E-17	0.916555817589849	-0.262803765658204	0.916555817589849	-0.262803765658204	-7.85704992707277E-18	-6.6965821803152E-19
53.9	-2.14020081356262E-17	1.63537436187065E-17	0.781794693654558	-0.439034458524036	0.781794693654559	-0.439034458524035	1.490194768782E-17	2.37836780663828E-17
54	-3.60476760370589E-18	1.90302841420805E-17	0.68511335862273	-0.547888835347054	0.685113358622731	-0.547888835347054	-2.01760060744455E-18	-3.19164853760656E-18
54.1	1.34685807725035E-18	-7.83089418456797E-18	0.615193498276041	-0.612016399753322	0.615193498276041	-0.612016399753322	-6.51785425311953E-18	-2.64637075037803E-18
54.2	-9.03809806165456E-18	1.47651404388844E-17	0.528105920515544	-0.709904134743593	0.528105920515545	-0.709904134743593	-4.28930572822791E-18	2.11381923647221E-17
54.3	-4.59729049903237E-18	-3.23350735095582E-18	0.3687157995695	-0.806145982725457	0.368715799569501	-0.806145982725457	1.07848151706285E-17	-2.1155472296937E-18
54.4	-2.24827181566149E-17	2.04584479486127E-18	0.316064209717896	-0.778385552938987	0.316064209717895	-0.778385552938987	-8.24517890089641E-18	2.95530964412203E-17
54.5	-1.37615697137091E-18	-2.71770966488436E-17	0.134183738188282	-0.923109328168983	0.134183738188282	-0.923109328168983	-2.60455893152437E-17	-7.73545355334033E-18
54.6	5.72621634901984E-18	1.02049257173276E-17	0.000448697942835229	-0.857268837207484	0.000448697942835393	-0.857268837207485	-7.65185929646164E-18	2.54172283683712E-18
54.7	6.14671858761638E-19	2.77891606304045E-18	-0.0983868210809363	-0.900359921757179	-0.0983868210809364	-0.900359921757179	4.54557544764693E-19	8.64408411850216E-18
54.8	-3.94287482220351E-18	-8.48037135111648E-19	-0.256446624043575	-0.869602235948533	-0.256446624043575	-0.869602235948532	-4.06958253640461E-18	-1.94390109701391E-17
54.9	6.66990463262755E-18	6.38064888302298E-19	-0.381025977981964	-0.79468552918264	-0.381025977981964	-0.79468552918264	1.72628376632835E-17	-4.28122484457199E-18
55	-3.32815927300411E-19	-9.26147753690569E-19	-0.479723891955892	-0.756417558971064	-0.479723891955891	-0.756417558971064	3.11125918837212E-18	-7.2300028210664E-20
55.1	5.33731352086922E-18	-3.25640813714206E-18	-0.603959082913006	-0.672306918803645	-0.603959082913006	-0.672306918803645	9.83579754184917E-19	-9.15690494179371E-18
55.2	8.00802592555693E-19	-5.59027108361446E-18	-0.671209401996184	-0.571224764898142	-0.671209401996184	-0.571224764898143	1.99533844058241E-18	-3.2324229047362E-19
55.3	-1.0233150399155E-18	9.82622223533249E-19	-0.770626839645612	-0.446702350787273	-0.770626839645613	-0.446702350787273	1.35609840191778E-17	-1.09391618692022E-17
55.4	4.52363816560797E-18	2.50551383707765E-18	-0.816135179457716	-0.368796202087993	-0.816135179457716	-0.368796202087993	-1.71910850667537E-17	6.79480241994516E-18
55.5	-1.67715994634803E-17	9.56702324855653E-19	-0.884763261793835	-0.218129135880785	-0.884763261793835	-0.218129135880785	-3.76249770052277E-18	-5.22913758306746E-18
55.6	-5.18924385660741E-18	2.98970941848093E-18	-0.878016443774506	-0.0981874322412451	-0.878016443774506	-0.0981874322412449	-1.21110025903197E-17	1.66937423792093E-17
55.7	-1.40861831493458E-17	-3.56295561857082E-18	-0.905839646325903	0.022993047739472	-0.905839646325903	0.0229930477394722	1.73144200291633E-17	-6.58424788769838E-18
55.8	7.09693761914225E-18	6.27269179431069E-18	-0.885665583300121	0.171857619600694	-0.885665583300122	0.171857619600694	3.18989169787898E-18	1.54605266782232E-17
55.9	4.2600770766108E-18	9.12996103413867E-18	-0.853888544644014	0.286608113617327	-0.853888544644014	0.286608113617327	-1.13699817293542E-18	-2.66920904959709E-18
56	4.29441100819653E-18	4.49574176320891E-18	-0.777749940812575	0.41542570465039	-0.777749940812574	0.41542570465039	3.72601600449814E-18	8.9835730238981E-18
56.1	-1.18751905416484E-17	1.6569631890049E-17	-0.740449241249093	0.512391314798455	-0.740449241249094	0.512391314798455	8.22286024850836E-18	6.10213368855217E-18
56.2	-1.24767983706858E-17	-9.35783514091436E-18	-0.662304048362989	0.626523057898495	-0.662304048362989	0.626523057898495	-1.19968124197055E-17	-1.79956913553584E-17
56.3	-9.4871097393667E-18	-4.62806082131549E-18	-0.513650798405718	0.72005426339144	-0.513650798405718	0.72005426339144	1.13170333723132E-17	1.6197835652486E-17
56.4	-4.41722329482389E-18	7.84572890992068E-19	-0.462338148677086	0.777222486665332	-0.462338148677086	0.777222486665331	6.16910443372449E-18	3.21672727631152E-17
56.5	-4.44112104438787E-18	1.47133988484646E-17	-0.330064070587734	0.856667490555169	-0.330064070587734	0.856667490555169	-6.19861324872322E-18	4.17142894162213E-17
56.6	1.24580754053685E-17	2.0372157618187E-18	-0.189618837054673	0.862032558941463	-0.189618837054674	0.862032558941462	1.68038674543956E-17	-4.14253077653024E-18
56.7	-8.25036236016438E-18	7.10491412940031E-18	-0.0739261626932776	0.893396953046296	-0.0739261626932776	0.893396953046296	2.56975300248687E-22	8.4797603766775E-18
56.8	-3.599585101826E-19	1.44811879230107E-17	0.0340911382658628	0.910897987862963	0.034091138265863	0.910897987862964	-4.17066494853116E-18	5.52386044589388E-17
56.9	1.18287103728096E-17	6.96332391293737E-18	0.174646587988941	0.872212877011266	0.174646587988941	0.872212877011265	1.83764598269161E-17	1.01807371718818E-17
57	-3.5617713948088E-18	2.34552131298857E-17	0.324392523720036	0.808996235165768	0.324392523720037	0.808996235165769	1.93318565466583E-17	1.06921192056669E-17
57.1	1.96356600158772E-17	-7.3037366494772E-18	0.416776964740986	0.781255723533606	0.416776964740986	0.781255723533606	1.99098330143272E-17	3.13635285129788E-17
57.2	-1.14582143772248E-18	1.11859688120119E-18	0.52685312001625	0.740310881050771	0.52685312001625	0.740310881050771	-6.35126111559477E-18	8.2953856930985E-19
57.3	7.20306247605757E-18	-1.48812733653239E-17	0.670510921798427	0.59118435459439	0.670510921798427	0.591184354594391	-5.55588659155673E-18	-4.40087484845245E-17
57.4	-5.69056713557898E-18	2.84194337589904E-18	0.673790356889088	0.514888864057513	0.673790356889087	0.514888864057513	-1.1494807728857E-17	1.47647234004285E-17
57.5	4.18440860857356E-18	6.61514909468738E-18	0.793403682710997	0.43694068374704	0.793403682710998	0.43694068374704	6.64254205397137E-17	-1.2126378608461E-17
57.6	-3.08934374713045E-18	-6.35804056212554E-19	0.85210888355177	0.295023046730821	0.85210888355177	0.295023046730821	-8.2654527307632E-18	4.01614687126959E-17
57.7	-1.24550911013955E-17	1.8430264819844E-18	0.842070663521333	0.164050739361563	0.842070663521333	0.164050739361562	-1.78395539033183E-17	1.34371570990824E-17
57.8	1.72465026850705E-17	1.32005258610379E-18	0.888987629198827	0.0695809906317988	0.888987629198827	0.0695809906317989	-1.2767082160428E-17	-7.59628950093983E-18
57.9	-9.45765471752573E-18	-1.60233244017631E-17	0.899748674338026	-0.0398813134275051	0.899748674338026	-0.0398813134275053	-1.70679764233423E-17	-1.30922790374676E-18
58	-4.41048655002559E-18	-1.46675563457889E-17	0.853170004151174	-0.229865078851268	0.853170004151174	-0.229865078851268	-1.33072742924961E-17	-2.82948340032176E-17
58.1	1.26772969960085E-18	7.12948384175323E-18	0.792402315452382	-0.296633055080293	0.792402315452382	-0.296633055080293	1.24240860643199E-17	-4.64279815647871E-18
58.2	1.55182322374031E-18	-8.80325468470193E-18	0.781051849748271	-0.427461365931961	0.781051849748271	-0.427461365931961	-1.53134062390553E-17	-1.30652436185461E-17
58.3	5.38246140899754E-18	9.68683859849244E-18	0.69549512099893	-0.548758200202424	0.69549512099893	-0.548758200202424	2.13008226026589E-17	1.62941546234347E-17
58.4	2.30004554352211E-18	2.48524815967665E-18	0.59868201608237	-0.575959761199687	0.59868201608237	-0.575959761199687	5.70381320476664E-18	7.4094438249913E-18
58.5	-3.99940742185986E-17	5.04893633355016E-19	0.559708229880607	-0.701360725342355	0.559708229880606	-0.701360725342354	-1.91573329161501E-17	1.65347116603096E-17
58.6	1.44855175642863E-17	1.76827166568251E-17	0.421246766903654	-0.76964903889156	0.421246766903654	-0.76964903889156	-7.42357339478172E-18	7.86685258223843E-19
58.7	-1.20627728259084E-17	-4.05253585608199E-18	0.298216561785684	-0.7891316193303	0.298216561785684	-0.789131619330299	-4.76438627636465E-18	7.36782498111766E-19
58.8	-1.4822565417618E-17	2.11772095956493E-17	0.207022609253365	-0.834530737725305	0.207022609253365	-0.834530737725305	-4.19583505364347E-18	7.93650274018268E-18
58.9	8.23125247845183E-18	-2.12680919489548E-17	0.110200533631243	-0.869411889835618	0.110200533631243	-0.869411889835618	1.42826397637529E-18	-1.88934086137793E-17
59	-1.56107284045217E-17	-1.15109988406734E-17	-0.0543155578948902	-0.855747206336821	-0.0543155578948901	-0.85574720633682	1.54602122377214E-17	-9.8459050040924E-18
59.1	1.06905537195101E-18	-2.01408476304717E-17	-0.138285863427183	-0.836991582343177	-0.138285863427183	-0.836991582343177	6.50287233002305E-18	1.52612034997042E-17
59.2	2.20788500114591E-18	2.19015116870515E-18	-0.248283205123676	-0.846259326050626	-0.248283205123676	-0.846259326050627	8.52995757778244E-18	4.54481159523898E-18
59.3	-8.76397547655354E-18	-5.7398827896133E-19	-0.396959203536178	-0.753647683180362	-0.396959203536178	-0.753647683180362	-6.96958878344334E-18	-9.6486045740661E-19
59.4	-6.41666527695864E-18	1.36648182992677E-17	-0.456596010226698	-0.718836716014962	-0.456596010226698	-0.718836716014962	-1.44646210630953E-17	1.82246584966454E-17
59.5	-6.4733119606499E-18	-1.02942544134573E-18	-0.580341107170353	-0.646499386369646	-0.580341107170353	-0.646499386369646	6.15999863240979E-19	-5.69494795873071E-18
59.6	1.31341914344197E-17	-4.11653177139521E-18	-0.652865315320534	-0.538956024012893	-0.652865315320534	-0.538956024012893	9.53072965834214E-18	-3.10482123024124E-18
59.7	-2.14543273938016E-18	-1.75473307750857E-17	-0.726240569649129	-0.470964803328455	-0.726240569649129	-0.470964803328455	7.0048469890762E-19	3.95762523724322E-18
59.8	8.95937619895058E-18	-7.77740301904094E-18	-0.793115981496924	-0.361774798831969	-0.793115981496924	-0.361774798831968	-1.46565107536251E-18	-5.71025675932047E-18
59.9	5.56003293610314E-18	-5.70216824297347E-18	-0.820278622365266	-0.258666946513744	-0.820278622365266	-0.258666946513743	3.62597284020272E-18	4.88937595701577E-18
60	1.22319800814922E-17	3.54146776277145E-18	-0.848295400831133	-0.120330557538408	-0.848295400831133	-0.120330557538408	-8.6835541687554E-18	7.09745167769613E-18
60.1	-2.31755493794899E-17	5.33977344092517E-18	-0.845666414474196	-0.0158624467044438	-0.845666414474196	-0.0158624467044437	-1.24946199693194E-17	2.01490450387213E-18
60.2	-1.42370192796987E-17	9.20262599687918E-18	-0.863545474994468	0.0775118012300202	-0.863545474994468	0.0775118012300205	-1.92536242357998E-17	1.07731250674509E-17
60.3	7.81248783943386E-18	-9.32440726583053E-18	-0.827257390824867	0.234144616362244	-0.827257390824867	0.234144616362244	5.92240772916114E-18	-1.11725197521384E-17
60.4	8.33135512354827E-19	4.5006496090884E-18	-0.776041526890497	0.298633325272762	-0.776041526890497	0.298633325272762	-3.69659881881682E-18	1.72315029036874E-18
60.5	6.9352259265408E-18	-2.20479866016927E-17	-0.747357355962436	0.428569686794761	-0.747357355962437	0.428569686794761	7.79114481647639E-18	-4.39143140579188E-18
60.6	-2.34542827397721E-18	1.37148445311322E-17	-0.675604552362292	0.519357057968492	-0.675604552362292	0.519357057968491	3.00429896406285E-18	3.40638844075081E-18
60.7	5.44580785266942E-20	2.51961388726759E-18	-0.596113410070372	0.609136823812168	-0.596113410070372	0.609136823812167	7.18397849422774E-19	4.08075804717815E-18
60.8	-1.11031120625207E-17	2.49811617028224E-18	-0.512537333473196	0.688978745105737	-0.512537333473196	0.688978745105737	-8.27452141975436E-19	-2.75660220303515E-18
60.9	2.40518620803335E-18	8.91498293580915E-19	-0.423288479428747	0.748199945211112	-0.423288479428747	0.748199945211112	1.23084674132344E-17	-4.40529998504234E-18
61	-2.50950847746646E-18	1.14179405450391E-17	-0.305348574446735	0.800603542498676	-0.305348574446735	0.800603542498677	-9.24584893247114E-18	1.99027793564984E-18
61.1	6.94534141946231E-18	-1.12805942614252E-17	-0.191373921288716	0.818960369298851	-0.191373921288716	0.818960369298851	3.51579412233243E-18	-1.12650652776805E-17
61.2	1.7187179213435E-17	-2.54200231278395E-18	-0.0965925889617699	0.841075279237802	-0.0965925889617699	0.841075279237803	-2.95956733668796E-18	1.27151999338878E-17
61.3	-1.1242153500258E-17	-1.89018480416615E-17	0.0201209889348492	0.863334022026441	0.020120988934849	0.863334022026441	-4.62971405366132E-18	-1.24920244433192E-17
61.4	8.29453436369783E-19	-5.10755536471238E-18	0.167896299945663	0.833377457937918	0.167896299945663	0.833377457937918	-3.93574981415455E-18	-2.08645564752228E-18
61.5	1.43887734801721E-17	4.96740989655271E-18	0.23020630152528	0.795117893956194	0.23020630152528	0.795117893956194	5.76122434494676E-18	-1.31327956843878E-17
61.6	-6.06196476577153E-18	6.97108695017647E-18	0.361637924207744	0.793721675480275	0.361637924207744	0.793721675480275	-1.25561875985519E-18	-4.58972402823822E-18
61.7	-6.24247260121134E-18	1.50043739018945E-18	0.472637277515694	0.718901890143249	0.472637277515694	0.718901890143248	-2.04557257597253E-17	-1.09307532893957E-17
61.8	-7.23293111495863E-18	6.85063807713134E-18	0.543557945689105	0.636270510618362	0.543557945689105	0.636270510618362	1.408356919209E-17	3.82293037827296E-19
61.9	-9.27920963161066E-19	2.44175893118472E-18	0.631748429006603	0.556328343361589	0.631748429006603	0.556328343361589	-7.54466431344696E-18	8.86156307073179E-18
62	-8.48623087510252E-18	2.35818913229038E-18	0.695115543723119	0.490210311351953	0.695115543723119	0.490210311351952	-1.41332873856161E-17	-1.16178319648279E-17
