# GHZ S RI R 50
50	1.13307112581462E-17	4.89381149867583E-18	0.794742211829977	-0.561192410747559	0.794742211829977	-0.561192410747559	-1.28665873128741E-17	6.59372542063435E-19
50.1	7.90175921944124E-18	-2.57951426537143E-17	0.666509507840069	-0.673747758556648	0.66650950784007	-0.673747758556648	1.09563978928568E-17	4.55616082180202E-18
50.2	7.35439200998206E-18	5.01041062051052E-18	0.558516384779115	-0.766748033150141	0.558516384779115	-0.766748033150141	-1.05900757852114E-17	-2.32785563558542E-18
50.3	-7.3985342752764E-18	-5.05518124556276E-18	0.437273230261267	-0.873277241717744	0.437273230261267	-0.873277241717743	1.0846572740917E-17	-7.59862957935917E-18
50.4	9.97032685244798E-18	-1.12468823037542E-17	0.241203356783442	-0.90129319264731	0.241203356783442	-0.901293192647309	7.7759634154567E-19	-7.39557094921859E-18
50.5	1.38962534753251E-17	-1.10606744889784E-17	0.130700155432131	-0.951390634974301	0.13070015543213	-0.951390634974301	1.17391785422798E-17	-3.35796787679104E-18
50.6	-1.9444646162453E-18	-3.74530096886924E-18	-0.0467284756760967	-0.949358099762132	-0.0467284756760968	-0.949358099762131	-3.42719382349308E-18	-2.81154661149638E-18
50.7	3.86692373639135E-18	-6.63260039917963E-18	-0.18666316741427	-0.922125782395567	-0.18666316741427	-0.922125782395567	-2.82923969144834E-18	1.19437043100356E-18
50.8	-7.19768018083273E-18	-1.99750274789135E-17	-0.351170115267874	-0.904535212890922	-0.351170115267874	-0.904535212890922	8.12774919565015E-18	-7.92032022070091E-19
50.9	-6.42528217513088E-18	1.52875493887025E-17	-0.479203838656142	-0.797390498665683	-0.479203838656142	-0.797390498665683	4.63444819807285E-18	2.96671476835349E-17
51	2.70658211929057E-18	1.25380698130637E-17	-0.617416944919418	-0.73087223499332	-0.617416944919418	-0.73087223499332	2.39615502498747E-17	2.01671270469762E-17
51.1	-8.82559073642968E-18	4.19854000496331E-18	-0.722933855534735	-0.615468157060328	-0.722933855534735	-0.615468157060328	-5.45668210256699E-19	6.42433059712213E-18
51.2	-7.03570495245243E-18	2.11522449043936E-17	-0.806928969429428	-0.48486225233861	-0.806928969429428	-0.48486225233861	7.21719486190765E-19	1.35741902993906E-18
51.3	1.72001440827734E-17	2.64395722674432E-17	-0.878964438772342	-0.350057958918876	-0.878964438772341	-0.350057958918875	1.75158113753165E-18	3.79640832142309E-18
51.4	-2.38502589941071E-17	1.32101557165306E-17	-0.937465163233315	-0.223847229001339	-0.937465163233315	-0.223847229001339	3.9660204638175E-18	8.33070261918848E-18
51.5	2.08951421198942E-18	-7.95282151599082E-18	-0.930508009133413	-0.033973135568098	-0.930508009133411	-0.033973135568098	-2.90806227810138E-18	8.83548280112784E-18
51.6	8.09520280356825E-18	1.59344405064015E-17	-0.942763679335784	0.0814454055710565	-0.942763679335783	0.0814454055710562	1.10778117525182E-17	-4.29346064741957E-18
51.7	1.47651781131713E-17	-1.05954258945187E-17	-0.932080037998365	0.232984772080388	-0.932080037998366	0.232984772080388	-8.03209209483266E-18	-5.01572276510766E-17
51.8	1.98568897018708E-18	2.61520864149411E-18	-0.822196634782143	0.381107519476638	-0.822196634782142	0.381107519476638	-1.29789132512046E-18	2.63463463274731E-18
51.9	1.27067807292293E-17	-1.05177010413309E-17	-0.82475900676244	0.502661677423761	-0.824759006762439	0.502661677423761	9.101484616822E-18	2.47221484520644E-17
52	-7.20246065843335E-18	9.44733800770008E-18	-0.673024146270562	0.642863576786255	-0.673024146270562	0.642863576786255	-1.18883193107994E-17	-3.17770613574532E-18
52.1	-4.37198014882907E-18	6.81790867153947E-19	-0.569068784828187	0.723511686107352	-0.569068784828187	0.723511686107351	7.92152174736541E-18	1.4825401874181E-18
52.2	-8.64034531032648E-18	4.76629200649457E-18	-0.475621724337814	0.805556132415092	-0.475621724337813	0.805556132415091	7.5178494546169E-18	-1.15156620955145E-17
52.3	2.12173392439881E-18	-3.09734487435455E-17	-0.346548845724806	0.869625955930661	-0.346548845724806	0.86962595593066	-2.50338272120951E-17	-1.11535579689361E-17
52.4	2.65991727243714E-19	1.99177417832579E-17	-0.194174547816764	0.946054566434769	-0.194174547816765	0.946054566434769	1.57227046947091E-17	4.54652451698085E-17
52.5	-6.83703550813224E-18	9.44254081016463E-18	-0.0607449868324811	0.887094210624112	-0.0607449868324809	0.887094210624112	-1.40980043416222E-17	1.19045474526593E-17
52.6	1.4488786173627E-18	-1.30355801761282E-17	0.0642431883100648	0.955380236041485	0.0642431883100646	0.955380236041485	2.77099568156825E-17	3.87884077098887E-17
52.7	6.94312218130561E-18	-1.32436093562102E-17	0.275038888558367	0.929232492849327	0.275038888558367	0.929232492849326	2.37864105748675E-17	-2.32007285328153E-17
52.8	-1.39862301882349E-17	-5.72961645385237E-18	0.31397114894376	0.756068209166386	0.31397114894376	0.756068209166387	-4.9001079142437E-18	1.80953012245741E-17
52.9	-1.83487361789349E-17	-1.19531614463434E-17	0.572347010533857	0.868276155592003	0.572347010533857	0.868276155592003	-2.46458743369075E-17	3.8421632276772E-17
53	-3.37912465016141E-17	-1.42300871208506E-17	0.591332960908524	0.653684869270834	0.591332960908524	0.653684869270833	-3.93895888382319E-18	3.92271396631846E-17
53.1	-2.38903168110402E-17	5.06143623951065E-18	0.698849339219904	0.622585733329146	0.698849339219904	0.622585733329146	-1.97014295828909E-18	9.4068474317393E-18
53.2	5.38120632317287E-18	4.60076555139551E-18	0.841803894315866	0.496706465552861	0.841803894315865	0.496706465552861	1.20194605196698E-18	2.17601685126093E-18
53.3	-1.70432887869982E-17	-2.8771975169667E-18	0.850890250983644	0.367323182993647	0.850890250983644	0.367323182993647	2.54362512855837E-18	-1.46815264322029E-17
53.4	-1.47744712377587E-17	-1.18601793368698E-18	0.889085357992354	0.167101097473199	0.889085357992353	0.167101097473199	7.16371157691686E-18	5.07689491895106E-18
53.5	3.73414777131677E-18	4.336164364158E-18	0.947686589208315	0.129615491834318	0.947686589208315	0.129615491834319	1.20309942620083E-17	-1.06511135257801E-17
53.6	2.57094840723739E-18	-3.59875991015647E-18	0.946189948943754	-0.0782735264811592	0.946189948943755	-0.0782735264811592	1.04115602418446E-17	-4.11231074913108E-18
53.7	2.95008335235478E-17	1.72119986154883E-17	0.853878661576064	-0.237832963884757	0.853878661576065	-0.237832963884757	-2.10055909511894E-18	-9.08063506271092E-18
53.8	-1.61865649520878E-17	-2.39035949997186E-17	0.951164515866261	-0.291747071472175	0.951164515866261	-0.291747071472175	2.96220662739385E-17	1.3120706050535E-17
53.9	1.90453003847177E-17	-2.61326736558472E-17	0.810159568513529	-0.474412397705376	0.81015956851353	-0.474412397705377	1.8101199127088E-17	-1.35129661839691E-17
54	1.71159973378327E-18	-2.91363628919906E-17	0.707203146508113	-0.587379449199111	0.707203146508113	-0.587379449199111	-1.89270146589204E-17	-1.84483626113396E-17
54.1	-2.56694914317195E-17	3.4118622089718E-18	0.63101154659852	-0.653638449944148	0.63101154659852	-0.653638449944149	-1.54382914350232E-17	9.14057904876201E-18
54.2	-4.92043009525807E-18	1.69355878489883E-18	0.537650198818775	-0.753659121169585	0.537650198818775	-0.753659121169585	-1.80568385644642E-17	4.64258706170779E-18
54.3	6.18788423816958E-19	-3.22791438883437E-17	0.370672014272508	-0.851726735991105	0.370672014272508	-0.851726735991105	-2.32906295205319E-17	-1.51257867799602E-17
54.4	1.46874227027418E-17	-4.03165774251441E-19	0.31194503543816	-0.821632386189954	0.31194503543816	-0.821632386189954	1.06708035668909E-17	-1.20272557101526E-17
54.5	3.30098816480332E-17	3.06828914891316E-17	0.122823589976683	-0.967852186393882	0.122823589976683	-0.967852186393883	4.79643523051613E-17	1.23729235294521E-17
54.6	-1.63404144628893E-17	1.18678312579823E-17	-0.0180346435458493	-0.898271990976401	-0.0180346435458492	-0.8982719909764	-1.33172515551597E-17	1.73521061411014E-17
54.7	2.24577719618128E-19	-1.13211042906774E-17	-0.122029693004639	-0.939001502934819	-0.122029693004639	-0.93900150293482	7.43208782391996E-18	-8.4001609275487E-18
54.8	9.71294382554045E-18	-1.11125476092289E-18	-0.286286424609594	-0.904206200042023	-0.286286424609594	-0.904206200042022	-4.20634329602848E-18	4.86854413769408E-18
54.9	8.19467494032146E-18	-3.01879843660903E-18	-0.415928740316364	-0.823808243498138	-0.415928740316363	-0.823808243498139	1.63431958983854E-17	-7.21918392146201E-18
55	4.83689161246128E-18	-1.68076131314319E-18	-0.51825375191393	-0.780411194051893	-0.51825375191393	-0.780411194051893	4.28292959862104E-18	-2.3268640242169E-18
55.1	4.65728911169712E-18	6.45643279808252E-20	-0.64611631057122	-0.690161604426238	-0.64611631057122	-0.690161604426239	1.53690196637959E-17	2.56811390465782E-18
55.2	-1.49630332937138E-19	1.02004732487093E-17	-0.715116251760402	-0.582316558013077	-0.715116251760402	-0.582316558013076	-7.22380548268693E-18	1.49445282360662E-18
55.3	-2.43583478086357E-18	1.31183212885665E-17	-0.816303527735021	-0.450712991961928	-0.816303527735021	-0.450712991961928	-1.55059665409163E-17	8.49489196137437E-19
55.4	-2.4081790231334E-20	-1.26399988541147E-17	-0.86158386069823	-0.366694599564299	-0.86158386069823	-0.366694599564299	-4.59932008416111E-18	-1.24596977691335E-17
55.5	5.3863545532251E-18	-1.13982961205324E-17	-0.929988386351444	-0.208673439064843	-0.929988386351444	-0.208673439064843	2.92167419255551E-17	-1.75666344413603E-17
55.6	2.54622587004829E-18	-1.30967096129242E-17	-0.920718978861767	-0.0822231177934688	-0.920718978861767	-0.0822231177934689	8.49037508964012E-18	3.0347519941121E-18
55.7	6.25419931184132E-18	4.0950058173651E-18	-0.946215186143963	0.0449914174623135	-0.946215186143963	0.0449914174623135	2.33557852513467E-17	7.1561131916805E-18
55.8	-2.14606916256278E-18	-7.50958292564308E-18	-0.922209640700153	0.200058634778902	-0.922209640700152	0.200058634778902	-8.93822448925432E-18	1.76482046795426E-17
55.9	1.01415033289914E-17	2.58195056221764E-18	-0.885910586743794	0.319724900432369	-0.885910586743795	0.319724900432369	8.66743415945898E-18	8.05731921952908E-19
56	2.91391407855287E-17	3.64079242564621E-19	-0.803966205418551	0.453183709612122	-0.80396620541855	0.453183709612122	1.21089259414513E-17	1.42361631451414E-17
56.1	-2.73851183042755E-18	7.19190535785016E-18	-0.761487655986219	0.553422993792797	-0.761487655986218	0.553422993792797	1.53875181504326E-18	1.01964559369246E-17
56.2	-1.21212864405954E-18	3.13918754872375E-18	-0.677122549242285	0.670572493283839	-0.677122549242285	0.670572493283839	-4.51162344534982E-18	-2.21006470151494E-17
56.3	-6.97548059923497E-18	-4.40611414149848E-19	-0.520672894957035	0.765957020852882	-0.520672894957036	0.765957020852882	-2.09836186292235E-17	-4.49975164828961E-18
56.4	-3.22191073636538E-18	7.39027611772016E-18	-0.463801201869464	0.823565363235685	-0.463801201869464	0.823565363235684	2.53477699390083E-18	3.1084990422532E-17
56.5	-2.65259299599441E-18	1.07537926518555E-17	-0.324271133711818	0.903236554145917	-0.324271133711818	0.903236554145917	-5.82853625370457E-19	5.73088049143101E-18
56.6	-2.96392287854562E-19	4.67025370339582E-18	-0.17675872679062	0.906544640029107	-0.17675872679062	0.906544640029109	-3.18829226412301E-18	-2.36476608048337E-17
56.7	-5.03236450380943E-18	1.01550448750086E-17	-0.0548422232201757	0.935924243410769	-0.054842223220176	0.93592424341077	-2.09314574365591E-17	3.43848158642429E-17
56.8	1.74599570011296E-18	1.40562918261138E-17	0.0588177774084049	0.95067440033854	0.0588177774084047	0.950674400338539	7.39897041373557E-18	2.44554645602788E-17
56.9	-3.4201053682997E-18	3.29286137659391E-18	0.205149948546343	0.907399575764114	0.205149948546343	0.907399575764114	-1.63688738891902E-17	-2.21352519001687E-17
57	5.63240928964861E-18	3.63542778234659E-19	0.360324408726467	0.838649393674164	0.360324408726467	0.838649393674164	0	0
57.1	-5.99786438587384E-18	-4.4676185990015E-18	0.456324486983931	0.806069208874489	0.456324486983931	0.806069208874488	-1.53286067041126E-18	1.12308673666654E-17
57.2	5.13237006707545E-18	4.75611894861889E-18	0.569855532217462	0.759748325457412	0.569855532217463	0.759748325457412	9.51223789723778E-18	-1.02647401341509E-17
57.3	9.75528711641367E-19	-3.25770724439043E-18	0.716705535365486	0.602511706648885	0.716705535365486	0.602511706648885	3.68622649284233E-17	-1.87800881904356E-17
57.4	-5.86865725948075E-18	1.05789017450689E-17	0.719561331503229	0.520194097272548	0.719561331503229	0.520194097272548	-2.64018475517805E-17	7.27666035864825E-18
57.5	7.27312972476577E-19	7.10551653099344E-18	0.840937505060988	0.435880741291151	0.840937505060988	0.435880741291151	-2.72156432616947E-17	-3.31779703296383E-17
57.6	5.99143080754497E-18	-7.11222671002992E-18	0.899062795616273	0.28647438544605	0.899062795616272	0.28647438544605	8.20335190496977E-18	-1.69052096813223E-17
57.7	4.98472071935036E-18	-1.0137385009379E-17	0.886331696012553	0.148790990789304	0.886331696012553	0.148790990789304	1.50864007348039E-17	-2.22130524764454E-17
57.8	-2.50633025982604E-17	-2.1590186739865E-17	0.931566929860049	0.0485331259281856	0.931566929860049	0.0485331259281856	-2.77410899430014E-17	-1.04870242645122E-17
57.9	6.95292078566145E-19	-4.66292639009238E-18	0.939280601009779	-0.0665574632783603	0.939280601009779	-0.0665574632783605	1.58874005405784E-17	-1.9353246237014E-17
58	6.21262373589194E-18	-4.92978369008775E-18	0.887388948161808	-0.263325601499494	0.887388948161809	-0.263325601499494	-1.68076158676956E-18	2.86716429603438E-18
58.1	1.13999649187036E-17	1.17273894190006E-17	0.821291680519356	-0.333399231009339	0.821291680519357	-0.333399231009339	-1.00568254289399E-17	-4.47962715719947E-18
58.2	4.2836315759972E-18	-4.49586078660266E-18	0.805227853014537	-0.468851386672042	0.805227853014536	-0.468851386672042	7.68189364835779E-18	7.82381223920698E-18
58.3	-1.21671094673613E-17	-2.04619802086162E-17	0.713002717311371	-0.593531460955982	0.713002717311371	-0.593531460955982	-2.82815587960088E-17	-1.12885082371109E-17
58.4	1.32376629402898E-17	5.01156463256508E-18	0.60971566418641	-0.621161589421546	0.60971566418641	-0.621161589421546	-2.37984656500853E-17	-7.44402784275688E-18
58.5	-1.86740796489799E-17	1.80547513326836E-17	0.565059341741992	-0.749334759790447	0.565059341741992	-0.749334759790448	1.51135733756286E-17	8.39088090235992E-18
58.6	-3.80064248073072E-18	-1.53037114824897E-17	0.418869821784459	-0.817637429002677	0.41886982178446	-0.817637429002677	1.24511173814077E-17	7.27263638938536E-18
58.7	2.68046099992598E-17	-9.97596876871794E-18	0.288964670744668	-0.835505903288664	0.288964670744667	-0.835505903288663	8.6048181114737E-18	-8.75733934141179E-18
58.8	-4.8871124592708E-18	2.25058724814353E-17	0.191724667932288	-0.879676637197976	0.191724667932288	-0.879676637197977	4.78946946615342E-18	-7.08656120611275E-18
58.9	1.99781272564332E-17	3.44089216201281E-17	0.0890368957481478	-0.912588451131553	0.0890368957481477	-0.912588451131552	-1.25786801602118E-18	1.01576469963073E-17
59	-9.63736288084232E-18	1.78913337775217E-18	-0.0823421573006976	-0.894668579706154	-0.0823421573006977	-0.894668579706153	-3.0265807804655E-18	2.87622116082131E-18
59.1	1.08423939681918E-17	-2.51104253195103E-17	-0.170679987992778	-0.871860061609785	-0.170679987992778	-0.871860061609785	1.43475916929188E-17	-2.88479959421841E-18
59.2	1.68375663137286E-17	1.5594626057932E-17	-0.285603665296867	-0.877289675637763	-0.285603665296867	-0.877289675637764	2.21319032802522E-17	1.8474786939189E-17
59.3	1.31791077583445E-17	1.24595383298374E-18	-0.438746949271846	-0.777529471174094	-0.438746949271847	-0.777529471174094	1.8916274585748E-17	-1.90160934452241E-18
59.4	4.99433562138902E-18	5.01697528353103E-19	-0.500615891702679	-0.737764871876992	-0.500615891702679	-0.737764871876992	-1.41263688672738E-18	-2.04557680018459E-18
59.5	6.5500469828049E-18	1.30748100107287E-17	-0.627427012504524	-0.658710159848241	-0.627427012504525	-0.658710159848242	-1.16282126379208E-17	2.66790255740563E-18
59.6	7.78839984587438E-18	-1.3620449032503E-17	-0.700788620660035	-0.544009132817541	-0.700788620660035	-0.544009132817541	-7.56599985111755E-18	8.98320546064663E-18
59.7	1.71431887402911E-18	7.14048972740491E-18	-0.774946096422926	-0.469910809627739	-0.774946096422926	-0.46991080962774	-2.95072804249332E-18	-4.88899382759914E-18
59.8	5.22608368852506E-18	-1.11885484495428E-17	-0.841484533725916	-0.353666665469667	-0.841484533725915	-0.353666665469667	6.61622252194673E-18	2.62361840813966E-18
59.9	-8.55671004854587E-18	-1.29719031396279E-17	-0.866862540428087	-0.244276032149038	-0.866862540428088	-0.244276032149038	8.87613709130074E-19	-4.81848758438562E-18
60	-8.67102614553581E-18	1.30976605084997E-17	-0.89224214755342	-0.0989083127489765	-0.892242147553419	-0.0989083127489762	-1.20742306734755E-17	9.11004179716894E-18
60.1	6.36684322511309E-18	9.38111773443537E-18	-0.886150473802537	0.0110512382172247	-0.886150473802537	0.0110512382172248	4.0095580105097E-18	-3.1664333615036E-18
60.2	3.49815826147095E-18	-1.11657679104077E-17	-0.90092077928918	0.109568407361252	-0.90092077928918	0.109568407361252	8.69143829914053E-18	-9.50446648033627E-18
60.3	6.90823677003488E-18	-4.86302521659948E-18	-0.858894921061419	0.271991282644049	-0.858894921061419	0.271991282644049	-4.3195305736686E-18	-8.58227056905582E-18
60.4	3.78823458400776E-18	-3.66257319013955E-18	-0.802477904740999	0.339175390215369	-0.802477904740999	0.339175390215369	-7.68465402026739E-19	-4.87735881364598E-18
60.5	3.57643693177138E-19	-1.80020974095336E-17	-0.768136638010199	0.473502930812167	-0.768136638010199	0.473502930812167	1.88183338473582E-18	5.68950494992862E-18
60.6	-1.99711526952659E-17	1.54205232151355E-17	-0.689926007571086	0.566562922681542	-0.689926007571085	0.566562922681542	-6.10271981829498E-18	-1.21000358612051E-18
60.7	2.92427185098445E-18	1.77975801521159E-17	-0.603684012287267	0.65802155631998	-0.603684012287268	0.658021556319981	7.97517746878113E-19	1.72868773518322E-17
60.8	-2.2107633600131E-18	-2.92221660504303E-18	-0.513354619222655	0.738752403495671	-0.513354619222655	0.738752403495671	1.50547522160782E-17	-7.84856842626522E-18
60.9	-2.7504782555585E-18	-7.66674537014554E-18	-0.417531269201321	0.797760466109373	-0.417531269201321	0.797760466109374	-1.39879044686141E-17	2.42516739127082E-17
61	2.17250410700334E-18	-1.07260247505186E-17	-0.29241619229062	0.848874137007478	-0.29241619229062	0.848874137007478	-9.84329189751774E-18	-1.83440055146206E-17
61.1	-8.0812585848245E-18	1.06976983372658E-17	-0.172047094031533	0.864629024036104	-0.172047094031533	0.864629024036105	5.87137723541009E-18	6.08135476544208E-18
61.2	9.71169575182524E-18	-2.14092832747062E-17	-0.0715590402742974	0.884151673609864	-0.0715590402742973	0.884151673609864	-7.62906623604417E-18	1.39895019661122E-19
61.3	-3.70714740251605E-18	-2.31493254942119E-17	0.0512471030521905	0.903106872701605	0.0512471030521906	0.903106872701605	-3.12468336015968E-18	-7.05494084801547E-18
61.4	-1.02676078613534E-17	-6.423960274645E-18	0.204815532850775	0.867542109601777	0.204815532850774	0.867542109601776	-3.85295310085236E-18	-7.70520701751613E-18
61.5	-6.42903530137692E-18	-2.20085390953274E-17	0.270041073413833	0.824558604037489	0.270041073413833	0.82455860403749	-3.01774505898324E-19	-1.47610344882023E-17
61.6	-2.13054587123882E-18	2.19971925040162E-17	0.406637640048309	0.818084111075481	0.40663764004831	0.818084111075482	1.20896368446025E-18	1.99859341237693E-17
61.7	4.76689830441296E-18	7.67061279133574E-18	0.520529753669124	0.736278002463768	0.520529753669124	0.736278002463768	1.25739381407902E-18	-7.78362574438462E-18
61.8	7.18406278427345E-20	-1.60815810628492E-17	0.59266829743999	0.647006038509342	0.592668297439991	0.647006038509342	3.55969081041236E-18	-2.36865581213993E-18
61.9	-3.16654762134796E-19	1.22915775794992E-17	0.682185158950908	0.560115355917563	0.682185158950909	0.560115355917563	1.48352370962409E-17	5.32344100347733E-18
62	1.47982417851899E-17	6.31304733403822E-18	0.746006646513124	0.487873503926345	0.746006646513125	0.487873503926345	7.30071313993153E-18	8.0891712543252E-18
