# GHZ S RI R 50
50	-8.52958199880218E-19	1.25888889495901E-18	0.755789600616623	-0.528391231794862	0.755789600616623	-0.528391231794863	4.19119491742449E-18	-4.7506071218793E-18
50.1	-6.79203333882794E-18	-7.69542794940196E-18	0.635122232406398	-0.633784732212531	0.635122232406398	-0.633784732212531	4.18820544612046E-18	7.07111910555346E-19
50.2	-3.06343107022763E-18	-1.96175423282118E-17	0.535087009436266	-0.723202519569875	0.535087009436266	-0.723202519569876	1.65055535092109E-17	5.9632964100636E-18
50.3	-3.84626074190822E-17	-3.43284395390426E-17	0.42032265950315	-0.827192682302072	0.420322659503151	-0.827192682302073	2.18540533342847E-17	2.07571823909112E-18
50.4	-1.33382989893519E-17	-9.14900421914772E-20	0.234924766203235	-0.851190249986772	0.234924766203235	-0.851190249986772	7.97111678640225E-18	-1.72962161155533E-17
50.5	-3.31347920700064E-18	3.54048512001327E-18	0.131295690115969	-0.903421742402067	0.131295690115969	-0.903421742402067	1.92755261406368E-18	-3.952014892545E-18
50.6	-1.47765507529085E-17	-7.28566325335096E-18	-0.0371437723271075	-0.90166530119248	-0.0371437723271076	-0.90166530119248	-5.03718503702324E-18	-9.50697348082728E-18
50.7	-5.66388636051773E-18	-2.16364633356409E-17	-0.169045211824801	-0.87806817736947	-0.169045211824801	-0.87806817736947	1.54494355891806E-18	3.86371893056791E-18
50.8	-4.16541593588641E-18	-9.15376273918928E-18	-0.327646712197811	-0.863202730505591	-0.327646712197811	-0.863202730505592	2.45312048981839E-18	2.76587167205176E-18
50.9	-1.65962153780419E-17	4.70190073218653E-18	-0.44739311760723	-0.762288090741914	-0.44739311760723	-0.762288090741913	-1.34306009309422E-17	1.8130099719182E-18
51	-2.24922366219995E-18	-1.13974910636963E-17	-0.581383188056462	-0.700750756972242	-0.581383188056461	-0.700750756972242	-8.74630527985476E-18	-1.79477707022438E-19
51.1	-7.8765080186851E-18	1.50682245335714E-17	-0.682411975141565	-0.592383043827293	-0.682411975141565	-0.592383043827293	3.80938133722316E-18	-3.40231737145125E-18
51.2	3.12100220594048E-18	1.5439258001137E-18	-0.763222130503324	-0.469454749471739	-0.763222130503324	-0.469454749471739	-7.4585807127726E-18	3.76907108324199E-18
51.3	-1.02167057301132E-17	-1.17567351361563E-18	-0.833650089051749	-0.342001733699292	-0.833650089051749	-0.342001733699292	-4.93235664798903E-18	7.00527008319029E-18
51.4	4.61838788259485E-18	-8.70094749418453E-19	-0.892584032451739	-0.222467269809901	-0.892584032451739	-0.222467269809901	3.16110703727348E-18	-6.63175684479679E-18
51.5	8.24576985085411E-18	-4.07731229805901E-19	-0.884933863131471	-0.0422457916557962	-0.88493386313147	-0.0422457916557965	2.03015282129919E-17	-4.89618581668137E-18
51.6	-1.57659818884677E-18	-3.34275406524858E-18	-0.900964844580549	0.0673604103722141	-0.900964844580548	0.0673604103722138	6.86313249569783E-18	3.97974860957551E-18
51.7	7.44010869318909E-18	-1.76925091087931E-17	-0.893114163305255	0.212997019332188	-0.893114163305255	0.212997019332188	-9.80338098406414E-18	-1.6346342408651E-17
51.8	-6.7045329516986E-18	-1.38240432152318E-17	-0.788251978047714	0.35195826808013	-0.788251978047715	0.351958268080131	1.05878840800673E-17	9.49263609156791E-18
51.9	-5.4567506466386E-18	1.00174313253799E-17	-0.79516535300418	0.472338716171689	-0.79516535300418	0.47233871617169	2.32014259827686E-17	-1.77768791783713E-17
52	6.24675475926779E-18	-1.08573817906138E-17	-0.649289506659697	0.604969744318192	-0.649289506659697	0.604969744318192	7.41669402596372E-18	-8.035350121073E-18
52.1	-9.84350178026539E-18	-4.40658493768804E-18	-0.552780583611785	0.683136828054121	-0.552780583611785	0.683136828054121	1.43417702209119E-17	-3.40182302766608E-18
52.2	-6.44433071682588E-18	6.45999506213883E-18	-0.465628787708325	0.764695076249958	-0.465628787708325	0.764695076249958	-2.26431803689067E-17	-7.4735154037223E-18
52.3	-1.13414583937209E-17	6.40058500613765E-18	-0.343344914402055	0.828140240390081	-0.343344914402055	0.828140240390081	3.44872538033048E-17	2.66405261858371E-17
52.4	-9.63797896754976E-18	-3.20056950722277E-19	-0.196390981957129	0.903691402309946	-0.196390981957129	0.903691402309945	-2.77537655405436E-17	3.64574410209704E-18
52.5	-2.472561319473E-17	2.72289875951605E-18	-0.0731713791684203	0.848289211491741	-0.0731713791684201	0.848289211491741	2.70428658636636E-17	5.97671593344877E-18
52.6	2.80305394356202E-18	-1.50661210390395E-17	0.0494234017314125	0.918535320708304	0.0494234017314122	0.918535320708304	2.90297212911939E-17	-4.60942060413807E-18
52.7	-2.15262966633296E-17	-7.59420663337581E-19	0.253183700888157	0.892662947987602	0.253183700888157	0.892662947987602	-3.70605252339907E-18	1.10602816269846E-17
52.8	1.56309166394671E-17	-1.1348927751928E-17	0.283057224375697	0.731241787902144	0.283057224375697	0.731241787902144	-3.29532560491474E-18	5.88589172224065E-18
52.9	6.18154311419527E-18	1.79501200355115E-17	0.54299664026338	0.838543263603099	0.54299664026338	0.838543263603099	4.7288919898525E-17	-5.46895524439831E-17
53	-5.0670564035805E-18	5.48849843862564E-19	0.554618842288332	0.63637912278372	0.554618842288332	0.63637912278372	1.84945550969474E-17	1.06622060546049E-17
53.1	8.67471555739794E-18	2.4429946818278E-18	0.662932328121922	0.609302548693135	0.662932328121921	0.609302548693135	8.40840641147035E-18	-7.10157722473581E-19
53.2	-9.31256932823054E-18	-4.63706699602671E-18	0.802817229993668	0.487139952082396	0.802817229993667	0.487139952082395	2.47238965673652E-18	4.74896238418901E-18
53.3	4.10115713792505E-17	7.91896773946302E-18	0.812568093884565	0.366504800848684	0.812568093884564	0.366504800848684	4.71546352783676E-17	-6.73823306541338E-17
53.4	-1.21341448417592E-17	1.88089911556841E-18	0.84852029451026	0.174131124533101	0.84852029451026	0.174131124533101	-2.56311973507016E-19	5.98189069168067E-19
53.5	1.06538577335722E-17	3.04023484926879E-17	0.912469067502404	0.13877302268619	0.912469067502405	0.13877302268619	2.24226096596414E-17	-1.23646699077786E-17
53.6	-4.2901816844663E-18	1.66318758335256E-17	0.910645755375304	-0.06196117145417	0.910645755375304	-0.0619611714541697	-4.19783103635946E-18	1.30323932063468E-18
53.7	8.03695793932217E-18	1.26689117671534E-18	0.822293849334163	-0.212763769142927	0.822293849334163	-0.212763769142927	-8.8910905970643E-18	-1.79662041479729E-17
53.8	-1.22322119050085E-17	-7.2053725596881E-18	0.923945061428271	-0.26993671899327	0.923945061428271	-0.26993671899327	4.21390906991073E-17	-1.16619893658777E-17
53.9	2.37845564268387E-17	1.26970096811407E-17	0.787057625721873	-0.444320584616369	0.787057625721873	-0.444320584616369	5.31356369397591E-18	1.31366831423229E-17
54	3.45855093420649E-18	-9.30822475957824E-18	0.689865585617895	-0.553382069493139	0.689865585617894	-0.553382069493139	-2.79588141948749E-18	-1.86901786380775E-17
54.1	1.06499416354127E-17	6.01317917618492E-18	0.620218507555178	-0.619220983989708	0.620218507555179	-0.619220983989708	2.00081845833024E-17	-1.32923199170268E-17
54.2	-5.31856259067182E-18	-1.99573604854158E-18	0.531571619762587	-0.718384436872352	0.531571619762586	-0.718384436872352	-1.40926365541359E-17	2.02447616009685E-17
54.3	1.20060898475031E-18	1.82546702968978E-17	0.370184077591478	-0.813552586735348	0.370184077591478	-0.813552586735348	6.49219312224991E-18	1.27248267097957E-17
54.4	-2.80466221672282E-18	-7.9449216532581E-18	0.318691969159959	-0.788963854860823	0.318691969159958	-0.788963854860823	-4.42426902951918E-17	9.66158405368298E-18
54.5	4.25527524947006E-19	-1.47559598416934E-18	0.131649395013187	-0.93164088271045	0.131649395013187	-0.93164088271045	-7.77600673950335E-18	-1.18322685796451E-17
54.6	6.50506266457872E-19	-1.16718388283241E-21	-0.000776932411011124	-0.866015742988985	-0.000776932411011082	-0.866015742988985	6.49572519351606E-18	-5.2157219704913E-18
54.7	1.50613355137846E-17	-1.2406911143881E-17	-0.102982676817808	-0.90984976572035	-0.102982676817808	-0.909849765720349	1.38514444980175E-17	-4.66848166370748E-18
54.8	-5.70367717839408E-19	-4.84807730278042E-18	-0.262251694618106	-0.877608691056337	-0.262251694618106	-0.877608691056337	-6.50212114504925E-18	6.00782177579692E-18
54.9	-8.59949384813583E-18	8.68206794631503E-18	-0.387173476699752	-0.802049042946934	-0.387173476699752	-0.802049042946934	-1.2687576669199E-18	6.02125235781782E-18
55	4.92658170533896E-18	-5.56709277796048E-18	-0.48810205103194	-0.763339540581633	-0.48810205103194	-0.763339540581633	2.06938658588739E-19	-1.40241139621767E-17
55.1	8.04610164854528E-18	6.89688004172448E-18	-0.613249426430259	-0.677392708043805	-0.613249426430259	-0.677392708043805	2.02082556823779E-18	8.93469381795415E-18
55.2	1.57723337858546E-18	-5.16654095535863E-18	-0.681301043925341	-0.575858656069878	-0.681301043925341	-0.575858656069878	8.18560247264455E-18	7.01731665655745E-18
55.3	7.90699153781191E-18	-4.59927420138099E-18	-0.780748351886504	-0.449082973685074	-0.780748351886504	-0.449082973685074	-4.75436346841798E-18	-5.37472053656593E-18
55.4	4.98345506542804E-18	1.28387264825281E-18	-0.828209710046125	-0.369928561365077	-0.828209710046125	-0.369928561365077	8.04110115847686E-18	1.00429278946477E-17
55.5	-5.01633231817791E-18	6.53904887331173E-18	-0.89605736982377	-0.216681623056398	-0.89605736982377	-0.216681623056398	-4.30685278190246E-18	1.93123824160472E-18
55.6	-7.23465956621768E-19	-7.26784024263094E-18	-0.889726506579623	-0.0960226255905847	-0.889726506579623	-0.0960226255905845	-9.75025973815677E-18	1.20903120269827E-17
55.7	2.17797606372099E-18	5.72552655696354E-18	-0.917528761585433	0.0278139722472109	-0.917528761585433	0.0278139722472107	1.98499488902511E-18	1.15949317528085E-17
55.8	1.15468688886344E-18	6.57483615248059E-18	-0.896122747702209	0.1781656531255	-0.896122747702209	0.1781656531255	1.94943803872033E-17	-2.34174607909635E-19
55.9	-3.23053707740027E-18	1.71018484674387E-17	-0.863914321681062	0.294683904670607	-0.863914321681062	0.294683904670607	-1.29551010926206E-17	2.46095373398239E-17
56	-6.57879786541667E-18	-7.64035494116567E-18	-0.786433731876558	0.424122156849332	-0.786433731876557	0.424122156849332	5.29404337156165E-18	-1.30938250399459E-17
56.1	5.64986261919728E-18	6.67879744063011E-18	-0.748192247167109	0.523637894681417	-0.748192247167109	0.523637894681417	1.6311194608468E-17	5.94514008802994E-18
56.2	-1.49413538546489E-17	2.30807977417687E-18	-0.667946204639872	0.639100837877463	-0.667946204639872	0.639100837877463	3.61613938331707E-18	-1.46797419328208E-17
56.3	-7.28620576355458E-18	-7.02965193431984E-18	-0.517460843937532	0.73167028726972	-0.517460843937532	0.73167028726972	3.23972073017061E-18	-1.59207171617648E-17
56.4	8.89208680208404E-18	8.42623479234782E-18	-0.46458140129205	0.79165126511596	-0.46458140129205	0.79165126511596	-5.63259614351457E-18	1.98877156981915E-17
56.5	2.48853922638189E-19	-2.81841057638976E-19	-0.329450165710584	0.870872346646142	-0.329450165710584	0.870872346646142	2.87836758344409E-17	1.7389688269937E-17
56.6	1.42936811218034E-18	-3.17312312060904E-18	-0.18815882717977	0.875828819318442	-0.188158827179769	0.875828819318442	1.35844774551817E-17	-3.04151753048462E-18
56.7	-3.00969822874151E-18	5.34915913057119E-18	-0.0698842543976867	0.90737948922025	-0.0698842543976866	0.907379489220251	1.76002376728077E-18	-1.13583271738727E-17
56.8	-4.31755026937759E-19	1.19839809926711E-17	0.0408882289746984	0.925068957837985	0.0408882289746984	0.925068957837985	1.53874405533938E-17	1.35692552661532E-17
56.9	5.13735742979819E-18	1.01292208456649E-17	0.182632020841057	0.885126141086491	0.182632020841057	0.88512614108649	-2.06843578765886E-17	-1.57716869500936E-17
57	2.28373809711692E-17	-1.37379102647567E-18	0.333157082763998	0.819885578821636	0.333157082763998	0.819885578821636	2.19778241585719E-17	8.94317589090878E-18
57.1	1.44522745273153E-18	-1.24836707965684E-17	0.428264352649812	0.791542392522715	0.428264352649812	0.791542392522715	4.97354457379231E-18	-1.01775519412636E-17
57.2	1.31007111926992E-17	-1.89991646127993E-18	0.540877862984788	0.74875124500821	0.540877862984788	0.748751245008211	-2.06208954233148E-17	-1.30609703854471E-17
57.3	7.64027955178714E-18	-1.2560434174666E-17	0.68319940909763	0.596176759658156	0.68319940909763	0.596176759658156	1.8747415843035E-17	-3.13528017055568E-17
57.4	7.56892402296778E-18	-8.85785848518449E-18	0.688462835528222	0.520713621017586	0.688462835528223	0.520713621017586	1.2926440679298E-17	-2.07842128918576E-17
57.5	-2.45327443533181E-17	5.46577816247025E-18	0.809672289642541	0.438554288170003	0.809672289642542	0.438554288170003	-4.00516378590524E-17	2.74425040488013E-17
57.6	-1.4039161670987E-17	5.75487732571351E-18	0.867713020568228	0.294160920402915	0.867713020568228	0.294160920402915	-1.03192408724911E-17	1.22733427031037E-17
57.7	-5.01554486133053E-18	2.35839547681054E-17	0.857468520433655	0.162550620496795	0.857468520433655	0.162550620496795	-1.45693881964315E-17	2.62157879505047E-17
57.8	4.5973045927939E-18	-4.39137766497408E-18	0.905100501203132	0.0645224803973776	0.905100501203132	0.0645224803973775	1.23196532555777E-17	4.65127148921562E-18
57.9	6.75885879643609E-18	-1.98967054922714E-18	0.91576938971734	-0.0477200298107825	0.915769389717341	-0.0477200298107825	4.00091525042876E-18	1.02154075831226E-17
58	3.36542210379205E-18	-8.52469084088354E-18	0.8657803736458	-0.238649373657666	0.8657803736458	-0.238649373657666	-7.94617086613238E-18	1.12576814493669E-17
58.1	-1.16276849565422E-17	-1.20918583562469E-17	0.805769079264556	-0.306697130602542	0.805769079264557	-0.306697130602543	-3.06171132718222E-18	-1.31356330072554E-17
58.2	2.97924715119581E-18	-1.15692714902899E-17	0.792017230018326	-0.440878829691497	0.792017230018327	-0.440878829691497	2.68873814299292E-18	-8.39533178888138E-18
58.3	-6.11451869132495E-18	-2.73878281100041E-17	0.703991032465289	-0.563071364949227	0.70399103246529	-0.563071364949227	-9.28009289285846E-18	-1.65404668037452E-17
58.4	-6.09578753629105E-18	-5.1559956935791E-18	0.607624797676885	-0.591243150407733	0.607624797676885	-0.591243150407733	1.12177142463889E-17	3.06620851331254E-19
58.5	-4.33704633927711E-18	2.49701544530255E-17	0.5645128512383	-0.719639727212505	0.564512851238301	-0.719639727212505	-1.13299384862017E-17	1.47312713521778E-17
58.6	-7.34768207187004E-18	9.0048271241694E-18	0.423640575953647	-0.787320976438576	0.423640575953647	-0.787320976438576	-1.20215161629663E-18	1.07631061264157E-17
58.7	2.5092148642636E-17	-5.5276747086537E-18	0.29931134112318	-0.806837001054005	0.29931134112318	-0.806837001054004	8.70771577972207E-18	7.12720583951145E-19
58.8	-1.43511628354839E-17	1.67638770285745E-18	0.205055512437822	-0.85321792945301	0.205055512437823	-0.85321792945301	-4.27313331152289E-18	1.13161419941512E-17
58.9	1.47525875058816E-17	9.96061991447438E-18	0.104941438994112	-0.888618609601302	0.104941438994112	-0.888618609601303	1.64754716135707E-17	-3.19464506093815E-18
59	3.00083955676387E-18	2.25688960540968E-18	-0.0614314372821053	-0.872635346834575	-0.061431437282105	-0.872635346834575	1.39222498530741E-17	1.31134758780662E-17
59.1	1.13130117191996E-17	-1.26795182083572E-18	-0.147819308521959	-0.854205157963961	-0.147819308521959	-0.854205157963961	1.07191227644172E-17	4.8266342212625E-18
59.2	3.12179658141023E-18	-2.2992472280334E-18	-0.261709043445216	-0.862207963868343	-0.261709043445216	-0.862207963868344	6.15190252455175E-18	-3.01507993230278E-19
59.3	-3.91250720352947E-18	-1.81569459142398E-18	-0.410644826017087	-0.766507312372795	-0.410644826017087	-0.766507312372795	1.99837852630796E-18	-3.00314016816987E-18
59.4	-2.53797260960478E-18	-2.58201839969505E-18	-0.473296725515057	-0.731255129566751	-0.473296725515057	-0.731255129566751	2.25532719666883E-19	-1.57689049068765E-17
59.5	-7.48726252643664E-18	-6.79286329465383E-19	-0.598654394702452	-0.655426422213276	-0.598654394702452	-0.655426422213275	1.8904103174233E-17	3.43074304919294E-18
59.6	3.98807162316877E-19	1.90768703044979E-18	-0.671658811321531	-0.545766532151857	-0.671658811321531	-0.545766532151858	-1.1388556328609E-18	9.01767118361183E-19
59.7	3.23002495537973E-18	-7.51932694886164E-18	-0.747053457120693	-0.474827475213806	-0.747053457120693	-0.474827475213807	6.76984018627626E-18	8.83571960614112E-18
59.8	-5.5288807372806E-18	3.12728098665692E-18	-0.814272529095063	-0.362346314493312	-0.814272529095063	-0.362346314493312	-8.09372126546752E-18	-3.83585793146084E-18
59.9	-1.56829619670188E-17	6.45874375610517E-18	-0.841918944078898	-0.256810130859769	-0.841918944078898	-0.256810130859769	-3.45690196862127E-18	2.12915777627282E-18
60	-3.75260288618878E-18	-6.53653782936421E-18	-0.868757972994142	-0.11545428082344	-0.868757972994142	-0.11545428082344	1.39995360739788E-17	-2.6233641980925E-17
60.1	5.35623862467386E-18	-7.70248391606E-18	-0.865975192280107	-0.00849697230149616	-0.865975192280108	-0.0084969723014961	-1.60681154674936E-17	-1.00748583848165E-17
60.2	5.63149333990869E-19	9.65808314616837E-18	-0.88364577919326	0.0887226588071036	-0.88364577919326	0.0887226588071034	7.52992307527839E-18	6.15076603224125E-18
60.3	-9.84362216529991E-19	1.33902952654391E-17	-0.844258858445617	0.247402252311288	-0.844258858445617	0.247402252311288	1.36277298456588E-18	7.10076424834255E-18
60.4	-9.61809695670029E-18	-2.86994909061187E-18	-0.793023487711334	0.313930352172325	-0.793023487711333	0.313930352172325	-4.25741912686104E-18	5.35300646146604E-19
60.5	-1.58923899492603E-18	8.39766609340531E-18	-0.761074827897659	0.446954765025313	-0.761074827897659	0.446954765025313	-8.12610166619924E-18	1.24883657414776E-17
60.6	-1.75683251571483E-18	1.61459253683238E-18	-0.687028267253151	0.539417696849417	-0.687028267253151	0.539417696849418	-4.34313738615445E-18	-1.74204845817577E-18
60.7	3.27950142699639E-18	-8.01117351901369E-19	-0.604616969696714	0.630681044439783	-0.604616969696714	0.630681044439784	-1.92860395367804E-18	1.40675019120377E-18
60.8	-9.31421360361846E-18	7.78328062162107E-18	-0.517832408609999	0.711880474658519	-0.517832408609999	0.71188047465852	-1.5818535408488E-17	-1.94487860767913E-18
60.9	1.54960640992675E-17	-4.50694480482268E-18	-0.425522637777216	0.772193836383572	-0.425522637777216	0.772193836383572	6.77787796968984E-18	-1.70431849062424E-17
61	-1.08213341849398E-17	1.32553050189363E-18	-0.304180181052892	0.824382464398761	-0.304180181052892	0.824382464398762	-1.29848927262455E-17	-1.10925168106054E-17
61.1	-2.27033672848855E-17	-3.32040947537976E-18	-0.187522221447593	0.842477762465379	-0.187522221447593	0.842477762465379	-4.44396079066042E-18	-4.22189368345128E-18
61.2	-1.12494452180206E-17	1.53972093960451E-17	-0.0892859569183224	0.864740139149486	-0.0892859569183222	0.864740139149486	1.7289942957037E-19	2.37980697922015E-18
61.3	-9.21392431789615E-18	-2.39414499234501E-17	0.0313871961820501	0.88584184863911	0.0313871961820503	0.88584184863911	9.75127197423717E-18	-2.1863842389009E-18
61.4	-1.90461269070622E-17	-9.03743686216454E-19	0.181438010886318	0.853063395680228	0.181438010886318	0.853063395680228	4.51389264363631E-18	-8.51148451871545E-18
61.5	-7.67767563937783E-18	6.61569307929195E-18	0.246225526341894	0.814875851309584	0.246225526341894	0.814875851309584	-8.65065335999099E-19	-5.84082162024235E-18
61.6	6.1547210185947E-19	1.6742899499763E-17	0.381826876485769	0.810107024246041	0.381826876485769	0.810107024246041	5.62100282671052E-18	1.93242055073353E-18
61.7	-1.20304627825098E-17	-1.36082964192852E-17	0.494280972135565	0.732202575319898	0.494280972135565	0.732202575319898	-2.73709939542225E-17	-1.17643157408496E-17
61.8	1.57790970443234E-20	9.5559307413035E-18	0.566533318441605	0.647456016447769	0.566533318441604	0.647456016447769	3.35194774722249E-18	-8.46566879551433E-19
61.9	8.02949636966549E-18	9.61775070864005E-18	0.656176652368851	0.564014263544871	0.656176652368851	0.564014263544871	4.00674775285371E-18	9.079473636504E-18
62	-5.62963659476139E-18	-3.51799716632488E-18	0.7215420443269	0.494711096950322	0.7215420443269	0.494711096950322	1.89018938889081E-17	1.76046802554845E-17
