# GHZ S RI R 50
50	4.83388970473372E-18	-3.69759031673445E-18	0.802543718738136	-0.573543759344543	0.802543718738136	-0.573543759344544	1.33791931286963E-17	8.1479732750752E-18
50.1	-2.48593473211394E-17	-1.40950817576022E-17	0.675251427057274	-0.684630294993205	0.675251427057274	-0.684630294993206	6.40460530801814E-18	-8.90458172508881E-19
50.2	1.3118168401669E-17	-9.40964435466455E-18	0.56723985272274	-0.782550360623247	0.56723985272274	-0.782550360623246	1.30215372142206E-17	8.52557984496759E-18
50.3	6.15714994764596E-18	-1.56121670867469E-17	0.439398261626761	-0.893739126476458	0.439398261626761	-0.893739126476459	-1.19795289656023E-18	6.89897303086161E-18
50.4	-2.09745776998483E-18	-2.28477029684224E-17	0.245984584978135	-0.915914429663429	0.245984584978135	-0.915914429663429	3.51751176399065E-18	-6.07631778033171E-18
50.5	1.52063117297106E-17	1.45030549632668E-17	0.128623961631211	-0.974791632588697	0.128623961631211	-0.974791632588697	-3.29951023340745E-18	2.58682749226961E-18
50.6	4.6292007574838E-18	-2.95807704520624E-18	-0.0509699323877316	-0.970347355425093	-0.0509699323877315	-0.970347355425093	4.37181009089807E-18	-5.40137275724101E-18
50.7	1.44614369990455E-17	-2.37854326800584E-17	-0.19388737519961	-0.946100319507907	-0.19388737519961	-0.946100319507906	-7.85946905993233E-18	-1.91694791973046E-18
50.8	6.25404544413199E-18	-5.8927249885882E-18	-0.367183394185474	-0.925130257476422	-0.367183394185474	-0.925130257476422	5.74819680637068E-18	1.11127536172201E-17
50.9	4.61160994627061E-18	1.50030221476226E-17	-0.493007081123899	-0.819103388015677	-0.4930070811239	-0.819103388015678	2.96897491467201E-18	-5.60418059825521E-18
51	2.01978320060408E-17	1.21132247420308E-17	-0.639348054965637	-0.748067432988898	-0.639348054965637	-0.748067432988897	2.44434292816915E-18	-4.7163901268446E-18
51.1	-3.37370958461355E-17	-1.0208593937889E-17	-0.747719359055299	-0.630423370297731	-0.747719359055299	-0.630423370297731	-5.74753854319057E-18	-4.06502385219806E-18
51.2	-3.89801485795515E-18	3.96944690772477E-18	-0.834263141929971	-0.497148279326233	-0.83426314192997	-0.497148279326233	-7.43132851518602E-18	-3.42001453040994E-18
51.3	2.73078989882836E-18	-1.32875483326517E-17	-0.909577923863287	-0.357166493404888	-0.909577923863287	-0.357166493404888	1.14447692847959E-17	-7.45693391473913E-18
51.4	-2.43607977994527E-18	-8.87022802577516E-18	-0.973566488600682	-0.223236619631923	-0.973566488600682	-0.223236619631923	-9.62210438865438E-19	-3.34989909259758E-18
51.5	-2.55765818633221E-19	3.70291751303997E-18	-0.961334554561822	-0.0331608731695846	-0.961334554561822	-0.0331608731695848	5.93622000066575E-18	-4.41667985898535E-18
51.6	-1.78941728240121E-17	-3.04637548969701E-18	-0.980180512360832	0.0914592435855431	-0.980180512360832	0.0914592435855433	1.29010317167023E-18	-1.09821182738612E-18
51.7	-1.45309637015665E-17	5.1367395703376E-18	-0.968091869833106	0.252135068336205	-0.968091869833106	0.252135068336206	4.64611366680167E-18	2.92233821372109E-17
51.8	4.42893656005568E-18	3.1111300597652E-17	-0.856063169667928	0.395727083956467	-0.856063169667928	0.395727083956467	2.39792003678031E-17	1.22922727183291E-17
51.9	-5.41576837817625E-18	-5.08626348549454E-18	-0.856616391761991	0.536845300140397	-0.85661639176199	0.536845300140397	1.16441490659032E-17	-1.99684779407939E-17
52	8.74849952909154E-19	-1.59449128617691E-18	-0.697684683931272	0.671546906131877	-0.697684683931272	0.671546906131877	-3.44967759722367E-17	-3.44860709337375E-17
52.1	-1.01382262664953E-19	6.2349531379603E-18	-0.592513980884387	0.75838129574782	-0.592513980884388	0.75838129574782	-2.02628087616305E-17	-1.57162425125069E-18
52.2	8.36730975713199E-19	8.20687659027358E-18	-0.492951021187855	0.850110805674626	-0.492951021187855	0.850110805674626	-2.36810344889649E-17	9.21056917455826E-18
52.3	1.44751588699343E-17	-9.58238622711708E-18	-0.356789221682425	0.918438926022006	-0.356789221682425	0.918438926022005	-7.2679544505844E-18	-2.94781359193725E-17
52.4	-2.21995286475296E-17	-3.08519580112637E-17	-0.190553638379863	0.994717467998254	-0.190553638379863	0.994717467998254	-8.72573403852209E-17	-1.17244570189036E-17
52.5	1.13029442115528E-17	-3.13501687061265E-18	-0.0632393748384412	0.940135016806894	-0.0632393748384414	0.940135016806894	3.12477867927651E-17	2.75356634232576E-17
52.6	7.04852102831005E-18	1.5119089758612E-17	0.083762618091818	1.01117088597753	0.0837626180918182	1.01117088597753	2.07039724068438E-17	3.72834758177109E-17
52.7	-1.12468296913846E-17	-1.94755605159372E-17	0.302194391411756	0.970840834886728	0.302194391411756	0.970840834886728	-2.37262338288354E-17	9.82041343683267E-18
52.8	-2.29293683485279E-17	1.0868349212392E-17	0.327463293317172	0.814681926981732	0.327463293317172	0.814681926981732	2.72534722039549E-17	-1.40879789794957E-17
52.9	2.01012475401384E-17	2.94032307459326E-17	0.625778520254995	0.895436531638706	0.625778520254994	0.895436531638707	5.37740611585373E-17	-2.36253922031249E-18
53	2.95915307975382E-17	1.05986992871274E-17	0.629322892084208	0.694893993313977	0.629322892084208	0.694893993313977	2.11409135756476E-17	-5.86140991429707E-17
53.1	-2.63856712580984E-17	2.35886595802847E-17	0.756748326277314	0.654345093403135	0.756748326277313	0.654345093403135	2.23185218745412E-17	3.27119432986328E-17
53.2	-6.57836512673103E-18	-9.08105051296578E-18	0.902521607851541	0.508999943203688	0.902521607851541	0.508999943203688	-3.92878637816226E-17	-1.87485875379385E-19
53.3	1.96343548740195E-17	-4.47537693499907E-18	0.916141892391593	0.380923693222717	0.916141892391593	0.380923693222718	2.06155599615918E-17	-3.25477316700026E-17
53.4	6.71499119757141E-18	-2.22626206604009E-17	0.944675147555803	0.172782843993447	0.944675147555804	0.172782843993446	-6.30742786638611E-18	-1.94933492448942E-17
53.5	-1.01370579442392E-17	1.93871318924119E-17	1.02351033377164	0.116461327539986	1.02351033377164	0.116461327539986	-1.51407762897533E-17	8.31586935540521E-18
53.6	-2.49534513219024E-17	2.50359076409696E-17	1.00866029262928	-0.100717157265263	1.00866029262928	-0.100717157265263	-2.87596524740414E-18	5.78597187906809E-17
53.7	-1.68646536929467E-18	-1.3550167046472E-17	0.911206533556879	-0.256738473650406	0.911206533556878	-0.256738473650406	-5.20732850825212E-18	-1.59520439460974E-17
53.8	1.87400693667041E-17	1.75639627739121E-17	1.01805778762214	-0.349092696399517	1.01805778762214	-0.349092696399517	5.9400369828913E-17	-2.8351187378956E-17
53.9	-2.09515849460506E-18	9.84685932372017E-18	0.86149887115368	-0.525169466601192	0.86149887115368	-0.525169466601192	-2.93712498155784E-18	-2.01049441681398E-18
54	2.96917824115584E-18	3.01073647062352E-17	0.752034846889835	-0.642427885794328	0.752034846889834	-0.642427885794327	1.37599874354194E-17	1.0767197844647E-17
54.1	2.44768420034171E-17	-1.35004281925173E-17	0.673758333202662	-0.720780734156864	0.673758333202662	-0.720780734156864	1.3230057138338E-17	-2.96666511881586E-17
54.2	2.35390820656782E-18	-8.44826981517374E-18	0.567370491295991	-0.830187376375798	0.56737049129599	-0.830187376375798	7.09138669905186E-18	8.53081880175563E-18
54.3	-8.00389751168438E-18	9.18054262358229E-18	0.384131968379195	-0.923530981570963	0.384131968379196	-0.923530981570964	1.71302719701375E-17	1.72313858783786E-17
54.4	1.98208650654646E-17	1.59417622835967E-18	0.328180050521326	-0.91179543862446	0.328180050521325	-0.91179543862446	3.35820959969268E-17	2.91024578120228E-19
54.5	9.41895635840121E-18	-7.89561470176062E-18	0.104183490324033	-1.04672796584058	0.104183490324033	-1.04672796584058	3.78349341096673E-19	-1.88180241322946E-18
54.6	-3.71033602044997E-19	6.6726223061514E-18	-0.0336256653266549	-0.97700755968056	-0.0336256653266551	-0.97700755968056	-8.04158010082149E-18	3.87771666312214E-18
54.7	-7.57306973108486E-18	-5.33721221638849E-18	-0.161280558620031	-1.02085829312107	-0.161280558620031	-1.02085829312107	-1.1620694817465E-17	-1.18168758147909E-17
54.8	-5.08604797441182E-18	3.98768988424826E-18	-0.336732721706566	-0.975231588923286	-0.336732721706567	-0.975231588923286	1.05678762995422E-17	1.04859125460132E-17
54.9	4.8741478473154E-18	-2.51531766334948E-18	-0.471989512919415	-0.888147574314837	-0.471989512919415	-0.888147574314837	5.81751787022994E-18	3.92763608758216E-18
55	7.47738637983111E-19	-7.49096112796754E-18	-0.590379945184693	-0.83903786470376	-0.590379945184693	-0.83903786470376	4.31608292701764E-18	-1.20301612421888E-17
55.1	3.69990832762071E-18	9.85531190045294E-20	-0.726269161642678	-0.734307242019281	-0.726269161642678	-0.73430724201928	-7.54365190816776E-18	1.28704424697285E-17
55.2	-1.4324083579893E-18	-2.84860129457281E-18	-0.801831932423497	-0.619719368966419	-0.801831932423498	-0.619719368966419	4.65057588883085E-18	-1.04163851122913E-17
55.3	-3.83118551932706E-18	-8.60372512729783E-18	-0.904649281864486	-0.470488662936048	-0.904649281864485	-0.470488662936048	8.36229970607647E-18	1.50642486873327E-17
55.4	7.59989610187398E-18	9.49379887595139E-18	-0.962012546630876	-0.374842479419267	-0.962012546630876	-0.374842479419267	-1.06793540072125E-18	-9.77029176302204E-18
55.5	-9.48801996709417E-18	3.34941863533166E-18	-1.02589976339728	-0.197019634595189	-1.02589976339728	-0.197019634595189	-2.62969849692517E-19	6.59403253434126E-19
55.6	2.00552383012462E-18	-3.39253383951916E-18	-1.01825366911679	-0.0619260698616521	-1.01825366911679	-0.0619260698616522	3.54214723897854E-18	-1.41170628600674E-17
55.7	-1.09017272120281E-18	-7.81944606018242E-19	-1.04233713060651	0.0852322180334167	-1.04233713060651	0.085232218033417	-4.59470555071386E-18	-3.0892499096749E-18
55.8	-2.86679594501346E-18	2.60006185678968E-18	-1.00901991145805	0.253171655777599	-1.00901991145805	0.253171655777599	-2.09223394253457E-17	2.68614800178249E-18
55.9	8.41042945597126E-18	1.01997922239803E-17	-0.96757753749043	0.386940145131466	-0.967577537490429	0.386940145131466	-5.1021076268021E-18	1.78626664727226E-17
56	6.44384558241307E-18	1.35488414515445E-18	-0.874488437598949	0.527322709152127	-0.874488437598949	0.527322709152127	1.21320205759327E-17	2.65653914177211E-19
56.1	-8.8764115699661E-19	7.59700319578012E-18	-0.822947138529071	0.645397153240024	-0.822947138529071	0.645397153240025	-1.83597579965532E-17	1.11237543279979E-17
56.2	-9.08566061048802E-19	1.17295919568591E-17	-0.722162488262067	0.77263677913064	-0.722162488262067	0.772636779130639	5.23532141336798E-19	7.74337953396114E-18
56.3	-1.64335237093179E-17	-9.41103320434273E-18	-0.550493049198929	0.863831658109849	-0.550493049198929	0.863831658109849	-1.40623776557014E-17	-2.15601980442789E-17
56.4	-1.13435033925796E-17	-1.32273027064242E-17	-0.480004558993697	0.939065170203312	-0.480004558993697	0.939065170203312	3.03664170166412E-18	-1.88575734907531E-17
56.5	9.53201188409396E-19	7.26986344249585E-18	-0.318939091554356	1.01761570007695	-0.318939091554356	1.01761570007695	7.19090908046773E-18	2.4219697584379E-17
56.6	-6.7838274123406E-19	8.01865946760495E-18	-0.161926668917067	1.0179798164762	-0.161926668917067	1.0179798164762	1.74853056166994E-17	-1.09465438825632E-19
56.7	-2.55019712184699E-17	1.90165918348893E-17	-0.0202565575447274	1.04736604206402	-0.0202565575447273	1.04736604206402	6.72565555287847E-18	2.31212823528696E-17
56.8	7.9382973018789E-18	-7.13659543881594E-19	0.114023367674486	1.06149504338645	0.114023367674487	1.06149504338645	1.53176657479866E-18	2.79940032281597E-17
56.9	-5.69346152778562E-18	-9.81675318918514E-18	0.271244444118814	1.00833313108042	0.271244444118814	1.00833313108042	1.03071653120748E-17	1.58868001879931E-17
57	1.29318379662059E-17	4.25463719311037E-18	0.434459400468512	0.924512492299254	0.434459400468512	0.924512492299255	1.03685972263433E-17	2.15277710719859E-17
57.1	6.80964956027486E-18	1.5968124237094E-17	0.54975202223381	0.884981378529645	0.54975202223381	0.884981378529645	7.58616637265835E-18	1.64940702173584E-18
57.2	-3.31487697511029E-19	6.99794163640616E-18	0.680959322358245	0.823754968430999	0.680959322358244	0.823754968430998	-8.98535230994775E-18	-5.75599940438324E-18
57.3	-1.29522062650901E-20	2.72036008275484E-17	0.821505593487078	0.641727032254773	0.821505593487078	0.641727032254772	2.97263825466485E-17	-1.71309771029552E-17
57.4	-2.79536011608999E-18	-1.59951893260489E-17	0.837510579881693	0.560221608111613	0.837510579881693	0.560221608111614	1.38010308281765E-17	5.73299040037781E-18
57.5	-1.80861042298954E-17	-1.04993402936658E-17	0.969007889426707	0.445960814403073	0.969007889426707	0.445960814403073	4.56074564503296E-17	-1.04689348021327E-17
57.6	-1.30593348472133E-17	1.26780197190332E-17	1.02294896941172	0.277207395742838	1.02294896941172	0.277207395742838	-6.45824216840509E-18	5.25207578070283E-18
57.7	-3.44075577718496E-18	-2.76729909975359E-18	1.00822476633141	0.131359009701521	1.00822476633141	0.131359009701521	1.62892047963663E-18	7.85275592382684E-18
57.8	1.40623283781936E-17	-2.76371077881313E-18	1.05633803405942	0.00525973033674889	1.05633803405942	0.00525973033674852	1.54658697534338E-17	2.08985472797783E-18
57.9	6.43754746837774E-18	2.16536487676048E-17	1.06143347917001	-0.13070505241773	1.06143347917001	-0.13070505241773	2.81501812698928E-17	-1.9267210552378E-18
58	1.59548469864074E-17	2.21942622973808E-17	0.986280325944099	-0.336585866123505	0.986280325944098	-0.336585866123505	9.8580579696137E-19	-2.33777359044729E-17
58.1	-4.59312790261524E-18	-2.84640780527954E-18	0.921813491475327	-0.417675667318209	0.921813491475327	-0.417675667318209	-2.46288719090253E-18	-2.15983599547847E-18
58.2	9.16115000480457E-18	1.04591819478972E-17	0.887456325215822	-0.576212000770331	0.887456325215821	-0.576212000770331	-1.21355943412014E-17	6.90099808055176E-17
58.3	-1.33872025439612E-17	-1.66216320617543E-17	0.776366188985071	-0.708393667271051	0.776366188985071	-0.70839366727105	-2.15143393264506E-17	3.79849929860538E-18
58.4	3.81976993859375E-18	3.1142065813997E-18	0.671851521220404	-0.743684652583084	0.671851521220403	-0.743684652583084	4.23094224771547E-17	2.70059637682919E-18
58.5	-3.39544402705358E-18	3.37585011902071E-17	0.597244750895653	-0.890958385648877	0.597244750895652	-0.890958385648876	2.03572718805709E-17	-2.96716545323424E-18
58.6	1.88538766578774E-17	3.29833615156052E-17	0.432097212742068	-0.955770965727234	0.432097212742068	-0.955770965727233	2.9113582122036E-17	9.9734215111441E-18
58.7	-6.74305194184971E-18	-4.40750914946664E-18	0.289963786806242	-0.973591322508271	0.289963786806243	-0.973591322508271	-8.23947208863229E-18	8.51565581893107E-18
58.8	-1.44785858374049E-17	4.91387023843627E-18	0.169519279849085	-1.0227668769856	0.169519279849085	-1.0227668769856	-1.3916881542075E-17	9.04491991736288E-18
58.9	1.13032144771441E-17	4.8031305342857E-18	0.0423438456433571	-1.05717204913173	0.042343845643357	-1.05717204913173	1.53298007300015E-17	3.1781095485711E-18
59	3.83079369162501E-19	1.33415684967682E-18	-0.143934947078942	-1.02282420320629	-0.143934947078942	-1.02282420320629	6.8689448753573E-18	3.80430992205728E-18
59.1	-6.02999106451514E-18	5.31941022015049E-18	-0.250812350707925	-0.999378660810101	-0.250812350707925	-0.999378660810101	-8.59525429166036E-18	-5.31984323357493E-18
59.2	6.70281205657542E-18	9.32122479688931E-18	-0.392856710987248	-0.993483926105772	-0.392856710987248	-0.993483926105772	8.63819035332312E-18	6.31957424554899E-18
59.3	1.01564986595193E-17	-4.71786946987636E-18	-0.549733747455707	-0.871358002300073	-0.549733747455706	-0.871358002300073	5.90065621178934E-18	-3.81549253946524E-18
59.4	-4.2975028119023E-18	-1.76494031017577E-17	-0.632566463635556	-0.824806721002226	-0.632566463635556	-0.824806721002226	5.59784289733743E-18	-8.2003164045753E-18
59.5	-7.43591775275676E-18	4.37109885221926E-18	-0.770433157157889	-0.719906478149585	-0.770433157157889	-0.719906478149584	-1.50351204994737E-17	6.33683090972192E-18
59.6	0	0	-0.847544761069444	-0.587968781085997	-0.847544761069444	-0.587968781085996	7.99824402252951E-18	-4.9609342546896E-18
59.7	3.30163095365541E-18	1.88444671361244E-17	-0.934318108195337	-0.490931957715875	-0.934318108195337	-0.490931957715876	-5.56986111035376E-18	3.83682060200035E-18
59.8	6.7483691441581E-18	1.03619421506016E-17	-1.00231657084345	-0.349929088194975	-1.00231657084345	-0.349929088194975	-3.66914139099876E-18	-1.66856949118778E-18
59.9	-1.41274644118223E-17	1.26294645687639E-17	-1.02967665348429	-0.221137363907817	-1.02967665348429	-0.221137363907817	-4.61697877792818E-19	4.53985389997296E-18
60	-1.3055576608632E-17	-3.244206543382E-18	-1.04588633461074	-0.0532091921908891	-1.04588633461074	-0.0532091921908892	-7.55160493283833E-18	-1.03321725079344E-17
60.1	-2.47126617985667E-17	-1.3403043371762E-17	-1.03664057756059	0.0760940370309383	-1.03664057756059	0.0760940370309382	-1.00300722163028E-17	9.05858640920166E-18
60.2	1.07779908157438E-17	-2.34552535946247E-17	-1.04698370126169	0.202268966303263	-1.04698370126169	0.202268966303263	-2.73963800429121E-18	6.41330199866318E-18
60.3	-4.65996268055613E-18	1.20400008635081E-17	-0.982423146919113	0.379839391800145	-0.982423146919113	0.379839391800144	-1.13195364167446E-18	1.66356534258731E-17
60.4	-1.81281312013984E-17	-8.91303735267867E-18	-0.922428497785839	0.462712526606088	-0.922428497785839	0.462712526606088	-5.52311192656947E-19	7.40413322361424E-19
60.5	-2.90825266548846E-17	3.51695336846144E-18	-0.863291094043755	0.617888787499722	-0.863291094043755	0.617888787499723	-2.79448931440398E-18	1.35063830994935E-17
60.6	7.49168643405804E-18	-1.25784549308706E-17	-0.766560524659122	0.72274512566555	-0.766560524659122	0.72274512566555	8.14147559606827E-18	-7.23588719607244E-18
60.7	-1.8976264330603E-17	-9.52591514576761E-18	-0.65764909097648	0.824061956530823	-0.657649090976479	0.824061956530823	2.73572615241973E-18	3.33274832235713E-18
60.8	1.41769550945806E-18	-1.27510259070676E-17	-0.542676907919026	0.913213876922747	-0.542676907919026	0.913213876922747	-1.52070146015617E-18	-2.79400681365568E-18
60.9	1.47984490349602E-17	6.31451896920997E-19	-0.423108518862735	0.978465221711678	-0.423108518862735	0.978465221711678	9.79614979383682E-18	-1.09202865701109E-18
61	-4.97359040713617E-18	1.85803673516142E-17	-0.272546713326961	1.02685992043009	-0.272546713326961	1.02685992043009	-2.0095095266194E-17	6.56280738902017E-18
61.1	1.58185132489094E-18	5.32007044654531E-18	-0.131338385393317	1.03931342691083	-0.131338385393317	1.03931342691083	-8.57208763416952E-18	4.67762303199812E-18
61.2	-6.90716909544699E-18	1.25392975220132E-17	-0.00504742918652561	1.05727765212743	-0.00504742918652573	1.05727765212743	1.05286280612277E-18	-8.71665755734858E-18
61.3	-1.11786682756248E-17	1.40624347163338E-17	0.146048904004332	1.06563022639811	0.146048904004333	1.06563022639811	7.96781017730326E-18	-1.31421628467685E-18
61.4	1.86277063793085E-17	-1.5901580355405E-17	0.316271484989032	1.00911771359366	0.316271484989032	1.00911771359366	-4.29075607163339E-18	-6.17280058183977E-18
61.5	-1.62625058433436E-17	3.17308113928023E-17	0.400365821960205	0.963039112351619	0.400365821960205	0.96303911235162	1.56712670210919E-18	2.55136751520113E-17
61.6	4.15012291952319E-18	2.7635259688648E-17	0.56468349230208	0.930328060523509	0.564683492302081	0.93032806052351	8.12798469639657E-18	8.860792808281E-18
61.7	1.93535510839598E-17	-5.65148075388489E-18	0.688764635378176	0.825019196810955	0.688764635378177	0.825019196810954	1.14282113059552E-17	9.96525960298788E-18
61.8	2.06225164512943E-18	1.90460783778199E-18	0.770284071983581	0.718157596472694	0.77028407198358	0.718157596472694	5.89233412861014E-18	1.51547014682713E-18
61.9	1.74072638360453E-18	1.30856083532754E-17	0.868792175833216	0.604558848994251	0.868792175833216	0.604558848994251	6.38370603865667E-18	2.56137725715682E-17
62	1.10203778741339E-18	1.66222967047645E-18	0.944710303517758	0.507144974907069	0.944710303517758	0.507144974907069	5.23009299553543E-18	9.69328208132716E-18
62.1	-4.11987997663755E-19	1.01995066443346E-17	1.02203743319606	0.363760168864142	1.02203743319606	0.363760168864142	1.1495605115191E-18	5.05234666541441E-18
