# GHZ S RI R 50
50	-1.73936213294556E-17	-4.33964102503962E-18	0.788463428445159	-0.560295578085901	0.788463428445158	-0.5602955780859	2.4222934102541E-18	-1.5627005728339E-20
50.1	-1.42901379493002E-17	1.09749916976598E-17	0.661709690041605	-0.670747128979018	0.661709690041604	-0.670747128979018	4.5047442592391E-18	-8.53200255994208E-18
50.2	7.45258091885223E-18	1.64398736557132E-18	0.555039776280703	-0.764307424753896	0.555039776280703	-0.764307424753895	9.57902806659329E-19	2.94362466377792E-18
50.3	-3.74065854922901E-17	-7.18981979271411E-18	0.432818936217849	-0.871501616804058	0.43281893621785	-0.871501616804059	1.2658507740954E-17	-1.32085655111683E-17
50.4	5.93323522480754E-18	-1.32552176263047E-18	0.239528899279265	-0.896530710356339	0.239528899279265	-0.896530710356338	-1.10237705009461E-17	-3.11051377892411E-19
50.5	9.86458834418818E-18	-8.84690548457743E-18	0.128185200786358	-0.949456239854765	0.128185200786357	-0.949456239854765	-2.68532198624294E-19	-5.02812998630159E-18
50.6	-2.12194226603892E-17	6.86260570721908E-18	-0.0481640195661944	-0.946350945241843	-0.0481640195661945	-0.946350945241841	-1.58137619121461E-19	-1.54955967983954E-18
50.7	-5.38516557549588E-18	-1.2678016707991E-17	-0.187376702773086	-0.920408683857513	-0.187376702773086	-0.920408683857513	-4.43797063121913E-18	5.21074396866283E-18
50.8	5.72299777998328E-19	1.49975093416424E-17	-0.353357672594724	-0.901972467737825	-0.353357672594724	-0.901972467737825	6.06236995111998E-18	-7.82936110233604E-18
50.9	2.72569175441333E-18	-1.94366197880246E-18	-0.478869835656227	-0.79607102567243	-0.478869835656227	-0.79607102567243	-3.72635301839286E-18	-1.2144884690451E-17
51	-4.54629368752168E-18	8.08747418662488E-18	-0.618566894024852	-0.728859978944819	-0.618566894024852	-0.728859978944819	5.75857348153124E-18	1.38025663577355E-17
51.1	-3.31399676025198E-17	7.30449623527931E-19	-0.723807376061203	-0.613911764637994	-0.723807376061203	-0.613911764637994	-5.91162786272818E-18	2.56174522308648E-18
51.2	-8.42532906244851E-18	6.25288683113523E-18	-0.807650781937115	-0.483808366955459	-0.807650781937116	-0.48380836695546	-6.0528887616773E-18	4.98324066021443E-18
51.3	-9.51190979935093E-19	-4.09457306982927E-18	-0.880055751088175	-0.348721117132052	-0.880055751088176	-0.348721117132051	-8.37629421447867E-19	-9.32173271191124E-18
51.4	-2.83962276069704E-17	2.11062869775992E-18	-0.94001329115751	-0.221374418106391	-0.94001329115751	-0.221374418106391	-8.00152465219551E-18	2.33744724086224E-18
51.5	5.88693044123446E-18	-8.44342175688983E-18	-0.930888192957098	-0.033327771901452	-0.930888192957097	-0.0333277719014522	-2.12463293654986E-19	-7.56033233655727E-18
51.6	-2.68187398969919E-17	-3.57078494160243E-17	-0.945609882403184	0.0837234844442905	-0.945609882403184	0.0837234844442905	-3.54518500316207E-17	7.12136139877775E-18
51.7	4.60645510480541E-18	1.95163570255064E-17	-0.934726560845562	0.236822148981944	-0.934726560845563	0.236822148981944	1.00703721384096E-17	3.48999758585988E-17
51.8	2.32317704237577E-18	1.6073732848599E-17	-0.824817340793997	0.381536870171669	-0.824817340793997	0.381536870171669	1.74449341700574E-18	-9.79774445316404E-18
51.9	-1.84566778498622E-17	1.4735291827313E-17	-0.827400850424481	0.508722370944973	-0.82740085042448	0.508722370944974	1.389870563665E-17	1.52802388549015E-18
52	3.44942623317988E-18	-9.68287968471628E-18	-0.674304558118121	0.645447671365522	-0.674304558118121	0.645447671365523	-1.79253331348226E-17	-2.25320857096769E-17
52.1	1.52883440825738E-17	1.57426437316554E-17	-0.571274074790229	0.727208635664473	-0.571274074790229	0.727208635664473	5.12368916073076E-17	-9.05054175992558E-18
52.2	6.32653128123665E-18	-2.02505464133258E-17	-0.477071534570765	0.811838676623797	-0.477071534570764	0.811838676623797	2.68554041322829E-18	-3.62693462251991E-17
52.3	-1.61803732802477E-18	5.96642789689558E-19	-0.347079261249872	0.876761621455749	-0.347079261249871	0.876761621455749	9.40877180219781E-18	2.15279934293852E-17
52.4	-1.43954944919669E-18	-5.04241040675776E-18	-0.191450674431652	0.952647848112786	-0.191450674431652	0.952647848112786	2.74781678750504E-17	-6.24858424249214E-18
52.5	6.14908573770799E-18	6.49892004481632E-18	-0.0620156083685298	0.895336231534025	-0.0620156083685295	0.895336231534025	7.45441827938382E-18	1.23235986150869E-17
52.6	1.20279890567832E-17	-1.32088757530777E-17	0.0691990696004745	0.96460039025252	0.0691990696004744	0.964600390252521	2.54607923757818E-17	-5.31111229124157E-18
52.7	2.6041742817748E-17	9.47294286571426E-18	0.280874773912142	0.933782532664434	0.280874773912142	0.933782532664433	9.3589554678728E-18	-5.76080583300589E-17
52.8	1.1691748845549E-17	1.19319281523564E-17	0.313487082990206	0.767841426893866	0.313487082990205	0.767841426893866	3.23866621278246E-17	-3.17347468664902E-17
52.9	3.45641578932296E-17	3.8746964609289E-17	0.584440024821989	0.869248124031406	0.584440024821989	0.869248124031406	-2.68964343030134E-17	5.48191426410325E-18
53	6.28204828598475E-18	6.17849407205967E-18	0.596746472405427	0.661174860198323	0.596746472405427	0.661174860198323	-4.91694468999744E-18	2.09365078097268E-17
53.1	1.40381556028598E-18	-1.35170856155701E-18	0.710274437329319	0.627881146306446	0.710274437329318	0.627881146306445	-4.91151323562332E-18	-1.43164656263203E-17
53.2	-1.45483705621888E-17	-1.02079501400411E-17	0.853227560358239	0.496608461395139	0.853227560358239	0.496608461395139	-1.40657238864504E-17	6.04543446638225E-18
53.3	-2.91115818902934E-17	7.17473838247397E-18	0.863435258334142	0.369350712901384	0.863435258334142	0.369350712901384	1.61502302914331E-18	2.38435230573008E-17
53.4	-2.83214935843672E-17	1.69522307567839E-17	0.897839801297636	0.168202859929363	0.897839801297635	0.168202859929362	4.01130461079817E-17	3.26568152600756E-17
53.5	-5.13044796160198E-18	2.57477417039547E-17	0.963482607428747	0.125522656663739	0.963482607428748	0.125522656663739	2.24005191162066E-17	-1.10047966478073E-17
53.6	-8.12314945970838E-18	4.686683859496E-18	0.957466648300575	-0.0837663294939627	0.957466648300574	-0.0837663294939629	-1.61587697489027E-17	4.67832279648656E-17
53.7	-1.70074275791338E-17	-9.29448486425557E-18	0.863987176161149	-0.240312629990227	0.86398717616115	-0.240312629990227	-4.77030642742322E-18	2.07959255452621E-17
53.8	-1.70983088960017E-17	-2.11278701229851E-17	0.965049679790751	-0.30641671746095	0.96504967979075	-0.30641671746095	1.67513763077438E-17	-9.43983229202926E-19
53.9	-2.97892054036424E-18	-1.42026397741024E-17	0.819714057337324	-0.48520675422906	0.819714057337324	-0.48520675422906	-3.1384200088569E-18	-8.2447986933739E-19
54	1.09000403089746E-17	1.61511578003002E-17	0.715703883771185	-0.598414133363458	0.715703883771185	-0.598414133363458	-6.12340262375889E-18	-2.56463639195472E-17
54.1	-1.41899000129991E-18	1.90075109514837E-17	0.640087955386963	-0.667948637177256	0.640087955386963	-0.667948637177256	-2.12387254724616E-17	2.46818363461123E-17
54.2	-3.15724744698655E-18	-5.4242249080212E-18	0.543617460591257	-0.770377077547936	0.543617460591257	-0.770377077547936	-4.76385559913289E-18	-6.48953626724396E-18
54.3	6.06494834073935E-18	1.76201583710306E-17	0.372668822980204	-0.866111131323277	0.372668822980205	-0.866111131323277	-1.18772743665337E-17	1.54944129849065E-17
54.4	-2.50375325902521E-17	-9.77173978747908E-18	0.316392194112521	-0.842303401543108	0.316392194112521	-0.842303401543108	-9.51663132834044E-18	-2.32503444975497E-17
54.5	-1.00582889546343E-17	-1.64484206259588E-17	0.116960275610236	-0.984217742773741	0.116960275610236	-0.984217742773742	-1.89629928646174E-17	5.94618379814463E-18
54.6	-9.30042385543328E-18	3.3385457647243E-18	-0.0211127671335306	-0.914960790835482	-0.0211127671335307	-0.914960790835481	-2.68082141391687E-19	-5.80582456992562E-18
54.7	9.31262624706763E-18	-1.77496706321714E-17	-0.131777361069454	-0.957089847043691	-0.131777361069453	-0.957089847043691	3.80856275462975E-18	-1.78864668821069E-17
54.8	1.81023120237948E-17	2.88099064919955E-18	-0.298296333798517	-0.919230034077669	-0.298296333798517	-0.919230034077669	1.72530254539573E-17	1.55063920811334E-17
54.9	4.34629906923106E-18	-5.44943322916412E-18	-0.428448228881539	-0.837500876693395	-0.428448228881538	-0.837500876693395	6.63478046183058E-18	-6.57125287177903E-18
55	5.45840896922982E-18	-7.92966485571875E-19	-0.535106555360419	-0.793188607856216	-0.535106555360419	-0.793188607856216	-5.89029413718226E-18	-2.37871626592715E-18
55.1	9.09579339920807E-18	-4.03372971047021E-18	-0.664614859427877	-0.699244361190936	-0.664614859427877	-0.699244361190935	9.96085591148601E-18	-5.1516408465871E-18
55.2	-4.10264654179122E-18	2.8796024395771E-18	-0.735066586536241	-0.590536453666703	-0.735066586536241	-0.590536453666702	-1.28895607849108E-17	6.00325468621259E-18
55.3	7.47966691505005E-18	2.87470470744047E-18	-0.836121715156438	-0.454458375558573	-0.836121715156438	-0.454458375558573	-1.03147027383042E-17	5.74934334405878E-18
55.4	-1.13589919062696E-18	3.37892985618573E-18	-0.885201679557111	-0.367986542055188	-0.885201679557112	-0.367986542055187	2.2487842086978E-18	2.26029129497586E-18
55.5	7.34882815995506E-18	-2.91185942724004E-19	-0.951855868824234	-0.204894280856235	-0.951855868824233	-0.204894280856235	-6.76645627450706E-19	1.49888422626341E-18
55.6	5.42749148415281E-18	-6.81352502254876E-19	-0.943326185319471	-0.0771331779107998	-0.94332618531947	-0.0771331779107996	1.27342884329257E-17	-1.99522095877757E-17
55.7	-5.66290010856842E-19	5.81764073886521E-18	-0.968650554352144	0.0553015676487136	-0.968650554352143	0.0553015676487136	9.59912749547235E-18	-7.6742313593865E-18
55.8	1.44730597956331E-17	2.68893853918136E-19	-0.94207723641313	0.213176189827855	-0.94207723641313	0.213176189827855	5.28068601160609E-18	-1.14843349876351E-17
55.9	-4.64382367637228E-18	8.02635953476706E-19	-0.904850279508318	0.336239796085505	-0.904850279508317	0.336239796085505	5.49704213041627E-19	8.06345849854271E-18
56	-3.68727031356816E-18	3.23608274229478E-18	-0.820194956698301	0.470741171489802	-0.820194956698301	0.470741171489802	1.54118517514078E-17	-1.77672856554376E-18
56.1	-6.15480160610758E-18	1.33662294335571E-17	-0.77578093505025	0.57596007623918	-0.77578093505025	0.57596007623918	-3.10042857010504E-18	-9.37118611064873E-19
56.2	-1.61833980396235E-17	-1.80485601793568E-17	-0.687191502488668	0.695582273765976	-0.687191502488668	0.695582273765976	2.99474385480669E-18	-2.6574486304222E-17
56.3	1.15462198216802E-17	1.97248634804842E-17	-0.527167938666595	0.788811243987562	-0.527167938666594	0.788811243987562	1.00990465380288E-17	-4.18106521901407E-18
56.4	3.53669282894543E-18	-1.19670701743974E-17	-0.467140136260292	0.851953610174426	-0.467140136260291	0.851953610174425	1.07072054074324E-17	3.2018301650097E-17
56.5	1.01661097008587E-18	1.09670082375744E-17	-0.321972270308476	0.93096113075448	-0.321972270308476	0.930961130754479	5.38934033623439E-18	1.49377231453137E-17
56.6	3.33853911733036E-18	2.54395662233619E-20	-0.172922289848949	0.93334024084	-0.17292228984895	0.93334024084	-3.35971524880371E-18	8.75572413368968E-18
56.7	6.60831409112254E-18	7.11004042751617E-18	-0.0459254852549683	0.9629487101396	-0.0459254852549685	0.962948710139601	-9.18137822202624E-18	2.82744455151658E-17
56.8	1.09638351535473E-17	-1.68338122287626E-17	0.0731664186261805	0.977943958403564	0.0731664186261803	0.977943958403564	5.4457719776419E-18	2.554772677448E-18
56.9	-8.56674360912284E-18	-6.38052490337375E-18	0.221677145086166	0.93208537474804	0.221677145086166	0.93208537474804	-3.56056994310751E-18	1.18754142582349E-20
57	2.86905695788428E-17	3.65443143127939E-19	0.378161152039542	0.859234388522124	0.378161152039542	0.859234388522125	3.96191419344099E-17	-3.41984513520014E-17
57.1	1.18646284449557E-18	1.0683800805867E-17	0.47950816534373	0.825376181919351	0.479508165343729	0.825376181919351	2.36083011731964E-18	8.62412223904802E-18
57.2	-1.19814401876536E-17	-1.00237740911247E-17	0.597955028506408	0.775270337423939	0.597955028506408	0.775270337423939	1.60835510435756E-18	4.22394549846414E-19
57.3	-1.51070661869864E-17	3.55974265834057E-17	0.741782787438299	0.611221578612942	0.741782787438299	0.611221578612942	8.39634005532376E-18	1.79569863407478E-17
57.4	2.15308575662977E-18	1.93683556757248E-17	0.748611158902309	0.530655887678885	0.74861115890231	0.530655887678885	2.17185551946174E-19	-8.20319965128102E-18
57.5	2.96779937796785E-18	3.97804819790264E-18	0.872913885526248	0.437841711323707	0.872913885526249	0.437841711323707	-1.77538244478516E-17	2.04693195800483E-17
57.6	-4.31260072463555E-18	-9.27334288671684E-19	0.929494761932396	0.283615303256308	0.929494761932397	0.283615303256309	-3.01567487496934E-17	3.89466417648119E-17
57.7	1.38561680721323E-17	2.01859519525656E-17	0.916281793818319	0.144835289112952	0.916281793818319	0.144835289112952	9.0193923491434E-18	6.06308279390691E-18
57.8	1.10291549073688E-17	2.42813286526153E-17	0.962767181918516	0.0374730339412008	0.962767181918516	0.0374730339412009	7.50519969459237E-18	2.80447762211714E-17
57.9	-4.06847877880486E-18	6.6478986677704E-18	0.970154849224065	-0.0830914447927262	0.970154849224065	-0.0830914447927263	-5.22443349042333E-18	8.41206555714252E-18
58	4.85581067868143E-18	6.2388487458334E-18	0.911331479793857	-0.281389261144677	0.911331479793857	-0.281389261144677	5.98360098423908E-18	3.67566748073156E-17
58.1	1.0398686988947E-17	1.02659618844548E-17	0.846800085749186	-0.353946287057398	0.846800085749186	-0.353946287057398	2.87634488211834E-17	1.40227900179809E-17
58.2	1.76479026332853E-18	1.55249794664793E-17	0.825738797025463	-0.495925371555019	0.825738797025463	-0.495925371555019	1.51815332700122E-17	1.17265132904894E-17
58.3	8.22676140047801E-18	1.42017669819146E-17	0.728570131922361	-0.622135420572852	0.728570131922361	-0.622135420572852	1.13132374047601E-17	4.04855094114542E-17
58.4	-7.19280186990548E-18	-2.55093753638206E-18	0.626310669937997	-0.651678091168153	0.626310669937998	-0.651678091168153	4.98939810325373E-18	-1.7217733699969E-17
58.5	5.50737127060886E-18	1.71841038467363E-17	0.573168681887922	-0.785581955838991	0.573168681887922	-0.785581955838991	7.24049385749973E-18	-2.04083691414183E-17
58.6	2.03918031790884E-17	1.90035014289053E-17	0.422309835096643	-0.852431200955383	0.422309835096643	-0.852431200955383	2.0752071925016E-17	3.9294286544174E-18
58.7	-5.25389595541486E-18	3.35858004212263E-18	0.289961941221498	-0.870262996235323	0.289961941221498	-0.870262996235322	-1.62018058644861E-17	1.53685437011908E-18
58.8	-7.11789965205442E-18	1.67503006860424E-17	0.1865976433203	-0.916229369967697	0.1865976433203	-0.916229369967698	-3.46519248841867E-20	4.92902305193294E-18
58.9	1.80250412856244E-17	6.94700235908587E-18	0.0773426169594333	-0.949995041104443	0.0773426169594334	-0.949995041104443	1.05800710993058E-17	-1.58325516745586E-17
59	1.94627018011826E-17	-1.724106526335E-17	-0.0974406035103503	-0.927288069035159	-0.0974406035103505	-0.927288069035159	8.9937738076456E-18	-8.46379080889924E-18
59.1	9.17251139512407E-18	-1.78264727814247E-17	-0.190573419479115	-0.905072546826674	-0.190573419479115	-0.905072546826674	1.31890762531881E-17	-2.52723886010248E-17
59.2	-4.82466211124371E-19	-7.74919239255449E-18	-0.313185966160594	-0.907726263335853	-0.313185966160595	-0.907726263335854	2.71403560010182E-18	-8.85612805086438E-18
59.3	7.43031618460926E-18	5.22246880961298E-19	-0.466459423963391	-0.801822273693557	-0.466459423963392	-0.801822273693557	9.52212475703597E-18	-6.17659747897538E-18
59.4	-6.78581758227515E-18	-1.99951170153039E-17	-0.534360530997409	-0.761085120178422	-0.534360530997409	-0.761085120178422	-1.10920250716308E-17	-2.41028147980819E-18
59.5	-1.23491586708342E-17	-5.83962025344836E-18	-0.664076421291199	-0.674965918655397	-0.664076421291199	-0.674965918655397	1.40939767434E-17	-5.79838415790902E-18
59.6	-1.57695225972238E-17	4.14073603001845E-18	-0.738194365065309	-0.556123332037854	-0.738194365065308	-0.556123332037854	-4.08801048875655E-19	-1.42430203045499E-18
59.7	4.48678507688184E-18	6.3588514033784E-18	-0.816205553436989	-0.476034450062659	-0.816205553436989	-0.476034450062659	1.2052623448708E-18	9.99454045698208E-18
59.8	1.37470130353428E-17	-5.33127401155652E-18	-0.883171133111181	-0.353260442985151	-0.88317113311118	-0.35326044298515	-5.57462519237599E-18	-9.74116507460172E-19
59.9	-4.79228969820322E-18	2.24728512830078E-18	-0.909381288674571	-0.239074726941135	-0.909381288674571	-0.239074726941135	4.00332814968175E-18	-7.86724203080668E-18
60	-1.14523939611688E-17	3.23978222231369E-18	-0.932168590362421	-0.0878639665405723	-0.932168590362421	-0.087863966540572	5.12129010549557E-18	-2.50895967290521E-18
60.1	1.65843765316185E-18	2.88360434709859E-18	-0.925660184059104	0.0269822238665271	-0.925660184059104	0.026982223866527	1.9436661790901E-17	1.10118941022242E-18
60.2	4.60654112583901E-18	-1.92282328928858E-17	-0.939774483747703	0.133180133845315	-0.939774483747703	0.133180133845314	1.75628176854273E-17	-1.24008749014545E-17
60.3	-1.25950487641174E-17	-3.93257893217466E-18	-0.891411327453735	0.299320156519251	-0.891411327453736	0.299320156519251	-2.63526377614819E-19	9.81792254703839E-18
60.4	-2.18807961587989E-17	9.48682060155466E-18	-0.834964970804621	0.370580980323191	-0.834964970804621	0.370580980323192	-7.0671503254956E-18	-2.977138876589E-18
60.5	-1.63230489970703E-17	1.71959808745471E-17	-0.793849138639204	0.510791506650976	-0.793849138639205	0.510791506650977	-3.68037886434519E-18	3.41972591027789E-18
60.6	-6.32426750856433E-18	2.04874306174457E-17	-0.711015810415208	0.606998384612767	-0.711015810415208	0.606998384612766	3.94602331431387E-18	-5.51380243437728E-18
60.7	1.99492980562678E-17	5.61705609176352E-19	-0.618893535597093	0.701174125505844	-0.618893535597093	0.701174125505844	-3.43420216350525E-18	3.10580091557986E-18
60.8	4.25170862603697E-18	-9.29123633158189E-18	-0.522102728741274	0.784365389096478	-0.522102728741275	0.784365389096478	-1.29175478663501E-17	-2.94335470926918E-18
60.9	1.71042056276431E-18	6.09795172343423E-18	-0.420136823064251	0.845343382993599	-0.420136823064251	0.845343382993599	-8.96135646335157E-18	9.70565859290816E-19
61	3.30663723990754E-18	3.35793025223158E-17	-0.288324338536175	0.895750209663742	-0.288324338536175	0.895750209663743	3.90480625078007E-18	1.79338003218581E-17
61.1	2.68439651626663E-17	-1.96514495787177E-18	-0.162709623461969	0.910821443950498	-0.162709623461968	0.910821443950499	-7.21590027504646E-19	1.16058325671819E-17
61.2	1.85177187964338E-18	-2.82365577685282E-17	-0.055318214229049	0.930425146808127	-0.0553182142290487	0.930425146808127	-2.45714031136322E-18	-4.84641906006585E-18
61.3	3.33589014452719E-17	1.28843675221583E-17	0.0752843905814492	0.946751827127437	0.0752843905814493	0.946751827127438	1.01821623404171E-17	1.73772636303266E-18
61.4	-1.80423978667107E-17	3.02109933926412E-18	0.233034834624463	0.905396069012504	0.233034834624463	0.905396069012505	-1.27643510499467E-19	5.26448902552355E-18
61.5	1.54210636585073E-17	1.45841245558258E-17	0.303270455399131	0.862517895682544	0.303270455399131	0.862517895682543	9.29527171417706E-18	6.95002630475792E-18
61.6	-2.50271590277212E-18	-1.33272570514497E-17	0.44790651193161	0.848889767827903	0.447906511931611	0.848889767827903	3.59122876752608E-18	-3.83626179390684E-18
61.7	-9.21300446970331E-18	1.42885953444607E-17	0.564384775597849	0.760883866017476	0.564384775597849	0.760883866017476	-2.67506773211894E-17	-5.670728879957E-18
61.8	1.24658153111025E-18	5.42811475734069E-18	0.639027099237936	0.667399918970876	0.639027099237937	0.667399918970876	7.2054606858716E-18	4.76052339374963E-18
61.9	1.07799279666203E-17	6.22278900509599E-18	0.731143846541188	0.573443205547328	0.731143846541188	0.573443205547328	1.06636396710411E-17	1.20345554333143E-17
62	-4.79490478128817E-18	6.75959054131391E-19	0.798757335861309	0.49467836053998	0.798757335861308	0.49467836053998	7.16234125580725E-18	1.52502003672985E-17
