# GHZ S RI R 50
50	-1.85840442132394E-18	8.58329623373277E-19	0.749222045990966	-0.522572233290023	0.749222045990967	-0.522572233290024	-2.10647849100571E-17	4.58521635416126E-18
50.1	3.27412823222425E-18	-2.02669170085629E-18	0.631411937311213	-0.625728495196488	0.631411937311213	-0.625728495196489	4.82242173179754E-18	-2.69812413463124E-18
50.2	-1.36705409747823E-17	9.86519516225521E-18	0.533687133900802	-0.716474687702608	0.533687133900802	-0.716474687702608	5.64209819985209E-18	-5.29860308250639E-18
50.3	2.94863638530318E-17	2.73338250585724E-17	0.418144889178372	-0.821819771625839	0.418144889178373	-0.821819771625839	-1.46308149309697E-17	1.2480178570482E-17
50.4	-1.53804231471054E-17	1.24231181267742E-17	0.237064330696894	-0.842886928218849	0.237064330696895	-0.84288692821885	-4.85575142740182E-18	-6.08284331611564E-18
50.5	1.12508735988556E-17	1.23691592998761E-17	0.132391508680855	-0.899438637896957	0.132391508680855	-0.899438637896958	-1.23629370987995E-17	3.76632958380043E-18
50.6	1.1689371043358E-17	6.11500100093204E-18	-0.0343891510782825	-0.897175668366494	-0.0343891510782825	-0.897175668366493	-1.50131259057143E-18	-1.2872261364291E-18
50.7	-2.81950440204899E-18	3.63791215686855E-19	-0.165449663000836	-0.876107613617383	-0.165449663000836	-0.876107613617383	-8.26060400951613E-18	9.15932466922442E-18
50.8	-3.68552438742396E-18	9.14496056034784E-18	-0.326003919835987	-0.860813936637636	-0.326003919835986	-0.860813936637635	-1.53690417740413E-17	-4.06784690780878E-18
50.9	1.52217348572753E-17	-2.18627060766973E-18	-0.442864728596584	-0.762471831084886	-0.442864728596583	-0.762471831084886	-6.9292249993845E-19	-3.14499897058931E-17
51	7.00492816373873E-18	-2.89388443639589E-17	-0.579101203432181	-0.700612397300528	-0.579101203432182	-0.700612397300528	-1.09913956256474E-17	-3.56563248425163E-18
51.1	2.66149108058358E-17	-3.64638859729647E-18	-0.680320642980519	-0.593468282930939	-0.680320642980519	-0.59346828293094	6.81200870694118E-18	-2.36036072591148E-18
51.2	2.82710529767799E-18	-1.30689406554184E-17	-0.761585607504541	-0.471710742209046	-0.76158560750454	-0.471710742209046	2.50490330631027E-18	-7.46623483584312E-18
51.3	-4.7319752157501E-18	1.75267654236809E-18	-0.833156846163227	-0.344259583730391	-0.833156846163227	-0.344259583730391	-3.98045803321309E-18	3.99427483670523E-18
51.4	4.31600060323463E-18	-1.04332707107893E-18	-0.894627751227054	-0.223419538699892	-0.894627751227054	-0.223419538699892	-5.27295604198015E-18	1.36917106605427E-18
51.5	-2.86009125440133E-18	7.75169626747084E-18	-0.885112483576087	-0.0458406690141421	-0.885112483576087	-0.0458406690141419	-1.49091679247374E-17	-1.54846841043548E-18
51.6	-4.26413987703619E-18	1.39790409386978E-17	-0.904981508071237	0.0660542001400992	-0.904981508071236	0.066054200140099	2.51757554938243E-17	6.35959231796321E-19
51.7	3.99247646433532E-17	-7.75897646835024E-18	-0.897541965409836	0.213827018821916	-0.897541965409836	0.213827018821916	4.95304383397454E-20	-2.81514584627952E-17
51.8	9.69364068913182E-18	-5.25635926149E-18	-0.793622021609151	0.348698662067438	-0.79362202160915	0.348698662067439	-1.36172339615683E-17	5.19284782044422E-18
51.9	1.45025737009899E-17	-7.77616140446137E-18	-0.800857387628826	0.476707413701193	-0.800857387628826	0.476707413701193	-1.97559741724144E-17	-1.41433048756466E-17
52	1.82068693172505E-18	3.25034756796797E-18	-0.654064870151847	0.605303602282925	-0.654064870151847	0.605303602282926	-1.96449784044577E-17	-1.39601296633434E-17
52.1	8.10036021833369E-18	9.07912424855918E-18	-0.559159577796209	0.685570946806686	-0.559159577796209	0.685570946806686	3.64744107374206E-18	-1.59946687734168E-17
52.2	1.86429329946854E-17	-4.77930727975413E-18	-0.471257585240218	0.771078761077232	-0.471257585240218	0.771078761077233	6.37038106434386E-18	-1.24182993321136E-17
52.3	7.81557729109023E-18	-4.75528326134089E-18	-0.348002157535065	0.836301126713692	-0.348002157535066	0.836301126713692	-1.51262900354052E-17	9.00897637054846E-18
52.4	-3.57337727934849E-18	-1.40495594646261E-17	-0.197038273863372	0.911734040840598	-0.197038273863372	0.911734040840599	-1.06301838552266E-17	-1.31060170214673E-17
52.5	2.64918384680461E-17	-8.24022260058789E-18	-0.0788243919506233	0.859456231009556	-0.078824391950623	0.859456231009556	-3.83599619402491E-17	-4.12620857132165E-17
52.6	-1.33231164911532E-18	1.66794267420622E-18	0.0519333987011361	0.931376137799556	0.0519333987011361	0.931376137799556	1.29035777097895E-17	-2.04297446462142E-17
52.7	2.09744013097477E-17	-9.44897270463776E-18	0.256822518793265	0.900204249397016	0.256822518793265	0.900204249397016	3.36780120281691E-18	-5.21998862114217E-17
52.8	-4.30098264421845E-18	-1.68108504561193E-17	0.279412557105154	0.748994402196155	0.279412557105154	0.748994402196154	-2.02727897964469E-17	3.07741876639423E-17
52.9	2.20371478490491E-18	-2.8982971999334E-18	0.555357075021974	0.842422859684075	0.555357075021974	0.842422859684076	-3.38673043373759E-17	4.31264249437253E-17
53	-2.4893338112237E-17	2.71235392972726E-18	0.559375596061137	0.649476122307016	0.559375596061137	0.649476122307016	4.27363626667313E-18	4.0270499834044E-17
53.1	1.29512404870557E-18	-1.87815699467182E-17	0.675925744237311	0.619695101618201	0.675925744237311	0.6196951016182	-1.89571256487268E-18	-2.17985979663551E-17
53.2	-7.46305192424738E-18	-1.74207570061461E-17	0.816265658076698	0.490908619562421	0.816265658076698	0.490908619562421	2.06554430916102E-17	-4.72520571544289E-18
53.3	-1.25805664996833E-17	-9.89677620977502E-18	0.828319073064453	0.373095546496153	0.828319073064452	0.373095546496153	-2.16910352847815E-17	2.30167222584563E-17
53.4	-7.66409844684322E-18	1.41932295895335E-17	0.860169644695923	0.179735129300905	0.860169644695923	0.179735129300905	1.22746795531893E-17	5.36385874293691E-18
53.5	-5.33729451391015E-18	1.77533216194837E-17	0.933645929842867	0.137308512449655	0.933645929842868	0.137308512449655	-3.04105660432452E-17	4.56932770960236E-18
53.6	2.41943067954389E-18	1.17542828946876E-17	0.926714901231055	-0.0652462742628192	0.926714901231056	-0.065246274262819	6.51709376238832E-18	3.53677382092691E-17
53.7	9.42028463489813E-19	-1.52500632939251E-17	0.837697535006665	-0.212519254083581	0.837697535006665	-0.212519254083582	7.83043334470422E-18	-4.24637627179089E-18
53.8	1.99630346036219E-17	-1.26739735055879E-17	0.944287396609967	-0.285897935515981	0.944287396609966	-0.285897935515981	-9.36645959489187E-19	-1.40502376723439E-18
53.9	-9.49512965114514E-18	2.93719434515196E-18	0.802548496833247	-0.455688534485315	0.802548496833248	-0.455688534485315	4.20568635609497E-19	1.65963130651143E-17
54	1.49615905667468E-19	-3.95465849078613E-18	0.704434536032223	-0.565656856994398	0.704434536032224	-0.565656856994398	3.08375394553391E-18	1.22827667351731E-17
54.1	1.19346316935459E-17	3.49628836676897E-18	0.635716759495622	-0.636398669161142	0.635716759495623	-0.636398669161142	-1.40257835198258E-17	9.84047023372896E-18
54.2	8.23553740335578E-18	1.04251203153553E-17	0.543212289688049	-0.739266640395597	0.543212289688049	-0.739266640395597	2.69080367395106E-17	-6.89399658176413E-18
54.3	-1.20659795046875E-17	-1.15585619912784E-17	0.376916160986681	-0.832078214488703	0.376916160986682	-0.832078214488704	-7.64682461040276E-18	-1.63983040671435E-17
54.4	-2.04695042223426E-17	-2.52233113616888E-17	0.328294231522893	-0.816357483432431	0.328294231522893	-0.816357483432431	-3.02261121800436E-17	8.22452852694658E-18
54.5	-1.46539698102376E-17	-7.33797457506496E-18	0.128040595584037	-0.953936733340423	0.128040595584038	-0.953936733340423	-2.90400809359792E-17	8.7212266773295E-18
54.6	-4.13899524978298E-18	-8.22532178480457E-18	-0.0011377248610385	-0.88953688699047	-0.00113772486103876	-0.88953688699047	8.2147880418523E-18	-8.2569230136614E-18
54.7	-4.51854931513136E-18	5.85691530335885E-18	-0.112311822778697	-0.935598373298247	-0.112311822778696	-0.935598373298247	-4.49938035961889E-18	2.68143545925092E-18
54.8	4.01600248471368E-18	-6.40996668125933E-18	-0.274878918343552	-0.899949260212894	-0.274878918343552	-0.899949260212894	-2.07816483453415E-18	1.06607813690659E-17
54.9	2.05028288355998E-18	-1.1219252640651E-19	-0.401006118454232	-0.823164938382214	-0.401006118454232	-0.823164938382214	2.78798546196963E-18	5.8764714312177E-18
55	2.68173965804306E-18	3.26949688706131E-18	-0.50810828370035	-0.783545101125536	-0.50810828370035	-0.783545101125536	1.21965073857536E-18	4.68751179840443E-18
55.1	7.21123534142549E-18	-3.23049662861849E-18	-0.635970186371353	-0.693105647283085	-0.635970186371352	-0.693105647283085	-6.77590453040552E-18	7.11964486568613E-18
55.2	2.37379977469539E-19	-4.90128936120998E-18	-0.706606186179541	-0.590585839831292	-0.706606186179542	-0.590585839831292	4.4621432250659E-18	8.16488883181524E-18
55.3	2.64737543914918E-18	2.98295368591376E-18	-0.806533867383861	-0.458130314026375	-0.806533867383862	-0.458130314026376	1.97468953539447E-17	-1.35114335372679E-17
55.4	-1.07439411939886E-17	-1.49548507969246E-18	-0.859551829070705	-0.375651189880555	-0.859551829070705	-0.375651189880554	-1.97766168129783E-18	3.71895890334058E-17
55.5	-3.46496276167378E-18	7.03000248252672E-18	-0.925772644432018	-0.215756541555975	-0.925772644432019	-0.215756541555975	-2.16829230407358E-17	8.53607993821121E-18
55.6	-1.07605636454779E-17	-6.74929306544645E-18	-0.921054176028007	-0.0930774798565764	-0.921054176028007	-0.0930774798565764	-2.44954633987829E-17	1.06749446638966E-18
55.7	-1.04857648889582E-17	6.33381673852189E-18	-0.94915139172234	0.0378612371515415	-0.949151391722339	0.0378612371515412	-7.77929288287317E-18	1.31837590251136E-17
55.8	1.1284641292504E-18	-8.08684503079664E-18	-0.924958979940266	0.19227071370296	-0.924958979940266	0.192270713702959	3.73601100127476E-18	-4.99957685838277E-18
55.9	4.70164615084873E-18	-1.27236718254159E-17	-0.891959861172184	0.313723601577365	-0.891959861172185	0.313723601577365	-4.3604967413735E-18	-4.77091198272869E-19
56	3.87009736396827E-18	7.75032348176403E-18	-0.811357921831227	0.445115590345091	-0.811357921831227	0.445115590345091	1.89160345643135E-17	-2.04112955740923E-18
56.1	1.2370720886255E-17	-7.3113631227334E-18	-0.770796174881144	0.551686302692265	-0.770796174881144	0.551686302692264	1.66987373080611E-17	8.98270757602282E-18
56.2	-3.290974737102E-18	4.71855435454908E-18	-0.68523690059878	0.670987469617078	-0.68523690059878	0.670987469617077	-1.42227116024484E-17	-6.68252228240581E-18
56.3	-6.94761421563322E-18	-1.01707562042547E-17	-0.530241077480875	0.761506948430445	-0.530241077480874	0.761506948430445	-6.2187178793923E-18	-1.68108137762301E-17
56.4	-2.19439910067482E-18	1.41552832539046E-17	-0.473117916469342	0.829272681375547	-0.473117916469342	0.829272681375546	-7.44288526583145E-19	-1.05812633133643E-17
56.5	-2.3043999169445E-18	6.52874844959097E-18	-0.330562677051657	0.908284037100651	-0.330562677051656	0.90828403710065	-1.5260709249442E-18	2.19905814734101E-17
56.6	-5.73820069200538E-18	-5.72954472902895E-18	-0.186984678445047	0.912723994195667	-0.186984678445047	0.912723994195666	-2.29354908420687E-17	1.7311925952852E-20
56.7	-1.587306667939E-17	7.33351762864206E-18	-0.0617662209648302	0.945121762760436	-0.0617662209648299	0.945121762760436	2.27572711314973E-18	6.57679938307099E-18
56.8	5.00477179518932E-18	1.4871748870185E-17	0.056496875943543	0.963604258372996	0.0564968759435429	0.963604258372995	9.70190248967743E-18	-1.09061997746614E-17
56.9	-1.71940620936941E-17	-2.26290940742575E-17	0.201603088193122	0.92079221697795	0.201603088193122	0.92079221697795	-5.01322427918358E-18	5.69880946963357E-18
57	-5.45475070104691E-18	3.40830851377343E-18	0.354432720470573	0.850653288847109	0.354432720470573	0.850653288847109	1.76696242933573E-17	-9.44908992193513E-18
57.1	-1.15317327144681E-17	-1.7397297994493E-18	0.457094112236345	0.820861691722592	0.457094112236345	0.820861691722592	1.96330787580533E-19	-3.23027463273753E-17
57.2	-6.26512053694841E-19	-3.55500958464639E-18	0.576718248806029	0.773307697173696	0.576718248806029	0.773307697173695	1.9488469126073E-17	2.43015265622105E-18
57.3	4.95314034016782E-18	1.16834743861954E-17	0.715869492269884	0.612080608539115	0.715869492269884	0.612080608539115	-1.72183544653882E-17	2.91907900496118E-17
57.4	-1.3297646179202E-18	7.82741186490518E-18	0.726999875875263	0.538704277752951	0.726999875875263	0.538704277752951	-8.44444242161875E-19	3.62575462771988E-17
57.5	6.32988363637424E-18	-6.36062731321646E-18	0.852620584307544	0.445417614344299	0.852620584307545	0.445417614344299	-4.06834198631116E-18	-3.03588465131225E-18
57.6	-3.0750417661226E-18	5.60046054371573E-18	0.909343869292107	0.294541581955495	0.909343869292108	0.294541581955495	-1.16581879478196E-17	2.28664697852121E-17
57.7	8.99903401971643E-18	4.87497523438616E-18	0.899120448224944	0.161091134620599	0.899120448224944	0.1610911346206	2.46347060868618E-18	1.68371383856348E-18
57.8	1.56997753210024E-18	-6.91813673712053E-18	0.948868191464222	0.0534300167430899	0.948868191464222	0.05343001674309	-9.16555092549582E-18	-2.61227254821646E-18
57.9	1.71523939302429E-17	-1.21087828938545E-17	0.959567202611392	-0.0664323856716993	0.959567202611392	-0.0664323856716994	-1.35464092022385E-18	1.35567286185694E-17
58	3.26752572114573E-18	1.0562742947256E-17	0.90108180000861	-0.259949658221789	0.90108180000861	-0.259949658221789	-1.11273126773279E-17	1.66926804664628E-17
58.1	1.02833135895429E-17	-5.68400189199356E-18	0.84332836573182	-0.331919114791787	0.84332836573182	-0.331919114791787	1.55316632243974E-17	6.22210887251641E-18
58.2	6.78684957091807E-19	3.92065216848159E-19	0.823307346267024	-0.4751995020038	0.823307346267023	-0.4751995020038	-5.33745546180498E-18	1.86408302712923E-17
58.3	-2.30961347991261E-17	-1.0825480615914E-17	0.728989118791538	-0.600111088288972	0.728989118791538	-0.600111088288972	-2.62321834935739E-17	1.1683026880137E-18
58.4	-3.19210262120037E-17	-5.67328636000484E-18	0.633852117569307	-0.631510337820991	0.633852117569307	-0.631510337820991	-1.67165794387417E-17	1.38259627632585E-17
58.5	-2.47190231384483E-17	1.87366618713059E-17	0.579657801950739	-0.76799145833431	0.579657801950739	-0.76799145833431	-5.9578627949267E-18	2.53339552722006E-18
58.6	1.20749826602384E-17	2.24291121518994E-17	0.432503750136643	-0.834519126436488	0.432503750136643	-0.834519126436487	3.2991581808608E-17	2.54893267303189E-17
58.7	5.01400601843679E-18	-1.06554228508283E-17	0.304629923553374	-0.854650494102655	0.304629923553374	-0.854650494102654	2.47928429321156E-18	-8.11597132932694E-18
58.8	-4.23605663271962E-18	1.77432742857527E-17	0.20201685305041	-0.903926130319904	0.202016853050409	-0.903926130319903	-8.75300814646934E-18	-4.11807403990424E-18
58.9	5.0128501015636E-18	-9.27935272321458E-18	0.0928889229995215	-0.940938820406443	0.0928889229995212	-0.940938820406443	-3.81164358769203E-18	-1.65735485405843E-17
59	-8.99658654072702E-18	8.66467994275182E-18	-0.078512799049041	-0.919235762002441	-0.0785127990490408	-0.919235762002441	-4.01343998713174E-18	-1.55671712758382E-18
59.1	9.25967808028801E-19	-1.05857678944671E-17	-0.171766576808425	-0.901887920626529	-0.171766576808425	-0.901887920626529	8.52172852542993E-18	7.63779152026506E-18
59.2	-2.29863083048748E-18	-2.47292195682664E-18	-0.29629070288639	-0.906549618313466	-0.29629070288639	-0.906549618313466	2.2097425309605E-19	-3.70582293139082E-18
59.3	2.37522908934605E-18	-5.20384754170285E-18	-0.446184463216716	-0.803054493782922	-0.446184463216717	-0.803054493782923	7.09772622153805E-18	-1.97240489654475E-17
59.4	8.14212500842391E-18	8.84451164857364E-19	-0.517366625934789	-0.766547242969617	-0.517366625934789	-0.766547242969617	2.14191831149789E-18	-2.33562996253326E-18
59.5	-1.39414669478323E-17	2.54138811844032E-18	-0.647251915778521	-0.681511442832262	-0.647251915778521	-0.681511442832262	-1.85721706226943E-17	3.06968284290203E-18
59.6	5.43946568324536E-18	-8.47763051195046E-18	-0.721988361234662	-0.56627881153139	-0.721988361234662	-0.566278811531389	6.9595545079997E-19	2.83694395155812E-18
59.7	-9.62352207585438E-19	3.9523081377603E-18	-0.803060537881872	-0.48729753192389	-0.803060537881872	-0.48729753192389	3.39424164205137E-19	-1.76702117731315E-19
59.8	-8.25635908226012E-18	3.75557817852237E-18	-0.87149856756526	-0.365963832605579	-0.87149856756526	-0.365963832605579	1.07454563275612E-18	2.20240662675257E-18
59.9	-6.23208866008584E-18	-4.36970154136693E-18	-0.900806292876614	-0.253717038607418	-0.900806292876615	-0.253717038607418	1.47865767919971E-17	-7.42836829808665E-18
60	5.56482276113035E-18	-4.12398897817689E-18	-0.924822580488885	-0.104203219424745	-0.924822580488885	-0.104203219424746	-7.91987351369984E-19	1.02222029765527E-17
60.1	1.09632434315541E-17	-4.6561825425179E-18	-0.921913712761819	0.00973454036983222	-0.921913712761819	0.00973454036983217	2.00420868184034E-17	6.21365220976161E-18
60.2	1.50445688970706E-17	-7.03409203524749E-18	-0.939070391418273	0.117584564642631	-0.939070391418272	0.117584564642631	1.12934020233963E-17	-2.87322725881558E-18
60.3	1.05973114113167E-17	2.03674336922506E-17	-0.891716595911513	0.281866591801116	-0.891716595911514	0.281866591801116	8.80145814244577E-18	2.44098427325446E-17
60.4	7.13123885068262E-18	-1.11138531243974E-18	-0.84052392182938	0.354429364936393	-0.84052392182938	0.354429364936393	-9.98004179224533E-18	-2.16990320142768E-18
60.5	1.36783755632692E-17	-2.23680307051617E-17	-0.799831217517375	0.495878290565445	-0.799831217517376	0.495878290565445	3.77930310906885E-18	1.61138802858271E-19
60.6	2.4272618656457E-18	1.12322499111967E-17	-0.719676124680859	0.593206522207841	-0.719676124680859	0.593206522207841	-1.15213218441863E-18	5.9246575845044E-18
60.7	6.07844701457172E-18	8.54953208052751E-18	-0.629420380283863	0.6887621415772	-0.629420380283863	0.6887621415772	3.00815573198616E-18	-2.71391494531982E-19
60.8	1.69308318236705E-17	-7.24924020031752E-18	-0.533934522942616	0.773882672074976	-0.533934522942617	0.773882672074976	-8.68310763752183E-18	-1.88421699366153E-19
60.9	1.49632488519231E-17	9.12860306809864E-18	-0.433232410328316	0.837421724842938	-0.433232410328315	0.837421724842938	5.84808228095214E-18	-5.0839928650903E-18
61	3.0734697010685E-18	1.73388968841123E-17	-0.302667491265899	0.889314412569504	-0.302667491265899	0.889314412569504	-1.13202958293301E-19	2.11645589462314E-17
61.1	2.2053339679225E-17	4.82867285155441E-18	-0.178583348600075	0.907041235632458	-0.178583348600075	0.907041235632458	3.92970189843282E-18	-7.93335207963594E-19
61.2	-1.30358147879491E-18	-1.64142912093649E-17	-0.0707295989871152	0.929845532286225	-0.0707295989871151	0.929845532286225	-2.59109519693163E-18	-1.29868137443016E-17
61.3	1.13919848707777E-17	-3.43983989615299E-18	0.0607953087772913	0.947897461953158	0.0607953087772911	0.947897461953158	1.95034870454181E-17	-3.25181503871146E-18
61.4	-2.25161283126443E-17	1.4811953670764E-17	0.21710104643021	0.907835149642723	0.21710104643021	0.907835149642723	2.67922276645285E-18	1.02927553122247E-17
61.5	-2.82787550871698E-19	-5.24807041211902E-18	0.289152220519365	0.869872010537092	0.289152220519365	0.869872010537092	6.72273681894999E-18	-1.04839950937435E-17
61.6	3.17656971898308E-18	-1.64858944537674E-18	0.436029606374177	0.855873532264114	0.436029606374176	0.855873532264114	-7.88311665954293E-18	2.67995632272242E-18
61.7	-2.95215215118704E-18	-9.96158342225718E-19	0.552681576763867	0.769792192075613	0.552681576763866	0.769792192075613	-3.82379070063455E-18	1.58697479006294E-18
61.8	4.31861592940997E-18	2.01056018346753E-18	0.628966153528389	0.679323900650274	0.628966153528389	0.679323900650274	9.58010776223401E-18	-8.20865190272262E-18
61.9	3.0181487246913E-18	-2.51879268651274E-19	0.72275685878643	0.586368307152057	0.72275685878643	0.586368307152057	5.45598582922944E-18	3.8628741355224E-19
62	-1.06477529378903E-17	-1.2059530106219E-17	0.793742392844427	0.508175024017391	0.793742392844427	0.508175024017392	-1.42558912997712E-17	-7.0033520652779E-18
