# GHZ S RI R 50
50	2.29702888781788E-17	-5.20009951098015E-18	0.760375994102383	-0.533165657176553	0.760375994102383	-0.533165657176552	-1.53486579026342E-17	5.57579346259017E-18
50.1	3.32407125375951E-17	1.51002954100261E-17	0.641388072174285	-0.637421582588756	0.641388072174285	-0.637421582588757	-4.97770362758031E-18	2.09684778556997E-18
50.2	-3.22697404927544E-17	1.72817987460589E-17	0.542039800857018	-0.730669259036708	0.542039800857018	-0.730669259036709	-4.87275613348669E-18	-2.10276674721923E-17
50.3	-7.91455097294418E-18	5.37032691918501E-18	0.422954985359047	-0.838199135795629	0.422954985359047	-0.838199135795629	-7.83416643068883E-18	4.83571642180963E-18
50.4	-4.10230668548504E-18	-3.43589534001847E-17	0.240577194085073	-0.85827942114057	0.240577194085073	-0.858279421140571	1.24910961680931E-17	5.9863276126789E-18
50.5	6.55940351025189E-18	2.52322588405625E-17	0.132135703019538	-0.917432770970398	0.132135703019538	-0.917432770970399	-6.51859877085214E-18	8.95712878145988E-18
50.6	2.24307954790728E-17	6.91513143882389E-18	-0.0372666107093653	-0.914417065424701	-0.0372666107093649	-0.9144170654247	4.46251327106968E-18	1.09340734460843E-18
50.7	-1.04478491263898E-17	2.03798863665111E-17	-0.171063710459612	-0.89370025775419	-0.171063710459612	-0.893700257754191	6.91278567275677E-18	9.61727248683686E-18
50.8	1.02168357843243E-18	1.13786725773035E-18	-0.335865915993842	-0.876779179120408	-0.335865915993843	-0.876779179120408	5.10841789216213E-19	5.68933628865177E-19
50.9	1.03839220498043E-19	-1.44773180228028E-17	-0.453803204164258	-0.777611972219468	-0.453803204164258	-0.777611972219468	3.83203413587229E-18	-1.06519854724978E-18
51	1.23637374054678E-17	-1.13839049812657E-18	-0.593747647890526	-0.713244909254311	-0.593747647890526	-0.713244909254311	4.9496673874847E-18	-2.12573683543435E-18
51.1	-3.65566948576879E-18	-4.69130630673963E-18	-0.69697477056141	-0.603926013779192	-0.69697477056141	-0.603926013779192	3.54115758698664E-18	-6.47140528865475E-18
51.2	3.73080989746849E-19	1.12172528771123E-17	-0.77988026341616	-0.479694547595109	-0.77988026341616	-0.47969454759511	1.82266305051305E-17	3.82438056825087E-18
51.3	1.64862924290212E-18	-5.09389435406237E-18	-0.85300829327331	-0.34896731896045	-0.85300829327331	-0.34896731896045	6.77667897204665E-18	4.61730036168036E-19
51.4	1.7563350173453E-17	1.34875597404095E-17	-0.916351461529738	-0.224103638621841	-0.916351461529738	-0.224103638621841	1.22503140277632E-17	-2.32784628909382E-18
51.5	-2.71480220822051E-18	9.39967188407492E-18	-0.905326092872288	-0.0444222523315931	-0.905326092872288	-0.0444222523315937	-1.99958887327732E-18	-8.78935550063613E-18
51.6	6.66394094332203E-18	-1.03974401590385E-18	-0.926731308035598	0.0718620875584518	-0.926731308035598	0.0718620875584515	1.41628701798796E-17	-1.13113239615383E-17
51.7	2.21812482413627E-17	-1.57577913683134E-19	-0.918313119883163	0.224027815232945	-0.918313119883163	0.224027815232945	1.31658123280572E-17	2.28537456106299E-17
51.8	5.43917382012346E-18	-8.01485451808566E-18	-0.812719934771931	0.3593645482761	-0.812719934771931	0.3593645482761	-2.78656442935619E-18	-2.53489891924224E-18
51.9	1.82138591950991E-17	-3.97337075331549E-18	-0.818408232475855	0.494345729899533	-0.818408232475856	0.494345729899533	7.82855711377241E-18	-1.25906638062836E-18
52	6.15353952978406E-18	-5.00718437786893E-18	-0.668026658230819	0.622761156373966	-0.668026658230819	0.622761156373966	2.39046612350946E-17	-9.92519666314265E-18
52.1	-5.74345906692198E-18	4.93190325631398E-19	-0.571180588578916	0.705764261550965	-0.571180588578916	0.705764261550965	1.20831631598115E-17	1.81081825395225E-18
52.2	1.39255569388678E-18	2.64654980958828E-18	-0.479892076818621	0.79477874710795	-0.479892076818621	0.79477874710795	-1.54601441669568E-17	-3.69270155801188E-18
52.3	-3.02241206034886E-18	-1.19398362375648E-17	-0.35280190514338	0.861697562497032	-0.35280190514338	0.861697562497032	-3.38561907647463E-17	2.15475009848362E-17
52.4	7.73056865326582E-19	-5.73894817519937E-18	-0.19597273199476	0.937367158948393	-0.19597273199476	0.937367158948393	-2.87862113416642E-17	-5.64155491907007E-18
52.5	-1.15255697260359E-17	2.14394490713796E-18	-0.0776562899820622	0.885965424171918	-0.077656289982062	0.885965424171917	1.82814870225908E-17	-9.50441487891103E-19
52.6	-5.19016922659681E-18	2.24447450911786E-17	0.0611670090919366	0.958499525271519	0.0611670090919365	0.958499525271519	5.44529451955981E-17	2.20611926603202E-17
52.7	3.17099577267476E-17	1.68077756963865E-17	0.27017781307067	0.922536053853401	0.27017781307067	0.922536053853401	-1.87912416197887E-17	6.32782091354542E-18
52.8	-2.38550480453392E-17	-2.01572166067818E-17	0.290100508183093	0.774745430137756	0.290100508183093	0.774745430137756	-7.52191540303767E-18	4.19765791273053E-17
52.9	-9.70774859186487E-18	-4.80619458485485E-17	0.57940489137418	0.858507102092339	0.579404891374181	0.85850710209234	-2.22779803601781E-17	5.52250705423168E-17
53	1.42078202425643E-17	6.12520085759632E-18	0.579861224121663	0.667835998422099	0.579861224121663	0.667835998422098	3.62001375386523E-19	-4.12361265785267E-17
53.1	2.10523415554227E-17	-8.04585977144053E-18	0.70315930832222	0.63400627601823	0.70315930832222	0.634006276018229	2.45868745670159E-17	-4.1132370194401E-18
53.2	-1.27906353240838E-17	-1.96273321730432E-17	0.845203488005839	0.497806750214648	0.845203488005839	0.497806750214648	5.43437747108978E-18	-3.96727356512622E-18
53.3	-3.52510833321015E-18	-1.17862865238899E-17	0.858809653119667	0.378596738876968	0.858809653119667	0.378596738876968	3.03420906961708E-18	-1.93325665195697E-17
53.4	1.03241534394973E-17	1.21269676049141E-17	0.887951877744728	0.180865037396901	0.887951877744728	0.180865037396901	-1.02587653547445E-17	9.57033373095417E-18
53.5	-4.90264137348275E-18	1.15080459057575E-17	0.967329713879137	0.131478096984787	0.967329713879136	0.131478096984786	-4.68910545326185E-17	1.44605006250227E-17
53.6	-3.38389740371889E-17	5.52905501028541E-19	0.956001668935238	-0.0757946329472911	0.956001668935238	-0.0757946329472912	1.47991938498726E-17	2.18722233571912E-17
53.7	-1.91470295760164E-17	1.13232947206309E-18	0.864499360207178	-0.223779660917767	0.864499360207177	-0.223779660917767	3.31460521490918E-17	1.4830169521344E-17
53.8	-5.63461640171106E-18	1.39723259797469E-17	0.973489444428937	-0.309763440436396	0.973489444428938	-0.309763440436396	-2.99175098315753E-17	7.87438900337079E-18
53.9	4.90168196338383E-18	9.80702726174893E-19	0.825655566913685	-0.479106875930709	0.825655566913685	-0.479106875930709	7.25413213064739E-18	6.42181698064218E-18
54	-1.12740768759593E-18	-1.72549328992782E-17	0.724154950360832	-0.591482136398246	0.724154950360832	-0.591482136398245	-1.12828096259248E-17	-5.39445756141484E-18
54.1	-4.55587173785919E-18	-1.04254987377934E-18	0.65337777635981	-0.666588153643339	0.65337777635981	-0.666588153643339	-1.37507994227964E-17	-7.28306932873756E-18
54.2	-9.12986841646765E-18	2.21431323107992E-17	0.55542074838717	-0.772980637225162	0.55542074838717	-0.772980637225162	6.40463545551744E-18	6.58337669766217E-17
54.3	-3.52797990174144E-17	-2.03325843489771E-17	0.38237237127505	-0.864898240944654	0.38237237127505	-0.864898240944654	-3.94920277620036E-17	1.07659217050194E-17
54.4	-2.34071424156128E-17	8.20904394487477E-18	0.333157635879247	-0.854474352514445	0.333157635879247	-0.854474352514445	-1.27909716940441E-17	3.97765750070967E-17
54.5	1.16566382472839E-18	-3.34134443889673E-17	0.120440979940152	-0.988998075509187	0.120440979940152	-0.988998075509187	-3.1815980518047E-17	-2.91510452044116E-17
54.6	-4.25804360792101E-18	8.9741878310128E-18	-0.00952813178738654	-0.923850310304616	-0.00952813178738663	-0.923850310304616	-3.70832286971607E-18	3.56218909549487E-17
54.7	5.37684278069494E-18	-1.35178704086917E-17	-0.129303544800381	-0.970421734858505	-0.129303544800381	-0.970421734858505	8.2532997561842E-18	-1.08528139555583E-17
54.8	1.27503150783569E-17	-1.92067996384476E-17	-0.296853137478573	-0.930597269875286	-0.296853137478573	-0.930597269875285	9.05497621223349E-18	-4.40120013008931E-18
54.9	-8.19531119023319E-18	3.50409632968803E-18	-0.426011153649892	-0.850575020519671	-0.426011153649892	-0.850575020519671	-1.20802296721286E-17	5.66794395509685E-18
55	-6.7037102779498E-18	1.2002082675497E-18	-0.539058748794508	-0.808051331191544	-0.539058748794509	-0.808051331191544	8.75317937065041E-18	4.52721689075432E-18
55.1	-3.09378747334229E-18	-3.81968942647178E-18	-0.670372578982696	-0.711758017640767	-0.670372578982696	-0.711758017640766	-1.33426065463252E-17	8.61611940827243E-19
55.2	2.41123512013235E-18	-2.12762460340874E-18	-0.7436046366889	-0.605609051046873	-0.7436046366889	-0.605609051046873	5.46843107021324E-18	-1.13043145240993E-18
55.3	5.57490980123751E-18	-7.80610228445143E-18	-0.844583382216633	-0.466066189052705	-0.844583382216633	-0.466066189052704	2.02891215658548E-17	3.43259729661881E-18
55.4	-5.1793929530251E-18	-1.00170573832417E-17	-0.90144240369045	-0.378521634456296	-0.90144240369045	-0.378521634456296	5.45232306084114E-18	-1.81219063476558E-17
55.5	-2.23693832736399E-19	4.56370424508324E-18	-0.966336151597995	-0.210762181304673	-0.966336151597996	-0.210762181304672	-9.86955149593639E-18	-1.10528268062476E-17
55.6	4.09876154242663E-18	2.36124908377369E-18	-0.96168699655256	-0.083820783731534	-0.961686996552559	-0.0838207837315342	-4.02332344113832E-18	4.21713087304394E-18
55.7	3.89932309116655E-18	4.22645579527691E-19	-0.988911111777477	0.054792675658751	-0.988911111777477	0.0547926756587508	-1.85329022276619E-17	1.23329487994759E-17
55.8	9.46890567341421E-18	-2.59449222563948E-18	-0.961053853902207	0.214722761956425	-0.961053853902207	0.214722761956425	1.80682184502591E-19	-7.52091988338059E-18
55.9	-6.60154792699321E-18	7.86858344328071E-18	-0.925497640548102	0.341818207609639	-0.925497640548101	0.341818207609639	-5.30221203759207E-18	-8.79668050713867E-18
56	-1.2487752462716E-17	1.96236624478833E-18	-0.840178216157894	0.476560978908195	-0.840178216157894	0.476560978908195	-5.73213031669685E-19	-1.16571858259152E-17
56.1	-1.07550719383869E-17	2.84170948330937E-19	-0.795628857906942	0.589579041604221	-0.795628857906942	0.589579041604222	1.20294987960572E-17	7.21596231370679E-18
56.2	3.38864146171302E-18	-7.00575203959745E-18	-0.703550358037239	0.712848829804015	-0.703550358037238	0.712848829804015	-9.15701100279678E-18	-3.46860565237301E-17
56.3	-7.25371071907948E-18	-5.87545517173015E-19	-0.542061299928428	0.80264501526072	-0.542061299928429	0.802645015260721	-2.44863527897183E-17	-4.1737679741121E-18
56.4	-2.63927583601853E-18	-6.52823291932637E-18	-0.479354136637747	0.876147517938224	-0.479354136637747	0.876147517938224	5.24087351953067E-18	-2.39014356732742E-17
56.5	8.64773976894267E-19	-8.30009218648936E-18	-0.328394323210571	0.954985543794701	-0.328394323210571	0.954985543794701	8.89939396910526E-18	-4.0175297690614E-17
56.6	3.53534560703036E-18	-1.58784598949788E-17	-0.180173123250592	0.958197692698676	-0.180173123250592	0.958197692698677	-2.52595107733838E-17	-1.69271104273372E-17
56.7	1.16449008406606E-17	-1.43002898616638E-17	-0.0472732241410058	0.990253524968045	-0.0472732241410056	0.990253524968045	3.81666825151604E-17	-4.08788460756679E-17
56.8	2.20570278627159E-18	1.40144955386111E-17	0.0788380252175328	1.0080011232076	0.0788380252175327	1.0080011232076	-6.06568266224688E-18	-3.85398627311806E-17
56.9	1.97794863101831E-17	2.41608603822841E-17	0.228777030907075	0.96116321367737	0.228777030907075	0.96116321367737	1.60982875302107E-18	2.574268212362E-17
57	9.80175820360881E-18	-5.78784379470152E-18	0.385477016158044	0.885146111233612	0.385477016158044	0.885146111233613	3.30408153048917E-18	-3.55136214001228E-18
57.1	-7.30743344341057E-18	6.01657246803015E-18	0.495148192784288	0.852104248364265	0.495148192784288	0.852104248364265	-3.23931803762141E-17	-1.00778201395812E-18
57.2	-4.26324719968626E-18	-1.20764576886707E-17	0.621229289939273	0.798664637967245	0.621229289939273	0.798664637967244	1.81414875963808E-17	-1.37174340164456E-17
57.3	2.10174540212228E-17	-2.45904481908709E-17	0.759271262729273	0.627904171060768	0.759271262729274	0.627904171060769	-1.70993377228669E-17	-8.73334647367488E-18
57.4	-4.31148935856094E-18	-1.01552159486515E-17	0.774616805378752	0.553360702089193	0.774616805378752	0.553360702089194	-3.13156729099208E-17	1.53031104703103E-17
57.5	-3.46759065928748E-18	1.37142902016711E-17	0.903908021842341	0.449189344251785	0.903908021842341	0.449189344251785	-2.48226636033286E-17	1.99164321508929E-17
57.6	8.70168556294641E-18	-6.76665865958092E-18	0.959329252366886	0.290510985899394	0.959329252366885	0.290510985899394	-1.37763827825222E-17	-2.9016500297185E-18
57.7	2.09934640453304E-17	2.11647975888185E-19	0.948031702076378	0.152887897693323	0.948031702076379	0.152887897693323	1.1344428333052E-17	-1.8991928588167E-17
57.8	8.07824746577659E-18	8.38921896714997E-18	0.998383783083402	0.0356898442298906	0.998383783083402	0.0356898442298902	3.95953290701564E-17	4.57026057890448E-18
57.9	-4.05714299718975E-19	-3.42439182120946E-18	1.00765180397009	-0.0921305538551659	1.00765180397009	-0.0921305538551665	1.39483500532577E-17	-1.2505356113951E-17
58	-5.54754648400695E-18	-9.4450146495697E-18	0.94078421286645	-0.290129195055781	0.94078421286645	-0.290129195055781	-8.77839808601814E-18	8.01821372311558E-18
58.1	-1.12155843715809E-17	-8.93729871793321E-18	0.882397338473178	-0.366491165078135	0.882397338473177	-0.366491165078135	-4.27729800784181E-17	-4.60745137197246E-18
58.2	1.67777008300585E-18	-6.95674356534237E-18	0.855567935171305	-0.518196891524705	0.855567935171305	-0.518196891524705	2.03447065438823E-17	-3.04929814103861E-17
58.3	9.32232234872436E-19	1.918341419344E-17	0.75384649117825	-0.646375808379068	0.75384649117825	-0.646375808379068	1.01558034323972E-17	-2.0932977793756E-17
58.4	9.30467119574888E-18	-3.29018487042971E-19	0.656852584847889	-0.680489793444232	0.656852584847889	-0.680489793444232	6.09344130148493E-18	-3.32090272327827E-18
58.5	-2.2525399443631E-17	1.69968449673488E-17	0.591873060272529	-0.823707707558882	0.591873060272529	-0.823707707558881	1.21413246778781E-17	2.50429677586709E-18
58.6	8.82259657979408E-18	-2.50661866492633E-18	0.436989239832823	-0.889293132814929	0.436989239832823	-0.88929313281493	1.4120707178028E-17	-1.2172120802934E-18
58.7	6.37044890736513E-18	4.7891365462444E-18	0.303642842048115	-0.909209398025066	0.303642842048115	-0.909209398025065	-6.05870638142921E-18	1.42770107129688E-18
58.8	-1.01052817724453E-17	4.79031309639655E-18	0.192240989225283	-0.959894860849579	0.192240989225282	-0.959894860849579	-7.55006997602362E-18	9.45938860439829E-18
58.9	-2.82354813143401E-17	-3.40131127537251E-17	0.0739389588818743	-0.997020667244936	0.0739389588818748	-0.997020667244936	-2.1436481957419E-17	-3.19703769186528E-18
59	6.85429121451666E-18	-1.11837446346755E-17	-0.103790173574244	-0.969293478610526	-0.103790173574244	-0.969293478610526	2.22941449295752E-17	-6.09487453659769E-18
59.1	9.83952285153818E-18	-1.61213484583973E-17	-0.204048462474472	-0.950901413718344	-0.204048462474471	-0.950901413718343	1.28339257968364E-17	-3.54603352321368E-17
59.2	7.10603204538644E-18	7.3229981411427E-18	-0.33838888317856	-0.951126292527478	-0.338388883178561	-0.951126292527477	-3.21729016472673E-18	3.04860820566382E-18
59.3	-5.79953133916293E-18	-1.26663080376204E-17	-0.490585444140131	-0.839048350205634	-0.490585444140131	-0.839048350205633	-2.83216386686232E-17	5.2156745310289E-18
59.4	6.79701857076324E-18	1.73745482788788E-17	-0.569087598596906	-0.799254498638992	-0.569087598596905	-0.799254498638992	3.48966806022221E-18	6.50981504920787E-18
59.5	8.59126410514422E-18	2.16409984211175E-18	-0.703271522381638	-0.704526646245498	-0.703271522381639	-0.704526646245498	1.72591579318211E-18	-3.86472782718808E-18
59.6	1.07298664852591E-17	1.53349830191091E-18	-0.779544678217436	-0.582219510593283	-0.779544678217436	-0.582219510593283	2.68319071358674E-18	-2.50694072396681E-18
59.7	-4.21233998719184E-18	4.81387556550438E-19	-0.864913335907992	-0.494519099854374	-0.864913335907992	-0.494519099854374	4.60686697215582E-18	5.28064547075497E-18
59.8	-1.97988091264844E-17	-1.62168937660481E-18	-0.933854617721716	-0.363696116047209	-0.933854617721716	-0.363696116047209	-8.56353725081318E-18	1.59837862449232E-18
59.9	-1.44593257168696E-19	2.54889717678891E-17	-0.963522269705027	-0.243786335812195	-0.963522269705027	-0.243786335812195	2.2197523790847E-18	8.50498949967753E-18
60	1.60502899208538E-18	-9.17115265712403E-18	-0.984145710657078	-0.0854674086854474	-0.984145710657078	-0.085467408685447	9.80703132607526E-18	-1.67581409264985E-17
60.1	-1.21978741298596E-17	1.59385911231299E-17	-0.979557157479065	0.0359747945048443	-0.979557157479066	0.0359747945048444	-1.16359461519264E-17	8.55827811821516E-19
60.2	-1.55353240624017E-17	-3.01004231810825E-17	-0.994639490935035	0.153910348373399	-0.994639490935036	0.153910348373399	1.70572449491224E-17	-7.25185682903437E-18
60.3	8.26711277103654E-18	2.21700304831564E-18	-0.938928460027017	0.324382934430694	-0.938928460027017	0.324382934430694	1.25353339594722E-17	1.73630240919701E-17
60.4	-1.15915703871962E-17	-5.750954857135E-18	-0.885469762535965	0.402740512489167	-0.885469762535966	0.402740512489166	-2.68034019404138E-18	-9.41482733536333E-18
60.5	3.36677441799967E-17	-1.68398935673235E-17	-0.835611386010504	0.551898538697594	-0.835611386010503	0.551898538697594	-5.23429566314134E-18	-6.01691470261543E-18
60.6	-1.052394524101E-17	1.16638408542996E-18	-0.748117960074091	0.653638668977021	-0.748117960074091	0.653638668977021	-3.39311098427215E-18	-4.59483050924717E-19
60.7	1.44112609269306E-17	-2.14423917882248E-18	-0.649112973065518	0.752839704089796	-0.649112973065517	0.752839704089796	1.53410996177718E-18	-7.16016499717132E-18
60.8	-1.83130471783766E-18	-5.14029101363796E-18	-0.544218135524099	0.840961417855976	-0.5442181355241	0.840961417855976	6.56103013660315E-19	-1.72567121664697E-18
60.9	-8.67802888690128E-18	2.06823939927507E-17	-0.434402923660147	0.906564595441827	-0.434402923660147	0.906564595441828	-6.00121479890681E-18	9.32271280439718E-18
61	4.79617301363462E-18	3.77882380804622E-18	-0.294066554238548	0.957413194466192	-0.294066554238548	0.957413194466193	-7.14743644048009E-18	3.56262788472986E-18
61.1	8.60686306874082E-19	-7.74218049838875E-18	-0.161814070095423	0.973629670069089	-0.161814070095423	0.973629670069089	-3.46877865695454E-20	-1.29593804815718E-17
61.2	1.99927934502003E-17	8.48424457434103E-18	-0.0443190197625211	0.995428427583545	-0.044319019762521	0.995428427583545	4.36832033420805E-19	4.79413167880964E-18
61.3	-1.56979321073261E-18	-1.05657306444974E-18	0.0976992893922663	1.00939414354605	0.0976992893922662	1.00939414354605	-8.37093479906813E-18	-9.77273908201165E-19
61.4	-4.54337789972102E-18	1.2633137261235E-17	0.260693199520145	0.961488705313065	0.260693199520145	0.961488705313064	-7.87711591407604E-19	-9.01416803233279E-18
61.5	-5.26065766459088E-18	-1.01075905070192E-18	0.339636739957379	0.921512652897554	0.33963673995738	0.921512652897554	-3.15878124271382E-18	1.17663058345052E-17
61.6	-4.24640400090616E-18	-6.97789902922029E-18	0.496590782719266	0.89794814202347	0.496590782719267	0.89794814202347	-1.11175605703977E-17	-8.05558089470244E-18
61.7	1.13597323175259E-17	1.95881132401747E-17	0.617267496278345	0.802831225248789	0.617267496278344	0.802831225248788	-5.37384357722259E-18	1.67497658011649E-17
61.8	1.92876103320361E-18	-1.89527500391943E-17	0.696995189843637	0.705248154388121	0.696995189843638	0.705248154388121	-6.64603052238144E-18	-1.50027484452479E-17
61.9	2.06565148687175E-18	9.86762691188705E-19	0.794068089124399	0.602161679651169	0.794068089124399	0.602161679651169	3.59426160315308E-18	1.44245744987127E-17
62	-1.18704755576585E-18	5.19300118989554E-18	0.869140982427344	0.514441248357406	0.869140982427344	0.514441248357405	2.17275217895514E-17	1.93623272982179E-17
