# GHZ S RI R 50
50	2.51717398902468E-17	2.82464313455945E-17	0.782042307565355	-0.554759606503467	0.782042307565354	-0.554759606503467	-2.95554248962498E-18	9.94853290182119E-18
50.1	1.78615250438921E-17	9.69150800900022E-18	0.657752722852548	-0.663137248963008	0.657752722852548	-0.663137248963008	-7.52333963947456E-18	5.35825576725156E-18
50.2	-6.24756061629023E-18	2.68396373764492E-17	0.553241572986009	-0.757628337911688	0.553241572986009	-0.757628337911687	4.36267161360274E-18	-1.39432455335191E-18
50.3	-9.45380747455885E-18	1.80900710787687E-17	0.430629810505547	-0.865914565494365	0.430629810505546	-0.865914565494365	-4.65034001746822E-18	-6.14515719543264E-18
50.4	-2.0546166044692E-17	1.18120604343528E-17	0.241031310063918	-0.888356520885736	0.241031310063918	-0.888356520885737	-7.05842186191556E-19	-1.91506492572281E-17
50.5	6.46875407771134E-18	4.43885402660892E-17	0.12917589389788	-0.944919590831097	0.12917589389788	-0.944919590831098	-3.20237733454296E-18	-9.0819000540654E-18
50.6	8.68116710254936E-18	-6.26191671124702E-18	-0.0456080960064397	-0.94139792124461	-0.0456080960064396	-0.94139792124461	8.26462626233246E-18	5.39021279535433E-18
50.7	-1.58587598055778E-18	-1.16859698382533E-17	-0.183855464174766	-0.917619166536224	-0.183855464174767	-0.917619166536224	-2.3413118360624E-18	-5.60816742411843E-18
50.8	-5.47854647968834E-18	-5.93962213086719E-18	-0.351297601389415	-0.899000452243217	-0.351297601389415	-0.899000452243217	-1.33383779451693E-17	4.60793887589431E-18
50.9	1.2366591028083E-18	-1.79282973574725E-17	-0.474189956258179	-0.795300974514152	-0.47418995625818	-0.795300974514152	-1.87551686238255E-18	-2.46821526583457E-17
51	6.57927957903661E-18	1.79003962162866E-17	-0.615643337653227	-0.728051550787838	-0.615643337653227	-0.728051550787838	-3.37216832279174E-18	1.03104242262946E-18
51.1	-2.31161421618755E-17	-6.53026002913563E-18	-0.720918482849417	-0.614310584697041	-0.720918482849417	-0.614310584697041	-7.43560175712027E-18	2.77116095981994E-18
51.2	-1.37841054181721E-17	-1.87259703252245E-17	-0.805051257475883	-0.485390235960115	-0.805051257475884	-0.485390235960115	-4.93363556543717E-18	-6.06309508201227E-18
51.3	-3.71799085710016E-18	-1.63660420379169E-17	-0.878383337900844	-0.3505360368955	-0.878383337900845	-0.3505360368955	1.1747147369858E-18	-1.81395023800214E-17
51.4	5.61721168734024E-18	-2.6226726812186E-18	-0.94049226489934	-0.222363445696219	-0.940492264899341	-0.222363445696219	-9.07274736635473E-19	2.26364599408489E-18
51.5	-3.55855598025478E-18	-2.63541538429476E-18	-0.929794886147066	-0.0366758476663351	-0.929794886147066	-0.0366758476663353	3.82104516297643E-18	1.83824970163753E-17
51.6	-2.38705503942615E-17	-2.49259207203435E-17	-0.947846290251377	0.0820106257675877	-0.947846290251377	0.0820106257675878	-6.3221664990208E-18	3.05353512540801E-19
51.7	-5.73063463131587E-19	4.91557262883222E-18	-0.937453107472265	0.23671099943633	-0.937453107472265	0.23671099943633	-1.47500727369282E-17	-2.52103378775251E-17
51.8	-1.50052497662756E-18	-3.20709098787548E-18	-0.828381839870096	0.377832436351612	-0.828381839870096	0.377832436351612	-3.41317508744269E-17	-1.05885863704288E-17
51.9	-1.66831655282734E-17	1.10111040163291E-17	-0.831533227261905	0.511264678255778	-0.831533227261905	0.511264678255778	2.22100649087174E-17	-7.28950231741534E-18
52	5.17600218145082E-18	-1.22751649230834E-17	-0.67777740039936	0.64453337775604	-0.677777400399359	0.64453337775604	2.01797734728373E-17	-8.48134216108151E-18
52.1	9.1646049241824E-18	6.29011993531045E-18	-0.576318977602972	0.727949930260781	-0.576318977602972	0.727949930260781	7.36096282289435E-18	-7.88059912215718E-18
52.2	4.74803988302322E-18	5.38433124107301E-18	-0.481752852508703	0.815864225640662	-0.481752852508703	0.815864225640661	-2.21983461634353E-17	3.7141166312032E-17
52.3	9.26014495611903E-18	-5.236856233586E-18	-0.35117593797704	0.88228761321921	-0.35117593797704	0.88228761321921	3.19730550607295E-17	-4.2082962198904E-18
52.4	4.49578603418466E-18	-2.15974280231038E-18	-0.192391115869012	0.958158954766529	-0.192391115869013	0.95815895476653	1.08069189439574E-17	1.70943209200465E-17
52.5	3.06317472480656E-18	-2.04175122813338E-17	-0.0673952872095823	0.903470523098491	-0.0673952872095826	0.903470523098491	-5.03399174807391E-17	-3.53348549073132E-19
52.6	2.56096551417343E-18	4.06116634213447E-17	0.0704826765882817	0.974324451595493	0.0704826765882823	0.974324451595493	3.7469269330775E-17	4.58735512468175E-18
52.7	1.06370084785248E-17	3.96356239057042E-18	0.282993964746997	0.939210016166101	0.282993964746997	0.939210016166101	-1.76662250932631E-17	2.77290457027195E-17
52.8	-5.70344365603469E-18	-1.1464846563688E-17	0.309186407118167	0.781945914465188	0.309186407118167	0.781945914465188	-2.2564429551987E-17	-1.33115403963435E-17
52.9	1.94803111282268E-17	2.42769971899995E-17	0.593612943534373	0.872015947672967	0.593612943534374	0.872015947672967	-1.85089572284906E-17	2.59034747942539E-17
53	-1.07370211523357E-17	7.26483633335442E-18	0.599399119220325	0.671787058958163	0.599399119220325	0.671787058958163	5.48898889266694E-18	2.62790605345658E-17
53.1	-4.34799979548405E-18	1.70775729425341E-17	0.719836802139402	0.636480227659446	0.719836802139402	0.636480227659447	1.41401836975114E-18	-1.46983639386189E-17
53.2	-2.56440733872382E-18	2.46667607951562E-18	0.863188707933853	0.499860889652521	0.863188707933853	0.499860889652522	-2.07622170206133E-17	1.96514583537304E-18
53.3	-1.46755353952234E-17	-2.86312502060492E-18	0.875340579481355	0.375188811745602	0.875340579481355	0.375188811745601	-1.76864785992752E-17	-4.88434453299645E-18
53.4	5.24812964180452E-18	1.47993621884969E-17	0.90634261071011	0.173389832558027	0.90634261071011	0.173389832558026	7.16620312132354E-18	1.39717400042884E-17
53.5	-2.00361190691237E-17	-1.04431679225675E-17	0.980115246770803	0.124987837893159	0.980115246770803	0.12498783789316	-1.58164243228191E-17	2.73158410627624E-19
53.6	-1.73454130876868E-17	-3.59453077203389E-18	0.969931632373597	-0.085656323318736	0.969931632373597	-0.085656323318736	-1.14449275135558E-17	-7.98599531041009E-18
53.7	4.35963656784252E-18	7.39245108226352E-18	0.876012736405707	-0.239071807142472	0.876012736405707	-0.239071807142472	2.62960986308952E-17	-2.22322488037896E-18
53.8	-8.0870984746176E-19	-7.40131013197139E-18	0.981396740014694	-0.318691557848385	0.981396740014695	-0.318691557848386	-5.42557068617198E-18	-7.47297408214656E-18
53.9	4.42626005379805E-18	-2.16395553216089E-17	0.8322069782648	-0.493511407064814	0.832206978264799	-0.493511407064814	-3.00561231528978E-17	-1.27285063880257E-17
54	3.45855997369471E-19	-1.06287746310604E-17	0.727626200091465	-0.607412106526586	0.727626200091465	-0.607412106526586	2.31421734470892E-17	1.21214433422671E-17
54.1	4.79117353936657E-18	3.66275253183602E-18	0.653009076692007	-0.681051623881924	0.653009076692007	-0.681051623881924	1.58840493932627E-17	1.01518722035898E-17
54.2	7.3967879830763E-18	1.60871088426205E-18	0.553493023356897	-0.786596948336455	0.553493023356897	-0.786596948336454	-7.99626445409321E-18	-5.65594171876641E-18
54.3	-1.38810843066147E-17	-2.85480004376951E-17	0.378632515758965	-0.880364965602073	0.378632515758964	-0.880364965602073	-1.73185801212578E-17	-5.53802947173809E-18
54.4	2.04429401887939E-17	8.07860972835421E-18	0.324959332172299	-0.864158141194925	0.324959332172299	-0.864158141194925	-1.52618436462709E-18	-7.2338700930667E-18
54.5	-9.73755557569152E-18	-4.38988590035071E-17	0.114610352394559	-1.00178448065862	0.11461035239456	-1.00178448065862	-1.889947008084E-17	-4.38178519811448E-18
54.6	2.45425513221845E-17	-1.01686223981453E-17	-0.0205563794708376	-0.933715799742362	-0.0205563794708376	-0.933715799742362	2.76557385457023E-17	-2.54515282088181E-17
54.7	6.77945979632959E-18	-5.48502667940728E-18	-0.138656716525457	-0.977832933051581	-0.138656716525457	-0.977832933051581	2.65209777223056E-18	-6.0519474827465E-18
54.8	1.07639800318725E-17	4.65410207843026E-18	-0.307805089426817	-0.937269564443769	-0.307805089426817	-0.937269564443769	4.28734870990326E-18	1.15187325162364E-17
54.9	-7.149734932242E-18	2.07046024945706E-18	-0.438873262077039	-0.854709544335783	-0.438873262077039	-0.854709544335784	-1.32107912259837E-17	-3.56085703457178E-18
55	2.44613362298356E-18	-6.18864933042942E-18	-0.550679485827188	-0.80979806325148	-0.550679485827188	-0.809798063251479	1.38694745387383E-17	-7.93451706007982E-18
55.1	2.54084273559485E-18	-1.55146051576284E-19	-0.682414299607291	-0.71227012262361	-0.682414299607291	-0.71227012262361	9.72094422376484E-18	9.7084375141848E-18
55.2	2.04736796958618E-18	-3.78609720405142E-18	-0.755060311095138	-0.602938004867969	-0.755060311095138	-0.60293800486797	3.23197912231665E-18	-4.05486897409578E-18
55.3	-8.80619747022156E-18	4.5527432950216E-18	-0.856513656469935	-0.462289493815785	-0.856513656469936	-0.462289493815786	-9.35941957080185E-18	2.21288840232114E-18
55.4	7.19374860100943E-18	9.44606939163979E-18	-0.910340932398623	-0.373158043709833	-0.910340932398622	-0.373158043709833	-1.7827128460041E-17	-2.24358506604799E-18
55.5	1.54005688946834E-17	-7.71766001772045E-19	-0.975664741765801	-0.204681935531086	-0.975664741765801	-0.204681935531086	2.99350729836706E-17	4.29774483402087E-19
55.6	-2.02012088696134E-18	-6.94592693855612E-18	-0.968633572965796	-0.0753702145165362	-0.968633572965795	-0.0753702145165363	-2.7289215646775E-18	-3.74208500923996E-18
55.7	-1.70810734954682E-18	2.17039164844612E-19	-0.994291369279307	0.0629164468843366	-0.994291369279307	0.0629164468843368	-2.56145587508998E-17	6.72606196297398E-18
55.8	2.27336861735127E-18	1.73220983754025E-18	-0.965520289571265	0.224053925228536	-0.965520289571265	0.224053925228537	1.67728544588094E-17	-6.34558241262248E-19
55.9	1.416049897979E-17	5.71226518535106E-18	-0.92777824853162	0.351189713821332	-0.927778248531621	0.351189713821332	2.44989591302903E-17	-1.4814450136165E-17
56	-6.51388549274973E-18	1.13693878514558E-17	-0.840701946724643	0.487242082316888	-0.840701946724644	0.487242082316888	-1.9511744717393E-17	7.69784932157005E-18
56.1	-1.09048098770088E-17	2.22384796447105E-18	-0.794452872422442	0.598376486874881	-0.794452872422442	0.598376486874882	1.83881419840336E-17	-1.85970316532959E-18
56.2	-1.53289067557237E-18	-1.57678780241447E-17	-0.701555923907778	0.721175474377105	-0.701555923907777	0.721175474377105	-1.42364804346511E-17	-6.63402077373965E-18
56.3	-1.37555711275031E-17	-1.02736146477337E-17	-0.538006690032307	0.812664328118988	-0.538006690032306	0.812664328118988	-6.89501936653581E-18	-7.81437747841209E-18
56.4	4.35773796826783E-18	-2.88068481352888E-18	-0.474468404131489	0.882413836079412	-0.47446840413149	0.882413836079413	8.76442360050168E-18	-1.83177586482986E-17
56.5	-1.0584858815374E-17	1.10054992073471E-17	-0.323250511783663	0.961240237054263	-0.323250511783663	0.961240237054263	-3.23409422757673E-18	4.26477551171978E-18
56.6	-1.21774784179677E-17	-5.39041659011028E-18	-0.172465474583185	0.963323224996551	-0.172465474583185	0.963323224996551	-1.59874895720307E-17	-9.45697431764165E-18
56.7	1.57322639037992E-18	1.84722555052881E-18	-0.0397374359717141	0.993708817186696	-0.0397374359717141	0.993708817186696	7.72913237182515E-18	1.09463537230984E-17
56.8	6.46366167000178E-18	6.12042510169178E-18	0.0855851496761174	1.00943551922946	0.0855851496761172	1.00943551922946	5.51246853246498E-18	2.43439026921446E-17
56.9	-1.35900403350989E-17	5.20701384037134E-18	0.236786622074313	0.961337210902585	0.236786622074313	0.961337210902584	-1.59649980853359E-18	3.53989260193192E-17
57	1.47747430746455E-17	-9.16724598660077E-18	0.395053622589147	0.884559154668776	0.395053622589147	0.884559154668776	3.41073606227708E-17	-8.78396026647607E-18
57.1	-2.26637347208017E-18	-9.92285122423004E-18	0.502754471928302	0.849568209386044	0.502754471928301	0.849568209386044	2.20838469341159E-18	-1.80732176845185E-17
57.2	-2.25663825889741E-17	-1.27433418909983E-17	0.627048529863495	0.795524701884065	0.627048529863495	0.795524701884064	1.63399496565355E-17	-7.05795421657145E-18
57.3	-1.08171114205328E-17	2.2541396446078E-18	0.768065279044599	0.624510237441801	0.7680652790446	0.624510237441801	-1.40080104365292E-17	-2.13910448987872E-17
57.4	5.67822037511394E-18	2.95008506132078E-18	0.780033628535675	0.545823416130753	0.780033628535674	0.545823416130753	1.2086572276381E-17	-3.57088223673446E-18
57.5	-1.8410829630745E-17	8.66043180938249E-19	0.907924395593854	0.443699571453382	0.907924395593855	0.443699571453382	3.33953587032451E-18	-1.47810432570012E-18
57.6	1.92722917072176E-18	7.49759590396226E-18	0.963415202003483	0.284234066660507	0.963415202003483	0.284234066660506	1.61509769194686E-17	-2.49894851263618E-17
57.7	-1.54935973670902E-17	-1.45131330475162E-18	0.950397970614353	0.144073893874967	0.950397970614353	0.144073893874967	-1.08480704426498E-17	2.50774421800068E-18
57.8	2.05662786952326E-17	1.93907204610165E-17	0.998653923304515	0.0286323784816549	0.998653923304515	0.0286323784816545	3.16535946286581E-17	2.26285031600956E-17
57.9	-4.56316123453733E-18	-8.24739562989864E-18	1.0061141606575	-0.0982879337899753	1.0061141606575	-0.0982879337899754	-2.76851194468479E-18	-4.87463853141163E-18
58	1.17094631798398E-18	-1.42601412320314E-17	0.940322282033185	-0.298464538087551	0.940322282033185	-0.298464538087551	-4.46384760334946E-18	-3.55993867042364E-17
58.1	-1.02629408702095E-17	-9.84404683107674E-18	0.877891459833838	-0.374393449504966	0.877891459833838	-0.374393449504966	-1.73681659996464E-17	-1.22803324109211E-17
58.2	1.16165414873803E-17	3.92403596489229E-18	0.851532209370667	-0.523918044432385	0.851532209370667	-0.523918044432386	-1.83037371004634E-17	1.98953189084927E-17
58.3	-1.93119487103842E-17	-9.55690852871771E-19	0.749246535459823	-0.652312943239629	0.749246535459823	-0.652312943239629	-6.64186947497815E-18	4.26213854854428E-18
58.4	-3.24901831821439E-18	-2.9110201039235E-18	0.648220556748982	-0.684763146214658	0.648220556748982	-0.684763146214658	1.35220882355194E-17	-6.9205344042924E-18
58.5	2.85009126111757E-18	2.76736763776338E-18	0.585663446043889	-0.825307340913588	0.585663446043889	-0.825307340913588	-5.07600654037121E-18	1.77735829736615E-17
58.6	-5.84385142442463E-18	3.56490986491743E-18	0.42976570845491	-0.891182435001408	0.42976570845491	-0.891182435001408	5.00088933324787E-18	1.44667555089344E-17
58.7	2.2986061464519E-18	-1.39983225305546E-17	0.294603497707398	-0.909662994264761	0.294603497707398	-0.909662994264761	4.85228201462495E-18	5.46889728101099E-18
58.8	-1.84221274102934E-18	-4.2915055889687E-18	0.184214375581114	-0.958069364348287	0.184214375581114	-0.958069364348287	-7.26806120164821E-18	2.37668477524737E-17
58.9	-6.58513079806942E-19	-7.89677062071598E-18	0.0673763283578285	-0.993173767093572	0.0673763283578284	-0.993173767093573	2.39973487801332E-18	-4.87757556976479E-18
59	-1.2305180568339E-17	4.98088495424712E-18	-0.111370443576114	-0.965762269144965	-0.111370443576114	-0.965762269144966	-1.23879667176846E-17	-2.5763250705597E-18
59.1	8.34095206839344E-18	1.49276645070948E-17	-0.210344224953174	-0.94454838977389	-0.210344224953174	-0.94454838977389	1.59709785547802E-18	1.49399314202669E-18
59.2	-1.18441226296046E-17	-1.48966465272548E-17	-0.341869307136479	-0.944283843896812	-0.341869307136479	-0.944283843896812	4.06180567623597E-19	-1.04443130689671E-17
59.3	1.95009956184637E-18	5.79777055024458E-18	-0.495718746402461	-0.832084784852485	-0.495718746402461	-0.832084784852485	8.36080723809951E-18	-5.18882894421444E-18
59.4	-6.58647494903138E-18	5.63631332521416E-18	-0.570943836633261	-0.79026719402753	-0.570943836633261	-0.790267194027529	-1.08430426754896E-17	-1.05342554125285E-17
59.5	-1.62004988476241E-17	-2.7974760531783E-18	-0.704291703437288	-0.696464091929541	-0.704291703437287	-0.696464091929541	1.72796508027268E-18	2.32097085033518E-18
59.6	-3.27567986406735E-18	-1.04670842122992E-17	-0.779873493783803	-0.573109403145593	-0.779873493783804	-0.573109403145593	5.1373233334763E-18	9.48214251995824E-20
59.7	-3.79190421923892E-18	-3.74698212914822E-17	-0.862627053418296	-0.486201108122686	-0.862627053418297	-0.486201108122687	-4.09745537115442E-18	-3.48458668146204E-18
59.8	1.68454298061807E-17	7.00821893095168E-18	-0.930548655675644	-0.356075985058852	-0.930548655675644	-0.356075985058852	-9.21860555910102E-18	-1.32658152275941E-18
59.9	-4.51669859524424E-18	8.60159125122326E-18	-0.958213697757328	-0.236282000672183	-0.958213697757328	-0.236282000672184	-2.31035356790472E-18	1.16685457628253E-17
60	-9.47877737995449E-18	-2.52381581960692E-17	-0.978606325268473	-0.0783933867176113	-0.978606325268473	-0.0783933867176116	5.27066024728234E-18	-1.69323960821714E-17
60.1	9.85437114504539E-18	9.03127681143121E-18	-0.972057149005119	0.0423142897043945	-0.972057149005119	0.042314289704395	1.22345164550291E-17	-1.47929371467305E-18
60.2	6.56863958712378E-18	-2.15451713476281E-18	-0.985622336932371	0.157514004327147	-0.985622336932371	0.157514004327147	2.79561263138393E-17	-1.73543612837923E-17
60.3	-8.21817762797221E-18	-1.29005609467832E-17	-0.930637070982747	0.328084845288918	-0.930637070982746	0.328084845288919	3.88298701043409E-18	-2.58420391674021E-18
60.4	-8.27345447034263E-18	1.4096901231691E-17	-0.874325150143336	0.404598157165733	-0.874325150143336	0.404598157165733	1.06582221995078E-17	1.1292508817182E-18
60.5	1.72280044152752E-17	-5.82522925721659E-18	-0.825739673077972	0.551697689499939	-0.825739673077972	0.55169768949994	-6.77939537455509E-18	-9.56874979362017E-19
60.6	-5.60190159785275E-18	-2.31482438102346E-17	-0.737823714080471	0.651964453818516	-0.737823714080471	0.651964453818515	2.06997932712368E-19	-1.66892484125832E-18
60.7	-4.9632091289918E-19	1.28671388631054E-17	-0.639137472021678	0.749670432417449	-0.639137472021678	0.749670432417449	-4.1558984120786E-18	6.65739378115993E-19
60.8	8.07114001464618E-18	1.08641614756395E-17	-0.535028643738733	0.836072115079539	-0.535028643738733	0.836072115079539	-1.64150794366583E-17	8.27926601628922E-18
60.9	2.65126465378411E-18	-1.43950318933769E-17	-0.425988510255858	0.899720156805313	-0.425988510255858	0.899720156805313	-4.88764025255942E-19	-7.37772433239911E-18
61	-4.50971677424354E-18	-5.55490856787499E-18	-0.286531998520339	0.949795225194659	-0.286531998520339	0.949795225194659	-1.08217225621004E-17	5.11222757238497E-18
61.1	8.36305708222154E-18	1.43016676048297E-17	-0.154738017540334	0.964588182917888	-0.154738017540334	0.964588182917888	-5.65975701675208E-19	6.35000163148734E-18
61.2	-9.24271320314015E-18	3.11545940406641E-17	-0.0391920899037387	0.984572186718564	-0.0391920899037386	0.984572186718565	5.44120985688334E-18	5.92514370413856E-18
61.3	-1.01559694674931E-17	-1.70867288757019E-17	0.100471045984619	0.998160659946963	0.100471045984619	0.998160659946963	5.39357070680099E-18	-6.33034989999718E-18
61.4	-3.89451600655999E-18	-1.1443849526962E-17	0.263215849613434	0.950733100892306	0.263215849613434	0.950733100892307	-2.24370895712276E-17	-3.76913859636582E-18
61.5	1.74380274258455E-17	-9.77094718275164E-18	0.33979552716784	0.908069416473397	0.339795527167839	0.908069416473397	-2.41348866751901E-18	-1.51937694709771E-17
61.6	6.86664547516667E-18	1.26534675423382E-17	0.493674829329302	0.886372467963372	0.493674829329301	0.886372467963372	-1.93422781334439E-18	1.42764061802383E-18
61.7	-4.1869018103552E-18	-4.67181186077469E-18	0.613529965556254	0.791572274122439	0.613529965556253	0.791572274122439	-2.55742355318089E-17	-8.83274668044467E-18
61.8	-3.31687717364302E-18	-4.16743047323289E-18	0.691602367918794	0.693335047042588	0.691602367918794	0.693335047042588	7.50720267789739E-18	-8.2994777167053E-18
61.9	4.61038270978259E-18	-2.21130794761437E-18	0.787061418633838	0.591353292031511	0.787061418633838	0.591353292031512	2.7789397753368E-18	2.03906895218238E-18
62	-1.95920359775879E-17	-6.83899187959633E-18	0.859335956300617	0.504936844680579	0.859335956300617	0.50493684468058	-2.78396153082194E-17	-1.01348235725159E-17
