# GHZ S RI R 50
50	4.54238198990993E-17	2.62713671934829E-17	0.766912690816104	-0.536644695542647	0.766912690816104	-0.536644695542647	-1.79986652388457E-17	1.12318955442404E-17
50.1	3.11117623896861E-17	1.16186795909367E-17	0.645313913091923	-0.643328261278239	0.645313913091923	-0.643328261278239	-7.89743632274838E-18	-7.94626313578905E-18
50.2	-7.091149452798E-18	-8.65359256444986E-19	0.543917292723519	-0.735127432607903	0.543917292723519	-0.735127432607903	-4.97657083395557E-18	-2.12330535261364E-17
50.3	4.52319684972938E-17	-6.15326059724747E-18	0.426220800120228	-0.84123143908062	0.426220800120228	-0.84123143908062	-1.02191746347076E-17	2.51938638182279E-17
50.4	-5.81065573586477E-18	1.2398187135656E-17	0.239570375635328	-0.864827554578839	0.239570375635328	-0.86482755457884	-5.86906130644756E-18	-1.3297308500024E-17
50.5	5.81791899834161E-18	1.73215032917599E-17	0.132701512642039	-0.91941083393309	0.132701512642039	-0.91941083393309	1.56451610114632E-18	-2.66003533746664E-18
50.6	-2.07049978644857E-17	-1.94356921168673E-18	-0.03814342317085	-0.917334498340622	-0.0381434231708501	-0.917334498340622	-9.71175305714717E-19	-1.16580031893999E-17
50.7	-2.00161026572175E-18	2.74009441781839E-18	-0.172576594798797	-0.894207254914904	-0.172576594798797	-0.894207254914904	1.49666726215926E-17	6.4002337801088E-18
50.8	1.17166021399932E-17	3.92148555146066E-18	-0.334917875157091	-0.878212972380397	-0.33491787515709	-0.878212972380397	3.30713673253084E-18	-8.97595971200339E-19
50.9	-4.48566072186846E-18	-1.2172809847752E-17	-0.455956863005004	-0.776692852532265	-0.455956863005003	-0.776692852532266	-1.80066099300768E-18	1.18868116108928E-17
51	-5.19263534058711E-18	-4.75695653917301E-18	-0.593283680999155	-0.713185503089158	-0.593283680999155	-0.713185503089158	-2.66425292653203E-18	-2.01147902565076E-18
51.1	4.57849921859772E-19	-7.13005631031459E-18	-0.696318636459463	-0.603015838785988	-0.696318636459463	-0.603015838785987	-4.58067358595407E-18	-8.25880524197859E-19
51.2	-1.45703613188788E-17	9.0103254873326E-19	-0.778825202408863	-0.477976512390711	-0.778825202408862	-0.477976512390711	-2.6236453947588E-18	-5.16614742664648E-18
51.3	6.49394758796857E-18	1.75220461896213E-18	-0.850849373547888	-0.347725760001202	-0.850849373547888	-0.347725760001202	-5.88433581623749E-20	-6.21771354416437E-18
51.4	2.09857494358148E-17	-6.25237605408476E-18	-0.911576574971541	-0.224765889993573	-0.911576574971542	-0.224765889993573	1.2634229173068E-17	-1.4091630869565E-17
51.5	-6.58472694948897E-18	1.87082859137548E-18	-0.903034800974324	-0.0425054052825348	-0.903034800974324	-0.042505405282535	-1.68580319308458E-17	1.26499618046755E-17
51.6	-1.90149332989759E-19	6.01391737782108E-18	-0.920462762043463	0.0708957909988186	-0.920462762043463	0.0708957909988184	1.22798890968982E-17	-4.06816861921766E-19
51.7	-7.06973562961379E-18	9.6364502139763E-18	-0.912009534892219	0.220381328765835	-0.91200953489222	0.220381328765835	3.49944617229663E-19	1.69856938927966E-17
51.8	6.01820545619086E-18	-3.68344910540799E-18	-0.805874591206368	0.360215131239748	-0.805874591206368	0.360215131239748	1.082675054667E-17	9.69111656680934E-18
51.9	1.7270247697006E-17	-2.65474844580586E-18	-0.811627731589605	0.486414076575955	-0.811627731589605	0.486414076575955	-6.02126522363138E-18	-8.50286585285496E-18
52	-1.5574404420052E-18	-8.69172189901205E-18	-0.662834277056179	0.619429947334017	-0.662834277056179	0.619429947334018	-1.65509262263836E-17	-1.97251280836112E-17
52.1	-4.17218972977981E-18	-2.68564067375722E-18	-0.56463656191714	0.700144188355337	-0.56463656191714	0.700144188355338	6.56052059233251E-18	-2.85811513673E-18
52.2	-4.6734691875574E-18	1.15127197382853E-17	-0.474644444929516	0.784804313307341	-0.474644444929515	0.784804313307341	-1.05084443541981E-17	5.09799179404671E-18
52.3	1.14589618962524E-17	1.13232337229665E-17	-0.349088800824582	0.849926985890955	-0.349088800824582	0.849926985890955	3.63616219075042E-17	1.94596013954614E-17
52.4	-1.26223069535629E-17	-6.05835447061981E-18	-0.197243348583577	0.926027078450738	-0.197243348583576	0.926027078450737	-2.97150530065123E-17	2.07971831861608E-17
52.5	-1.9385791483815E-17	2.69869733587575E-17	-0.0734656333237116	0.871444119979271	-0.0734656333237114	0.871444119979271	-4.01047481352347E-18	2.75793137433143E-17
52.6	2.60613991313697E-17	3.13612854600186E-18	0.0557032240394163	0.94242123855466	0.0557032240394164	0.942421238554659	-6.52377900430519E-17	-2.49565674804019E-17
52.7	-1.50083878075443E-17	-2.38649479603036E-17	0.263225778345947	0.913004394592795	0.263225778345947	0.913004394592795	-1.75775639521518E-17	7.353930987218E-18
52.8	-1.76110870266415E-17	1.60173677469242E-17	0.291584014171745	0.75395927829879	0.291584014171744	0.75395927829879	-3.02720530792113E-17	3.78144007235185E-18
52.9	1.91632711695206E-17	8.2465762064775E-18	0.56231235494246	0.854149571766092	0.562312354942459	0.854149571766092	-3.0964503995756E-17	-1.47526889447969E-18
53	-1.8833876779158E-17	2.75180461918158E-18	0.571614197814775	0.653326508912398	0.571614197814776	0.653326508912398	6.67563346725282E-18	2.89219984623333E-17
53.1	-1.00180425123044E-17	4.69677733012081E-18	0.685495138906154	0.623043752640258	0.685495138906154	0.623043752640258	-9.03243041626571E-18	-6.31207796034822E-19
53.2	1.19868057496465E-17	1.55213118701799E-17	0.827230263061956	0.494931362396267	0.827230263061955	0.494931362396267	1.76343867774582E-17	-1.22944837714492E-18
53.3	-3.75466868144822E-17	-8.91265359727604E-18	0.838436966044415	0.372820584830488	0.838436966044415	0.372820584830489	-2.59360812351979E-18	1.02081201573885E-17
53.4	3.43699787466291E-17	-2.13210591736066E-17	0.872684168756585	0.176564970647718	0.872684168756585	0.176564970647718	-4.21283914576711E-17	-4.16563934109358E-17
53.5	-5.49272287601029E-18	1.31048681930603E-17	0.941361678550885	0.135653326500874	0.941361678550885	0.135653326500874	2.97917188289698E-17	3.49397647469163E-17
53.6	-9.46269688352302E-18	9.14049503030178E-18	0.936393260608274	-0.0693401615130052	0.936393260608274	-0.0693401615130053	2.04381147580754E-17	-1.850626007134E-17
53.7	5.76962075802177E-18	1.80650614510098E-17	0.846117025284352	-0.221321384446251	0.846117025284353	-0.221321384446251	2.06339248693113E-17	2.8696635935751E-18
53.8	1.414938064589E-17	-9.5906038059851E-18	0.949849561700934	-0.288330617188351	0.949849561700934	-0.288330617188351	3.514530373259E-20	2.46519594780044E-17
53.9	9.29175923584564E-18	1.24195564471694E-17	0.808058871642393	-0.463115501840946	0.808058871642393	-0.463115501840946	-2.9639920311945E-18	-3.66161059844744E-17
54	-4.27120371140269E-18	2.78585642352404E-18	0.708060444310426	-0.574543914593657	0.708060444310426	-0.574543914593657	5.57171284704809E-18	8.54240742280538E-18
54.1	8.49372859825005E-18	-3.65608918062215E-18	0.636599257698113	-0.644080465642287	0.636599257698113	-0.644080465642287	-1.84764855726773E-17	1.63861233577412E-18
54.2	-7.35618425181252E-18	1.09186059023933E-17	0.543539433057033	-0.746383364096959	0.543539433057033	-0.74638336409696	-1.08062302823347E-17	5.0386807025883E-18
54.3	-9.82106966550346E-18	-1.09916813747726E-17	0.376538602185543	-0.841384240235036	0.376538602185544	-0.841384240235036	1.09916813747726E-18	-9.82106966550346E-19
54.4	9.65449953161402E-18	1.73658906373244E-17	0.324236739696279	-0.820823784859923	0.324236739696279	-0.820823784859923	2.73671071240437E-17	1.82150996507952E-17
54.5	7.88689677639028E-19	2.21963022280528E-17	0.127207312038263	-0.961842463846734	0.127207312038263	-0.961842463846734	-1.07951472662376E-17	-1.64348307531247E-17
54.6	1.57209519773073E-17	-1.97093547128752E-17	-0.00643577102476438	-0.895611461379122	-0.0064357710247643	-0.895611461379123	1.22424910959723E-17	-1.96593604134406E-17
54.7	-1.54718143167636E-17	-5.76071147592058E-18	-0.115562904148595	-0.940039161577562	-0.115562904148595	-0.940039161577562	-2.26139223025127E-18	-9.05857514503702E-18
54.8	1.27921890768936E-17	6.33079459144272E-18	-0.279273887308985	-0.904656601905351	-0.279273887308985	-0.904656601905351	6.48285381120068E-18	1.22358233675632E-18
54.9	1.13991880657513E-17	-5.39050142770764E-18	-0.407092336022048	-0.826473997847425	-0.407092336022048	-0.826473997847425	7.90123151699818E-18	4.21730035187217E-18
55	2.36966740060637E-18	-7.29668240619656E-18	-0.512991434258343	-0.785462520496052	-0.512991434258344	-0.785462520496052	5.28498907800607E-18	3.15390106890536E-18
55.1	4.18497834031751E-19	-5.21809098000345E-18	-0.641345317164372	-0.694841405775459	-0.641345317164372	-0.694841405775459	2.4799871646326E-19	-3.09220206222427E-18
55.2	-1.31642769605534E-17	2.16553514668085E-19	-0.711764083356234	-0.59018367473691	-0.711764083356234	-0.59018367473691	1.28850111097755E-18	1.48487510232841E-17
55.3	5.78516269130111E-18	-7.91717669393545E-18	-0.812534098220524	-0.457613851375383	-0.812534098220523	-0.457613851375383	1.48753625841251E-17	-1.96963663605505E-19
55.4	6.09352655867558E-18	-3.60158809928343E-18	-0.863168378215324	-0.374294932898462	-0.863168378215324	-0.374294932898462	3.38719632385204E-18	1.26045789474108E-17
55.5	1.05351583378531E-17	-7.18360078218935E-18	-0.930434698830224	-0.214519096831011	-0.930434698830224	-0.214519096831011	1.06830000827337E-17	6.96183816486852E-18
55.6	6.73378464474187E-18	7.4238252761098E-18	-0.9242463128891	-0.0900879633554855	-0.924246312889098	-0.0900879633554856	-1.75665444288311E-17	1.17889807258874E-17
55.7	-7.19341089379631E-18	-5.71024486468726E-18	-0.951601616907926	0.0400601685912123	-0.951601616907926	0.0400601685912125	-1.77361401100773E-18	-9.32586173157093E-18
55.8	1.27094472985269E-19	-2.61033438718038E-18	-0.92746943921846	0.195258958213671	-0.92746943921846	0.195258958213671	8.82494396959828E-19	-3.79459857506848E-18
55.9	1.09575576172858E-18	1.14597469074728E-19	-0.893279226908959	0.316585917635822	-0.89327922690896	0.316585917635822	5.90497941491379E-18	-8.79823536385664E-18
56	-5.21183032842898E-18	-8.5591553753984E-18	-0.812011138231638	0.449207648170231	-0.812011138231637	0.449207648170231	6.44019308330571E-19	-6.64961499825074E-18
56.1	2.46503717672819E-18	2.47690220058969E-18	-0.770655033782008	0.554052213956862	-0.770655033782008	0.554052213956862	1.18274324387507E-17	1.38659063137577E-17
56.2	-6.94347554026358E-18	-1.45304208302586E-17	-0.685230297861309	0.673093276312843	-0.68523029786131	0.673093276312843	2.91466376271482E-17	-1.86875267072979E-17
56.3	-1.30284588955644E-17	-4.71801736923192E-18	-0.529254158783355	0.765686584580194	-0.529254158783355	0.765686584580194	-4.47712528708289E-17	-3.77117736056606E-17
56.4	3.15733229936771E-18	9.16895080432974E-18	-0.471956636597923	0.83027859664923	-0.471956636597923	0.830278596649229	-2.52222741954072E-18	2.35993641034487E-17
56.5	-4.3717910529971E-18	2.70011277164597E-18	-0.329942958109966	0.909852550379949	-0.329942958109966	0.909852550379949	1.35136554066695E-17	9.16804745055184E-18
56.6	-5.37691558571733E-18	3.05564433082357E-18	-0.184485108617587	0.914026288059715	-0.184485108617587	0.914026288059715	2.23128530172454E-17	-1.02473209446479E-17
56.7	1.72024331580595E-17	-5.66004329782672E-18	-0.0599100509643425	0.945552659201452	-0.0599100509643424	0.945552659201452	-8.14432658207916E-18	1.4661225891572E-17
56.8	1.51648619507697E-17	-9.12418178530972E-18	0.0572559433890358	0.962854743426301	0.0572559433890357	0.962854743426301	-1.03985144514279E-17	-2.00969027747794E-18
56.9	1.31630502342778E-17	-2.72417326375806E-18	0.203352333524898	0.919801766157261	0.203352333524898	0.91980176615726	1.56117668477562E-17	8.0205535960802E-18
57	-2.06009785092114E-17	-3.30196566491814E-20	0.357582057051149	0.849960745732486	0.357582057051149	0.849960745732486	-1.84478571062362E-19	-1.66870651394742E-17
57.1	1.27311320932643E-17	1.13980423850267E-17	0.458407483251085	0.819096803011249	0.458407483251085	0.819096803011249	5.38787955916581E-18	-1.46257422564571E-17
57.2	-3.11774920507482E-18	-9.31651879352444E-18	0.576429548315546	0.771782933685054	0.576429548315546	0.771782933685054	-3.71667138395247E-18	-4.45762796313161E-18
57.3	-6.40437784263636E-18	1.3560352038418E-17	0.718774737264216	0.611424995849811	0.718774737264215	0.611424995849811	-1.75152952707789E-17	-1.84938604937127E-18
57.4	5.2272873398532E-18	-4.59519648041901E-18	0.727245943025526	0.53464996312504	0.727245943025526	0.534649963125041	-1.89501942312238E-17	-3.22070796847008E-17
57.5	1.45724077852433E-17	-1.40846364227013E-17	0.851872873894144	0.444075197987657	0.851872873894144	0.444075197987657	2.89920409507195E-19	-2.75424185921124E-17
57.6	5.38457085017916E-18	-2.7412384676003E-20	0.909349487908418	0.293148390081703	0.909349487908417	0.293148390081703	2.82167380655305E-19	-1.74782905328384E-18
57.7	2.8109415374464E-18	-2.04694283578452E-17	0.89833126199163	0.157704415861296	0.89833126199163	0.157704415861296	-3.21526873121923E-18	-8.07157142526763E-18
57.8	3.70398874446495E-18	1.97806797386718E-18	0.9467173475641	0.0521214623598741	0.9467173475641	0.0521214623598743	-2.09976571976823E-17	1.96466735735142E-17
57.9	-3.60068567231533E-18	2.31542462484557E-18	0.956450988847454	-0.0666127182846265	0.956450988847453	-0.0666127182846264	5.93007181270283E-18	-3.64782262016141E-18
58	1.18906910965887E-18	7.3737060490717E-18	0.900094118572331	-0.261970957521938	0.90009411857233	-0.261970957521938	-8.0518174240172E-18	-4.13836442521834E-18
58.1	-1.06306232492411E-17	4.20103435253776E-18	0.839277725911802	-0.333687732433491	0.839277725911802	-0.333687732433491	-1.18274456347716E-17	-4.27921303018471E-18
58.2	-4.4587413323976E-18	4.63026968480584E-18	0.820513162909158	-0.474845031890715	0.820513162909158	-0.474845031890715	-1.72502195767701E-18	-6.38550277348332E-18
58.3	1.14648318799292E-17	1.78933260952997E-17	0.726579391388472	-0.600201366457229	0.726579391388472	-0.60020136645723	1.32675239260069E-17	-3.72504821235667E-18
58.4	2.75893444333092E-18	2.73875723627489E-18	0.628250891145917	-0.630560880657343	0.628250891145917	-0.630560880657343	2.61342126851836E-17	5.4018499460897E-18
58.5	1.22480328159567E-17	-3.49370248411284E-18	0.577069725142794	-0.764694228411516	0.577069725142794	-0.764694228411515	-5.90064147233086E-18	-9.07810104193662E-18
58.6	-1.81767061553356E-17	-1.50843965246686E-17	0.429687376652445	-0.832150253086705	0.429687376652445	-0.832150253086705	-2.22939298174579E-17	2.76871233845677E-18
58.7	2.82128257033194E-17	1.91126522012493E-17	0.300579646135949	-0.851664299156406	0.300579646135949	-0.851664299156406	1.40790836299281E-17	2.26373939600794E-18
58.8	-1.17830164768948E-17	2.62811528819211E-18	0.199348292652811	-0.899387869015448	0.199348292652811	-0.899387869015448	-1.4695681757363E-18	-5.55793878290549E-18
58.9	5.26348657852359E-18	4.94897276371895E-18	0.0919430872546975	-0.93513409982836	0.0919430872546975	-0.93513409982836	5.56719117173013E-18	7.35158645537607E-18
59	-9.76394061183486E-18	3.58053309809429E-18	-0.0801369977001117	-0.914700219653859	-0.080136997700112	-0.914700219653859	-4.08723570011605E-18	6.2910855017951E-18
59.1	-5.76443368758786E-18	1.08429747866296E-17	-0.172161506073502	-0.895399699910185	-0.172161506073502	-0.895399699910185	-1.29903832636818E-17	2.46952402709805E-18
59.2	-1.42572599296436E-18	-1.0520891058366E-17	-0.293917444983318	-0.900298020224399	-0.293917444983318	-0.900298020224398	-3.79007315586728E-18	-6.5044855763833E-18
59.3	1.38250206949464E-17	-1.93385657124775E-17	-0.445557773532947	-0.797731344252295	-0.445557773532947	-0.797731344252295	-6.68634674886163E-18	-7.09514408681026E-18
59.4	3.86372058795266E-18	-8.09279031524338E-19	-0.513900989895855	-0.759887472974548	-0.513900989895855	-0.759887472974548	1.96210456647797E-17	3.14654031867602E-17
59.5	-1.00430314334213E-17	4.03425162729733E-18	-0.64326025990867	-0.676552782150394	-0.643260259908671	-0.676552782150395	-7.67337153990736E-18	2.07247224554987E-18
59.6	6.47514799986184E-18	-1.57104946155827E-17	-0.717882930342139	-0.561021618912164	-0.717882930342139	-0.561021618912164	1.05925975655742E-20	-1.18745062218839E-17
59.7	2.53139602092731E-18	-9.81564087831522E-18	-0.796915032033904	-0.483331863273501	-0.796915032033905	-0.483331863273501	1.75520088225212E-18	4.18313393191586E-18
59.8	-3.49649633052171E-17	-1.27556704368716E-17	-0.864989427095599	-0.363221696868273	-0.864989427095599	-0.363221696868272	-1.88345472391475E-17	-6.12105346380771E-18
59.9	-1.6034765642248E-17	3.3220034046736E-18	-0.893087861573746	-0.251437017838989	-0.893087861573746	-0.251437017838989	-2.70590784554524E-18	-5.59318995253621E-18
60	1.19257890490774E-17	-1.24637190589536E-17	-0.917684755773774	-0.102713825703701	-0.917684755773773	-0.102713825703701	9.20412683069892E-18	-1.38390654906897E-17
60.1	-3.15944948783402E-18	-1.15176747832678E-17	-0.913669410926965	0.0103929186114617	-0.913669410926965	0.010392918611462	-4.44267104020354E-18	-4.24500224583855E-18
60.2	-2.98582651784086E-18	-1.33887749339635E-17	-0.93002469939842	0.115535234336167	-0.930024699398421	0.115535234336167	-1.35167001472072E-17	-1.30883432670943E-17
60.3	1.14415798186957E-17	-2.26457088754651E-17	-0.88432180794841	0.279866612432689	-0.88432180794841	0.279866612432689	-2.05365607997278E-18	-1.58901867529811E-17
60.4	-3.8745987219308E-18	4.10949437672135E-18	-0.831075825293335	0.350974779580131	-0.831075825293334	0.350974779580131	-3.77432065843271E-18	-2.19439260610086E-18
60.5	1.61669005244159E-17	-2.04657206335978E-18	-0.792353423541374	0.49055886759678	-0.792353423541374	0.49055886759678	3.53997038365164E-18	1.76306340395449E-18
60.6	-7.04109653200047E-18	-2.50389208795929E-18	-0.712492387089175	0.586861691091529	-0.712492387089175	0.586861691091529	-7.42760161329354E-19	-3.90991265939269E-18
60.7	6.55228101152393E-18	6.83955317252627E-18	-0.623194918359414	0.681425630644088	-0.623194918359414	0.681425630644088	3.14435532606649E-18	1.9464378080015E-18
60.8	1.08756551128967E-17	-8.92501259278488E-18	-0.529028265880086	0.765397587229148	-0.529028265880086	0.765397587229148	3.29357539916707E-18	-8.43001505131336E-19
60.9	4.84192930822563E-18	1.14633084061055E-17	-0.42951709604367	0.827646405299173	-0.429517096043669	0.827646405299173	-9.27004595567368E-18	2.22048679113639E-17
61	1.32826118790932E-17	3.63800706133966E-18	-0.300236084648604	0.879487296209909	-0.300236084648604	0.87948729620991	1.76405911229041E-18	1.27238436962684E-17
61.1	1.21840760172861E-17	-1.06781048426361E-18	-0.176845282552905	0.896611866627355	-0.176845282552905	0.896611866627355	-3.31579755750501E-18	-5.27620918448325E-18
61.2	-3.57095877734819E-18	-5.76852024007625E-18	-0.0710015697278924	0.918344240130972	-0.0710015697278922	0.918344240130971	-5.76852024007625E-18	3.57095877734819E-18
61.3	-1.07977882516616E-17	-1.25135065634815E-17	0.0581180721684985	0.936734223346271	0.0581180721684987	0.936734223346272	-8.04589552408553E-18	6.48791960388262E-18
61.4	5.7207785385821E-18	1.28475955246064E-17	0.214169845031905	0.898043167391506	0.214169845031906	0.898043167391507	1.37935399669119E-17	-2.21219911299847E-18
61.5	9.73267782092148E-18	1.30780203218222E-17	0.284266872461358	0.858119960364069	0.284266872461358	0.858119960364069	-6.94220169558912E-18	1.79775167194616E-17
61.6	-1.02493549603294E-17	6.02873230476638E-18	0.428219489801638	0.846575713477904	0.428219489801638	0.846575713477904	-3.01436615238319E-18	-5.12467748016471E-18
61.7	9.50346905561787E-18	1.44966416965037E-17	0.544442820156439	0.761559151345182	0.544442820156438	0.761559151345182	2.94627649125621E-19	8.53601137679132E-18
61.8	4.572541865177E-18	-2.7205581570669E-18	0.619665450756223	0.671049376240064	0.619665450756223	0.671049376240064	1.34133396862549E-17	-1.3448938717849E-17
61.9	3.72055689304488E-18	3.52463092291868E-18	0.712384169895747	0.579718282106296	0.712384169895747	0.579718282106296	6.36317404159719E-18	1.85529085990159E-18
62	1.15247744409823E-17	1.45056847586039E-17	0.781191714755565	0.503145451750097	0.781191714755565	0.503145451750097	1.5243705621201E-17	1.36388264100625E-17
