# GHZ S RI R 50
50	-1.61234787297442E-18	-2.10786173698022E-17	0.820946508775213	-0.585776442649842	0.820946508775213	-0.585776442649842	1.36350662261622E-17	2.54297571490593E-20
50.1	-1.03468100869886E-17	2.8723259426178E-17	0.688541533993611	-0.702063859646445	0.688541533993611	-0.702063859646446	4.96615305010914E-18	-3.45212255394703E-18
50.2	6.79315929177162E-19	2.99298918691535E-17	0.575673522690346	-0.799103917546112	0.575673522690346	-0.799103917546113	1.32707583940967E-18	-6.65178832689955E-18
50.3	-2.58289524578789E-17	-1.97400187334969E-17	0.44791827508691	-0.908842786794868	0.44791827508691	-0.908842786794867	-3.46938684033715E-18	-7.44048931916122E-18
50.4	-1.62756067530287E-17	1.88606077869111E-17	0.246544058071933	-0.937026113681645	0.246544058071933	-0.937026113681644	-1.78834690032494E-18	6.47220524010985E-18
50.5	2.0901241342087E-19	-1.42317586088902E-17	0.129143100961546	-0.98909887125379	0.129143100961546	-0.989098871253789	1.66817711829823E-18	4.43170831252167E-19
50.6	-3.45915345760589E-18	1.48478928582624E-17	-0.0544790222709093	-0.985911709692939	-0.0544790222709092	-0.985911709692939	-1.04589421092746E-17	-2.24398589815721E-18
50.7	1.1909680098478E-17	1.06451202622106E-17	-0.200411099373451	-0.95756788472951	-0.200411099373451	-0.95756788472951	7.89192888187943E-18	5.60734589064418E-18
50.8	-7.92939022646655E-18	-5.84783443666652E-18	-0.371767212613694	-0.936902647746887	-0.371767212613694	-0.936902647746887	-1.94760243593687E-17	5.02814336429655E-18
50.9	-6.52384790050719E-18	-1.53238068849141E-18	-0.503919255435059	-0.82644027714264	-0.503919255435059	-0.826440277142641	-1.43175834087734E-17	-1.83454049405512E-17
51	-3.65286363964283E-18	-1.0115975087679E-17	-0.647681439166034	-0.755074390208176	-0.647681439166034	-0.755074390208176	-1.46191167436766E-17	4.69626531578702E-18
51.1	-1.2486092302243E-17	1.68223765208899E-17	-0.756913240659801	-0.634533549049169	-0.756913240659802	-0.634533549049169	6.18057755248956E-18	5.77912764916263E-18
51.2	8.94534944196183E-18	-2.77556496161917E-17	-0.84371329454919	-0.498254116782568	-0.84371329454919	-0.498254116782568	-1.49919438373872E-19	-3.72120641259622E-18
51.3	-3.02326389049456E-18	-4.48305012105152E-18	-0.917849629474711	-0.357019467794137	-0.917849629474712	-0.357019467794136	2.7905604847882E-18	-4.28935587059219E-18
51.4	4.32424712714696E-18	2.08847853430133E-18	-0.97803350278242	-0.223811984805657	-0.97803350278242	-0.223811984805657	1.32855147247028E-17	5.98766675879417E-19
51.5	1.08220655604539E-17	1.76878057833198E-17	-0.969431837227108	-0.0281319118372376	-0.969431837227108	-0.0281319118372374	2.25413809135885E-18	3.39976185756269E-18
51.6	6.8082463812235E-18	2.97690757240537E-18	-0.981758636191399	0.0943157603707257	-0.981758636191399	0.0943157603707256	4.58075547832315E-18	-5.18553242442735E-18
51.7	1.16506133580288E-17	-5.47010779578723E-19	-0.968696028107689	0.252806577743669	-0.968696028107689	0.252806577743668	-4.55463317522591E-18	-4.72697588334015E-17
51.8	-4.87488621259123E-18	-1.30277979348864E-17	-0.854985796740082	0.404668434596018	-0.854985796740082	0.404668434596018	-3.11120350154489E-17	-1.34619718435544E-17
51.9	-1.35768435497717E-18	1.08383155324091E-17	-0.853935869408465	0.534220578376818	-0.853935869408465	0.534220578376818	-1.27476899006119E-17	-1.40298698690438E-17
52	-3.17693882918476E-18	-3.35980129046436E-18	-0.695976051355778	0.676778697996218	-0.695976051355778	0.676778697996218	-5.14300672348891E-19	1.83845815865132E-17
52.1	-6.86827091026254E-18	-1.35244546402231E-17	-0.586999196058886	0.761173381745901	-0.586999196058886	0.761173381745901	-1.62936928466634E-18	-6.20070887894324E-18
52.2	-7.37619332808549E-18	-1.10412795985593E-17	-0.487361030762828	0.847013202526976	-0.487361030762828	0.847013202526976	-4.37068888456611E-18	-7.51900779183993E-18
52.3	-1.36719094313146E-17	2.74537159107453E-18	-0.351503659088917	0.912912788897	-0.351503659088917	0.912912788896999	8.99101675180775E-18	6.18398826570184E-17
52.4	-1.27593797285294E-17	-6.05554966510232E-18	-0.19068371469704	0.989625518802611	-0.190683714697041	0.989625518802612	-2.42166930435441E-17	2.25716755732443E-17
52.5	2.61446877009108E-17	-9.87315146553677E-18	-0.0533620393834042	0.930122356609264	-0.0533620393834041	0.930122356609264	1.22467021375439E-17	-2.73873337540244E-17
52.6	-9.63774924120026E-18	2.18476703945817E-17	0.0812390873032089	0.998001114974272	0.0812390873032091	0.998001114974271	6.0773010350261E-17	4.82006976200213E-17
52.7	-2.58271819408184E-17	-1.88832746955614E-17	0.298995366607797	0.96625764906808	0.298995366607797	0.96625764906808	-2.89013112977707E-17	5.20386300512559E-17
52.8	-2.23420569654856E-17	1.96200960367021E-17	0.338460256566299	0.792391000919133	0.338460256566299	0.792391000919132	1.20162547594594E-17	7.93434456643558E-18
52.9	1.31420986167437E-17	1.39172061123385E-17	0.610435351172397	0.895530254144802	0.610435351172397	0.895530254144802	7.58647762908443E-18	2.97916634506072E-18
53	9.33270407790794E-18	-5.22687807714354E-18	0.628062764427576	0.678704613427368	0.628062764427577	0.678704613427368	3.93362750512679E-18	-1.23412051326662E-17
53.1	8.44211622148226E-18	2.91864878572569E-20	0.742307223285623	0.641503793309075	0.742307223285623	0.641503793309076	3.06227040468589E-18	-2.13608920985643E-18
53.2	9.23455979852536E-18	1.55923586658064E-17	0.887971102160114	0.506119105948945	0.887971102160114	0.506119105948945	-1.36850190056221E-17	1.78648425922585E-18
53.3	1.99976094110188E-17	-8.74710845282677E-19	0.898210756237909	0.371913224742013	0.898210756237909	0.371913224742013	-6.9709568938778E-18	-5.79629230811392E-17
53.4	1.48131048703707E-17	1.86464535056287E-17	0.93403611709396	0.164092282988947	0.93403611709396	0.164092282988947	-1.89385867347952E-17	-1.18446899855041E-17
53.5	1.26941494651447E-17	2.19300694752433E-17	0.996685703665659	0.118305570580004	0.996685703665659	0.118305570580004	1.88137784109023E-17	1.89099425584846E-17
53.6	-2.715206670292E-18	1.27964065539044E-17	0.99030409338671	-0.0972655595738864	0.99030409338671	-0.0972655595738863	-1.07209179497089E-18	3.87373123170499E-17
53.7	6.65381628810289E-18	-4.24366793622096E-18	0.8936298912506	-0.260713878998698	0.8936298912506	-0.260713878998699	-1.31816018097868E-17	4.84111187463058E-18
53.8	3.2569632331127E-18	7.58634404210216E-18	0.991607676887118	-0.326746182225079	0.991607676887118	-0.326746182225079	-5.28927860759634E-18	-7.92819531854726E-19
53.9	9.44738289543845E-18	-1.74306635075381E-18	0.842256796683689	-0.511885491278661	0.842256796683689	-0.511885491278661	-3.84908328462857E-18	-7.21773979014234E-18
54	6.9174089010001E-18	5.57325019355246E-18	0.733331872557992	-0.628660475403378	0.733331872557991	-0.628660475403378	-1.60027415246052E-17	8.17083059098798E-18
54.1	-4.46744387452597E-17	9.48441541951308E-18	0.65231524751971	-0.69948143001844	0.65231524751971	-0.69948143001844	-7.87380586978359E-18	4.66826108094733E-17
54.2	5.77839878080106E-18	2.07130794903219E-17	0.551264426091548	-0.8032957657058	0.551264426091549	-0.803295765705801	2.82638852201558E-17	1.38103132452999E-17
54.3	1.67557216246888E-18	2.51317614741634E-17	0.374921721818074	-0.901211078786418	0.374921721818074	-0.901211078786419	1.56959853347841E-17	2.63436459059313E-17
54.4	-1.79675628104151E-17	1.71827618115195E-17	0.312775171236039	-0.874321162963718	0.312775171236039	-0.874321162963718	4.98057331093184E-18	-2.49359440168471E-17
54.5	1.08982424897911E-17	9.82584129631484E-18	0.109671907190924	-1.0184114793574	0.109671907190924	-1.0184114793574	-4.2625709271605E-18	1.95615644423349E-17
54.6	1.64326179796979E-17	1.12556071710917E-17	-0.0351134606210016	-0.946228470090153	-0.0351134606210012	-0.946228470090153	-9.07571023622525E-18	3.79372748226475E-18
54.7	1.67983721347036E-17	-6.992067941877E-18	-0.148762183077995	-0.986062238225054	-0.148762183077995	-0.986062238225053	1.3598593678105E-17	-4.19866350879812E-18
54.8	-3.23496986061818E-19	2.4234832325587E-18	-0.320044854664753	-0.945617179778205	-0.320044854664753	-0.945617179778204	4.92646863018039E-18	9.29093377911E-18
54.9	1.86467781022349E-17	-5.78692995520966E-18	-0.454476814590074	-0.859716578897967	-0.454476814590074	-0.859716578897968	1.58654922483304E-17	5.84953604509547E-18
55	1.80113542253719E-18	9.70241244228041E-18	-0.563370716853893	-0.811297140753303	-0.563370716853893	-0.811297140753302	-3.84294533505909E-18	1.03073689739291E-17
55.1	-9.28900268226619E-18	-7.38710400454857E-18	-0.695665821812452	-0.713073042729004	-0.695665821812452	-0.713073042729004	1.37897155896024E-17	-5.20213586187197E-19
55.2	2.39012652329702E-18	-3.98836332498846E-18	-0.76745838584281	-0.598884109602964	-0.767458385842809	-0.598884109602964	-2.38831935348698E-18	7.37738784934262E-18
55.3	4.49001313756989E-18	5.05444001014916E-18	-0.870136008425481	-0.457891399932416	-0.870136008425482	-0.457891399932416	4.927704833209E-18	-1.35596098992826E-17
55.4	-2.42860442472186E-18	-1.13773137324683E-18	-0.918315252761347	-0.366711494077838	-0.918315252761347	-0.366711494077838	-2.13345166393418E-17	-1.32523666383896E-17
55.5	-5.87832298055439E-18	-1.76763204937098E-17	-0.985264362389128	-0.198585375792226	-0.985264362389128	-0.198585375792226	6.54711289120069E-18	2.5133697818092E-18
55.6	-6.08495351851652E-18	-7.50312816764825E-18	-0.974616868030592	-0.0655373460781115	-0.974616868030591	-0.0655373460781115	-2.48330006165243E-18	-1.8708393637651E-17
55.7	-1.2095904783984E-17	-7.92192260092435E-18	-0.998069769696064	0.0708942445980042	-0.998069769696064	0.0708942445980041	4.35943550331444E-18	2.88627842429092E-18
55.8	-6.16311171995356E-18	2.49051773980671E-19	-0.96895539180918	0.23342355309543	-0.968955391809179	0.233423553095431	-9.15213722384256E-18	1.04878244001476E-17
55.9	-7.50781801222545E-18	4.52672127832204E-18	-0.928187089653071	0.359993491635114	-0.928187089653071	0.359993491635114	1.19241183528948E-17	5.41008877954344E-18
56	-3.29761836060853E-18	9.49774153487153E-18	-0.839357711091841	0.498281641544053	-0.83935771109184	0.498281641544053	9.49814738373569E-18	2.40078305099589E-17
56.1	-1.32528008860599E-17	1.60220441807561E-17	-0.790974504341541	0.605268084287349	-0.790974504341542	0.60526808428735	-1.9447015768468E-17	1.25618466068511E-17
56.2	7.42994130377271E-18	-1.79373272333003E-17	-0.698104420278352	0.726964856380277	-0.698104420278352	0.726964856380277	3.14320672152731E-17	-2.94916632483647E-17
56.3	-4.01062909163313E-18	-1.09743841756991E-17	-0.532419611046296	0.822375806151629	-0.532419611046297	0.822375806151629	-1.57729141557719E-17	-1.48218582246197E-17
56.4	-4.4279113671445E-18	-9.60181287347275E-18	-0.468261780027473	0.884752637304169	-0.468261780027473	0.884752637304168	6.88100639680084E-19	-2.98987657566239E-17
56.5	2.04787649892351E-18	1.37583588225806E-17	-0.318250914739869	0.964166828104105	-0.31825091473987	0.964166828104105	5.32294651075324E-18	-7.18465241886553E-18
56.6	-2.49143223377871E-18	-4.29071601885351E-19	-0.16354435571639	0.965196630633305	-0.16354435571639	0.965196630633305	5.80435557757214E-18	-1.49637384500555E-18
56.7	-3.04660961551145E-18	-1.90794153068898E-17	-0.0323541864072886	0.993130458725711	-0.0323541864072886	0.993130458725712	3.64127190430122E-18	-3.19535182582268E-18
56.8	-9.4975550677688E-18	7.11431412958785E-18	0.0903877059449307	1.00577026584515	0.0903877059449304	1.00577026584515	-9.3778028761105E-18	5.29483462538937E-18
56.9	2.48860897305542E-18	6.3443774653608E-18	0.243359781101112	0.956732755888981	0.243359781101112	0.95673275588898	-1.41086431422583E-17	7.6740267037889E-18
57	-1.24389341449669E-18	6.44187161379345E-18	0.404185591883376	0.880257471490958	0.404185591883377	0.880257471490958	8.83333838206273E-18	-5.28479031132625E-18
57.1	-1.60009710961393E-17	-3.07710586818932E-17	0.507516431506639	0.842552996904708	0.50751643150664	0.842552996904708	-2.22665131518347E-17	-4.40523757332792E-17
57.2	-1.08403014505343E-17	-7.92116944968929E-18	0.627845265816729	0.788709983688058	0.627845265816728	0.788709983688058	-2.02058266910334E-17	1.70586532046155E-17
57.3	1.0076078775521E-17	-5.77824296435238E-18	0.775086988936369	0.619520715554741	0.775086988936368	0.619520715554741	2.93650051380959E-17	-5.21594996230208E-17
57.4	-5.32850198514036E-18	-1.79051700306937E-17	0.780931187166402	0.533350278418105	0.780931187166402	0.533350278418106	-2.98211879269026E-17	4.0619382935386E-19
57.5	-3.40275037243477E-18	-8.507400456453E-18	0.906009217751954	0.437012470099868	0.906009217751954	0.437012470099868	-3.61755889778662E-17	-3.18516349022688E-18
57.6	-7.96188161444101E-18	9.38777045075429E-18	0.962533369151482	0.277562373380761	0.962533369151482	0.277562373380761	-1.41175838539498E-17	3.22512339589084E-17
57.7	2.64309794251352E-18	-2.07142747301941E-17	0.947338168328718	0.13328883462763	0.947338168328718	0.13328883462763	-3.69456056363083E-18	-1.01453864548756E-17
57.8	3.17638445225579E-17	-2.83237973977912E-18	0.992084704692861	0.0225176062363549	0.992084704692861	0.0225176062363548	2.15636518538624E-17	-4.15065679352739E-18
57.9	-7.56607412745186E-18	-1.10874666251928E-18	0.996975440006667	-0.101675317227111	0.996975440006667	-0.101675317227111	-2.0222185601372E-18	-9.81129658003452E-18
58	6.46787850397547E-19	-1.81524362126355E-17	0.935374485641812	-0.305309996173321	0.935374485641812	-0.305309996173321	-3.9695069404524E-18	-8.27958577979331E-18
58.1	-1.93961491289515E-17	-4.12307328372783E-18	0.866024334834984	-0.38033785963106	0.866024334834984	-0.38033785963106	7.89994865351372E-18	9.36158381498041E-19
58.2	-1.42207033564546E-17	3.86728970311255E-17	0.842021464029171	-0.524762613942966	0.842021464029171	-0.524762613942966	1.30020464129403E-17	2.57560821431288E-18
58.3	-9.02344172972247E-18	5.76456472498445E-19	0.740375789196158	-0.653545211324026	0.740375789196159	-0.653545211324026	-2.09868240006136E-18	3.14755381559658E-18
58.4	1.49909742575863E-17	-1.16198846289134E-18	0.632368136673711	-0.683281446132415	0.632368136673711	-0.683281446132415	2.10920752309099E-17	-1.97321518034406E-17
58.5	-9.34823113112761E-18	-3.44969781368594E-19	0.576199430626289	-0.818148387485983	0.576199430626289	-0.818148387485983	3.51136828043012E-18	9.81333004518109E-18
58.6	1.85721794224741E-17	9.56313859013144E-18	0.419896258890886	-0.885430031957424	0.419896258890886	-0.885430031957423	4.71511866341334E-19	-4.68809362552212E-18
58.7	2.77896743714907E-17	-3.3563820849429E-18	0.282226739970346	-0.902053302851491	0.282226739970347	-0.902053302851492	8.4001989229757E-18	4.88371569326444E-18
58.8	1.01220000200991E-17	-2.19428518994518E-17	0.175002921340513	-0.946568816554472	0.175002921340513	-0.946568816554473	-9.73579893584799E-19	4.79087570679931E-18
58.9	-1.55191966802039E-17	3.06337847574885E-18	0.0621474198698621	-0.978441105276827	0.062147419869862	-0.978441105276827	-8.12662747811474E-18	2.41775781328846E-17
59	1.21322560702723E-17	2.32170442122703E-18	-0.117653823873775	-0.95331163276913	-0.117653823873775	-0.95331163276913	7.09164348727048E-18	1.18353617570264E-17
59.1	-7.9810774993031E-18	-9.22450497389956E-18	-0.213579288062881	-0.927510966446453	-0.213579288062881	-0.927510966446453	-1.0906126706669E-17	1.70993343537091E-17
59.2	-1.23552042671832E-17	2.39598545986006E-18	-0.338679353947625	-0.927416748493833	-0.338679353947625	-0.927416748493832	4.49922666011026E-18	1.58348743181218E-17
59.3	-6.08162810349612E-18	2.24742069242507E-18	-0.495720869594222	-0.816982947279007	-0.495720869594222	-0.816982947279007	1.74504383823162E-17	-1.63649682147451E-17
59.4	-1.29383122274644E-18	1.1244224261898E-17	-0.564308976536231	-0.772118313356688	-0.56430897653623	-0.772118313356687	-9.2778048864545E-18	3.736278685451E-19
59.5	9.16028711412552E-18	4.96027923029514E-18	-0.695938125824646	-0.681882064264869	-0.695938125824646	-0.681882064264869	3.22564449548613E-18	-3.36002814837363E-18
59.6	1.71646191896878E-18	5.2211603921833E-18	-0.770689867509592	-0.557903504835715	-0.770689867509592	-0.557903504835715	-2.98352022410474E-18	9.80835382267874E-19
59.7	1.37012845368104E-19	5.688678367828E-18	-0.848488994759349	-0.473853258604164	-0.848488994759349	-0.473853258604164	5.50498816454651E-18	8.15469590255652E-18
59.8	1.21280730824513E-17	-3.6870413464951E-18	-0.915068264083351	-0.346530954967623	-0.915068264083351	-0.346530954967623	4.97703423739215E-18	4.40063928926715E-18
59.9	-1.08382367344265E-17	-1.79050564277841E-17	-0.939616890372786	-0.227994125523115	-0.939616890372787	-0.227994125523115	4.19472547767032E-18	-1.94241644346474E-18
60	-3.18449669493167E-18	-4.80925821263294E-19	-0.960766730352423	-0.0721389625517858	-0.960766730352424	-0.0721389625517855	6.17413861696833E-19	-2.02637987092704E-17
60.1	8.12110201372022E-18	1.02768609909688E-17	-0.951420343088523	0.0463797889857369	-0.951420343088523	0.046379788985737	-3.28617778532458E-18	-1.26035099964129E-18
60.2	-1.60377457002188E-17	-5.1190203644361E-18	-0.962918504817009	0.155312330476063	-0.96291850481701	0.155312330476064	-3.12821737525241E-18	-1.5716175570264E-18
60.3	8.67622738236164E-18	-1.76001961364321E-17	-0.911164564504685	0.325477356024112	-0.911164564504684	0.325477356024111	4.28375997232114E-18	-2.45851589604633E-18
60.4	-5.14046913701575E-18	-4.28250814267905E-18	-0.850248603888738	0.398307532625653	-0.850248603888737	0.398307532625653	-1.10641088695957E-17	-8.22224884928081E-18
60.5	-1.03095230910908E-17	-6.89010842313464E-19	-0.805761307385563	0.540852434916329	-0.805761307385563	0.540852434916329	6.04791168619176E-18	2.47531112360623E-18
60.6	1.33241843951422E-18	2.96028788664577E-17	-0.718435439367792	0.638329344228383	-0.718435439367791	0.638329344228383	-8.00829695214574E-18	6.31144915180473E-18
60.7	-1.99026785069294E-17	-2.39264906304311E-18	-0.621847170208339	0.733323824130373	-0.621847170208339	0.733323824130373	3.03320982143193E-18	-1.31518962519918E-18
60.8	-1.47223728553529E-17	1.22375723806368E-17	-0.520697488542557	0.816695521440871	-0.520697488542556	0.816695521440871	4.27996912189517E-18	-3.33837208904605E-18
60.9	7.25471845797755E-18	8.82729606596505E-18	-0.414431217582826	0.877035029336714	-0.414431217582827	0.877035029336715	6.82340565125915E-18	-4.55142060812932E-18
61	-2.05260823207328E-17	-8.67658495761774E-18	-0.278009220233259	0.926483941762082	-0.278009220233259	0.926483941762082	-3.39384375374593E-18	1.91493388661022E-17
61.1	5.00742288048874E-18	4.91697965450673E-18	-0.148071722195841	0.939513898854819	-0.148071722195841	0.939513898854819	1.16815227044656E-17	2.12671977984513E-18
61.2	6.88417260446371E-18	-6.44254734033912E-18	-0.0372734725087194	0.956811790321726	-0.0372734725087192	0.956811790321726	3.59788343969874E-19	5.61185111258041E-18
61.3	-1.09369910461125E-17	-6.21921355188858E-18	0.0967689727009511	0.970804497669208	0.0967689727009512	0.970804497669208	4.1757628820679E-18	5.0542051584079E-18
61.4	-1.60466459791269E-17	3.42426718772558E-19	0.258454675643996	0.926017036237524	0.258454675643996	0.926017036237525	-9.19756081027231E-21	-2.33734223670622E-18
61.5	-1.51084702052869E-17	1.52506350525425E-17	0.330240472070829	0.878993805051238	0.330240472070829	0.878993805051238	-3.59734239175598E-18	5.17954771597865E-18
61.6	5.54214194371737E-18	-2.4947036148294E-18	0.47733397615197	0.862478758705815	0.47733397615197	0.862478758705814	-2.67568986371646E-18	-3.66622624889663E-18
61.7	-1.2995667288221E-17	4.2708756247064E-18	0.595677083423622	0.769920331173046	0.595677083423622	0.769920331173046	-9.92984260234899E-18	-4.27418106259998E-18
61.8	-1.56492977548337E-17	1.32694427391271E-17	0.670861957039274	0.671671125131206	0.670861957039275	0.671671125131206	-8.04748990388661E-19	1.91498252447973E-17
61.9	-7.81933097752628E-18	1.27677793126502E-17	0.76346730008456	0.573321184239037	0.763467300084561	0.573321184239037	1.54552036295574E-17	-1.76607094414156E-17
62	-1.19887074550953E-17	-1.68797464564988E-18	0.830556247411775	0.490646772728255	0.830556247411776	0.490646772728255	1.91155029345881E-18	2.63290537517306E-18
