# GHZ S RI R 50
50	-3.88820170121218E-20	-2.08309636754519E-17	0.826089880963571	-0.592319421061559	0.826089880963571	-0.592319421061559	4.23009056242542E-18	4.27205809738517E-18
50.1	-1.32832111058996E-17	6.27774530049808E-18	0.692788276760963	-0.709100081307651	0.692788276760962	-0.709100081307651	-1.98206685268074E-18	-1.18910433555787E-17
50.2	7.20233608307875E-18	6.59554965476623E-18	0.578854220056985	-0.807154219751459	0.578854220056984	-0.807154219751459	-8.40523319880058E-18	-3.47789415121369E-18
50.3	-2.01495787418432E-17	-5.2759174316203E-18	0.449242606614268	-0.917718601291032	0.449242606614268	-0.917718601291032	-1.02738408774044E-18	-7.22811584751129E-18
50.4	-1.76363546721156E-17	1.62148861430643E-17	0.246960937886827	-0.945301356148516	0.246960937886827	-0.945301356148515	8.57825468664296E-18	6.70902148523071E-18
50.5	-1.35345140105941E-17	-1.0781446051165E-17	0.127683568985534	-0.998249846116206	0.127683568985534	-0.998249846116206	-6.05404712483163E-18	9.31782005117343E-18
50.6	-1.80873633749916E-18	-6.57213644081902E-19	-0.0573071763798123	-0.994464513699651	-0.0573071763798125	-0.994464513699651	1.02592471657925E-17	-1.18634171840486E-18
50.7	-9.63199829647811E-18	1.99971980622535E-17	-0.204586290402262	-0.965948271829116	-0.204586290402263	-0.965948271829117	-1.54598645279499E-18	6.85631321349616E-19
50.8	-2.24052380162903E-17	-1.83086743965378E-17	-0.37787574932436	-0.944263281177565	-0.377875749324359	-0.944263281177565	7.92448604892297E-18	1.35176987813124E-17
50.9	1.56474572201885E-17	-1.24734067687144E-17	-0.510550455563186	-0.833075114609446	-0.510550455563186	-0.833075114609446	-5.90259617963838E-18	-3.00698618023291E-18
51	9.59340574781294E-19	1.73814159393558E-17	-0.655885667778169	-0.760293772914111	-0.65588566777817	-0.760293772914111	5.89438890735395E-18	7.94636710492368E-18
51.1	-1.01795396816337E-17	1.86266645880088E-18	-0.765903002051843	-0.638473484594498	-0.765903002051843	-0.638473484594498	-4.7652092166207E-19	-1.21865740383728E-17
51.2	5.93525282246101E-18	-1.98462097437223E-17	-0.853270641182223	-0.50080736411119	-0.853270641182222	-0.50080736411119	3.79307636322889E-18	-1.73259151718638E-19
51.3	-5.99959538563544E-18	-1.70138012322669E-17	-0.927884849063547	-0.357880457295304	-0.927884849063548	-0.357880457295304	6.03843361959234E-18	-1.30511820825635E-17
51.4	1.22750879060572E-18	1.56863600403814E-18	-0.988631507654351	-0.222712614870331	-0.988631507654351	-0.222712614870331	9.50588159515212E-18	4.51181560127421E-18
51.5	3.13369544618405E-18	-4.10448074180472E-18	-0.979109967043247	-0.0259026727525606	-0.979109967043246	-0.0259026727525605	3.45067448005684E-18	1.3514694325775E-17
51.6	-3.47294791513338E-18	-1.29238399341447E-17	-0.991779787954419	0.0985560380006822	-0.991779787954419	0.098556038000682	-8.32556548759373E-18	-5.35899772005813E-18
51.7	-1.56965196144553E-17	3.83294930731682E-18	-0.977980239047237	0.259014138080491	-0.977980239047237	0.259014138080491	8.17116340199037E-18	-2.71323543576954E-17
51.8	-1.28840787179235E-17	7.76008169881805E-19	-0.863200199863603	0.411136654911548	-0.863200199863603	0.411136654911548	-1.12246997212796E-17	1.13134911470131E-17
51.9	1.93470435418671E-18	-4.06048774416445E-18	-0.861175277338824	0.543608689500019	-0.861175277338824	0.543608689500019	2.71336889511669E-18	-2.66081400756943E-17
52	5.18285814961612E-18	-7.81878997966427E-18	-0.701340373082505	0.686040570091836	-0.701340373082505	0.686040570091836	1.13752812328283E-17	-2.35484258813044E-17
52.1	1.18691654027667E-18	1.07118557499916E-17	-0.591223724377517	0.771458751473541	-0.591223724377517	0.771458751473541	-8.0033995050115E-18	8.09482982640647E-18
52.2	9.62822252949898E-19	8.29171037337668E-18	-0.489873612173168	0.858594981778149	-0.489873612173169	0.858594981778149	-1.1092366137251E-17	1.7878469267526E-17
52.3	3.53380443184802E-18	-6.52381160167549E-18	-0.352144469728475	0.92498507795327	-0.352144469728475	0.924985077953271	1.58213626816217E-17	-1.776752935102E-17
52.4	1.608863947219E-17	3.3818382019668E-18	-0.188639442749146	1.00155084134204	-0.188639442749145	1.00155084134204	-1.14605582522056E-17	-1.02790512678459E-17
52.5	7.52805506520873E-18	-2.63632573970837E-17	-0.0510974824609181	0.942092081224872	-0.0510974824609184	0.942092081224871	-3.29371919902664E-17	-1.13498241399549E-17
52.6	2.5981114129784E-18	-5.87823443462497E-18	0.0869828977311562	1.00993111612232	0.086982897731156	1.00993111612232	-3.19243160752561E-17	2.45359551515021E-17
52.7	1.53648675118027E-17	1.25198208633433E-17	0.306563289474262	0.975848459443347	0.306563289474262	0.975848459443346	-2.54042194926188E-17	-1.1052513295895E-17
52.8	-3.02646405487122E-17	-1.04607319080453E-17	0.34492006359866	0.803040665846907	0.344920063598659	0.803040665846907	3.20955999386156E-17	2.68154442450981E-17
52.9	2.01524560515634E-18	-1.70590797382409E-17	0.622464000369589	0.901867647289201	0.62246400036959	0.901867647289202	-1.47765071522743E-18	3.89535725575337E-18
53	-1.19364990649488E-18	-4.66439860861521E-18	0.63844753648298	0.685617847647097	0.63844753648298	0.685617847647097	1.72453986216886E-17	-2.77715580023164E-17
53.1	2.46172195032817E-17	-9.0545625312634E-18	0.755348705207643	0.646448792422574	0.755348705207643	0.646448792422574	1.26260346710994E-17	-8.04791096655301E-18
53.2	-4.35125032374598E-18	2.32703380766829E-17	0.90155178744966	0.507698674534796	0.901551787449659	0.507698674534796	1.05410922578357E-17	6.63963107786657E-18
53.3	4.5244047082132E-17	-1.62828069301948E-18	0.912168929202169	0.372679406613567	0.91216892920217	0.372679406613567	-1.71564809591737E-17	-4.98581718080644E-17
53.4	1.46854967472991E-17	-2.70545181867385E-17	0.946584959035402	0.162831479661372	0.946584959035402	0.162831479661372	-2.90976349960044E-17	-1.37118982279708E-17
53.5	-2.26197622289047E-17	3.44654178811771E-17	1.01140404962477	0.114047167654936	1.01140404962477	0.114047167654937	6.37238972783979E-17	3.57549699690063E-17
53.6	2.0712873012894E-17	-4.3259719040109E-18	1.00286989556784	-0.103609028667406	1.00286989556784	-0.103609028667406	-5.89921357055864E-18	-2.37065252614627E-18
53.7	-6.15676137151791E-18	3.98699982695399E-18	0.904809214129862	-0.267383953933408	0.904809214129863	-0.267383953933408	-2.85782424134836E-18	5.53010992365785E-18
53.8	7.8830539275541E-18	1.35634156792647E-17	1.00351852933362	-0.33860051942068	1.00351852933362	-0.33860051942068	2.66739305385704E-17	2.86035343989519E-17
53.9	1.3193659227175E-17	-4.97789807180262E-18	0.851263586413882	-0.523513206494814	0.851263586413882	-0.523513206494815	3.67853079753447E-18	4.03662585676421E-19
54	2.30933213410394E-18	2.4722847656764E-17	0.740617534086974	-0.641158640425505	0.740617534086974	-0.641158640425505	9.07180245146873E-18	-4.57415992338297E-18
54.1	6.84907662968898E-18	3.55073209938013E-18	0.658471880780364	-0.7136045539785	0.658471880780364	-0.7136045539785	1.86774913415064E-19	-1.80640120276841E-17
54.2	4.34936716914289E-18	-1.5434792410556E-17	0.554917698034018	-0.818669165224815	0.554917698034018	-0.818669165224815	1.47938625614789E-17	1.41953123511102E-17
54.3	3.753628166979E-18	2.04098712764524E-17	0.375544814857825	-0.915968236422629	0.375544814857825	-0.915968236422628	3.5199103104632E-17	4.66310042501851E-17
54.4	-1.98015968775333E-17	-9.92442398022746E-18	0.313007655637596	-0.890955400537644	0.313007655637596	-0.890955400537643	-2.88373458667208E-18	-1.61898409817549E-17
54.5	6.91966704601435E-18	1.28794715531629E-17	0.104599893483521	-1.03352850112371	0.104599893483521	-1.03352850112371	1.42557434098864E-17	1.43797571590467E-17
54.6	-1.09410145309488E-17	-1.51700606705191E-17	-0.0405693333995894	-0.960681732132031	-0.0405693333995891	-0.960681732132031	-8.11313880281202E-19	-9.58882473048018E-18
54.7	-1.0382534392839E-17	1.27093055637742E-17	-0.157782544759072	-1.00042281237018	-0.157782544759072	-1.00042281237018	-7.61851887888526E-18	2.4644233087171E-18
54.8	1.10040985007657E-17	1.40162396883474E-17	-0.331104319461065	-0.957920287856333	-0.331104319461065	-0.957920287856333	-1.50607059379084E-18	1.25101690945566E-17
54.9	3.9959615036555E-18	-4.5816246020695E-18	-0.466697412619911	-0.870353175341418	-0.466697412619911	-0.870353175341418	1.40730273775566E-17	-2.83809408384945E-18
55	9.42546759524307E-19	-5.22923497994275E-18	-0.577907604298693	-0.820450574904609	-0.577907604298694	-0.820450574904609	7.9850242496429E-18	1.39885831070494E-17
55.1	8.71116719961566E-19	1.50857902648158E-18	-0.711456224755177	-0.719532515776569	-0.711456224755178	-0.719532515776569	-3.68244424347953E-18	1.15043259144458E-17
55.2	-1.04431031376174E-17	-2.94702302492235E-18	-0.784086151942495	-0.603606751475302	-0.784086151942495	-0.603606751475302	-6.22944078270707E-18	-3.62267198978571E-18
55.3	4.45107680674414E-18	4.80295272678178E-18	-0.886947762176672	-0.459477228485851	-0.886947762176672	-0.459477228485851	2.64923131066587E-17	-5.99379754233865E-18
55.4	-8.12892581080557E-18	-9.29178616009716E-18	-0.936426551168724	-0.366071362426649	-0.936426551168723	-0.366071362426649	9.06899032573061E-18	-5.94823119556938E-18
55.5	1.47622090523835E-17	6.92983579163115E-18	-1.00253155752171	-0.194572585943749	-1.00253155752171	-0.19457258594375	-1.53966118128209E-17	9.15240971601594E-18
55.6	2.9600570325234E-18	-3.0907377177196E-18	-0.991580670632301	-0.0597171723642536	-0.991580670632301	-0.0597171723642535	-1.28856736116632E-18	-3.60434071310656E-18
55.7	2.63901588621914E-18	2.30933582373499E-18	-1.01436298077247	0.0798862726189741	-1.01436298077247	0.079886272618974	-6.33357296250994E-19	1.46475938564482E-17
55.8	-6.02138056852964E-18	-1.84765463046349E-18	-0.983410094477562	0.244657768684397	-0.983410094477562	0.244657768684397	1.63336072470299E-17	-1.67295430043599E-17
55.9	-2.05572522265019E-18	5.60136947405275E-18	-0.9412810629544	0.373455185776688	-0.941281062954399	0.373455185776688	-2.08401180416056E-17	2.52091879418048E-18
56	-2.26974846690235E-18	-1.1961594623622E-18	-0.850202921439598	0.512983773550045	-0.850202921439597	0.512983773550045	-2.10208917473259E-17	-1.88116968436031E-17
56.1	-8.6616197835152E-18	5.1581241418458E-18	-0.799929031601005	0.622441152991235	-0.799929031601005	0.622441152991236	-2.93912356715567E-17	-9.71193206583114E-20
56.2	-1.07660826671107E-17	-8.52102646222696E-18	-0.704140743796593	0.745558750445848	-0.704140743796593	0.745558750445847	8.14274912195079E-18	-3.33577934356442E-17
56.3	8.87049563336986E-19	-4.21457541583425E-18	-0.535560182457407	0.840405795935747	-0.535560182457407	0.840405795935747	1.81010430439956E-17	1.43728189020197E-17
56.4	3.44353430558578E-18	-6.84021374976603E-18	-0.468981444721863	0.90486686569681	-0.468981444721863	0.90486686569681	3.61537300789143E-17	-3.45624997525846E-18
56.5	-2.69389890251883E-18	1.96979161855872E-17	-0.315390029345358	0.983916654045406	-0.315390029345358	0.983916654045407	1.94804989045899E-17	1.73330477301678E-17
56.6	-5.87851672357547E-18	-9.66380516376663E-18	-0.15871336216975	0.984103915128899	-0.15871336216975	0.984103915128899	3.75501712001296E-17	-3.11431103019725E-17
56.7	-5.92075929999505E-18	1.21623526037879E-17	-0.0243578504628685	1.0115837726415	-0.0243578504628686	1.0115837726415	-1.6138021201995E-17	2.77884787337217E-18
56.8	-7.21370869204144E-19	-3.59946711978572E-18	0.101561967426011	1.0236164296791	0.101561967426011	1.02361642967911	-1.96111860218442E-17	1.89064364116688E-17
56.9	-3.29814542465892E-17	5.3561549262197E-19	0.25643498857775	0.972599788474917	0.25643498857775	0.972599788474916	-9.31358348322233E-18	1.7381777212633E-17
57	2.95608578078441E-17	-1.43936081204782E-17	0.418721295161288	0.893399088713469	0.418721295161287	0.893399088713468	2.04217220150304E-18	-2.35690554062128E-17
57.1	4.07407897008248E-18	3.52965897357918E-18	0.524748310166945	0.8541085434599	0.524748310166946	0.8541085434599	-1.47619758129299E-17	-9.43306228205892E-18
57.2	-2.09471405478749E-17	-2.49791715877873E-17	0.64751928529013	0.797626741048652	0.64751928529013	0.797626741048653	-9.81945920081547E-18	-2.45132148619877E-17
57.3	-7.86158290118481E-18	2.01224253443662E-17	0.794054313805803	0.624275346385549	0.794054313805804	0.624275346385549	-3.46168792331949E-17	4.11913029751928E-17
57.4	2.37589864728374E-18	-2.71980326563394E-18	0.80132540799412	0.537495059669442	0.80132540799412	0.537495059669442	-9.80386522874926E-18	-2.39091217926446E-17
57.5	2.09971793523498E-17	3.92987056699499E-18	0.927639899265806	0.436578550337401	0.927639899265806	0.436578550337401	1.18692880533825E-17	-5.67592461931541E-18
57.6	-8.05730995383605E-18	-6.42487828864342E-19	0.983309714436442	0.273843577095269	0.983309714436443	0.273843577095269	-3.89753620184198E-18	8.20318031998212E-18
57.7	-1.97497444668187E-17	6.65886193822158E-18	0.967331408000147	0.1278490372567	0.967331408000147	0.1278490372567	-2.02112251674774E-17	-1.16170207110821E-18
57.8	-2.29772477771973E-17	-5.04361450401561E-18	1.01202589498667	0.0132024038802449	1.01202589498667	0.013202403880245	5.0046943699078E-18	1.25738340021276E-17
57.9	8.88832499392881E-18	-2.63163041752023E-17	1.01602851736903	-0.114168709658756	1.01602851736903	-0.114168709658757	-7.47152090569136E-19	-1.14535011962896E-17
58	5.2264169558667E-18	1.57433908027118E-17	0.950659705648282	-0.319537011130833	0.950659705648281	-0.319537011130833	-9.38351620778737E-18	2.5173712548332E-17
58.1	-9.1364796861422E-18	5.48547694388764E-19	0.8807819465869	-0.396170569762957	0.8807819465869	-0.396170569762957	1.67076134574744E-17	1.69775348136762E-17
58.2	1.56763872108046E-17	-8.37943294633396E-18	0.85375687389436	-0.543856502888255	0.85375687389436	-0.543856502888255	2.47769081515663E-17	-1.00190303010405E-17
58.3	-2.30656209407939E-18	5.06593446360255E-18	0.748853172330483	-0.673735524455981	0.748853172330484	-0.67373552445598	2.75937236952315E-18	7.37249655768194E-18
58.4	6.00306146355112E-19	6.2545100453224E-18	0.639921439947468	-0.704281678371303	0.639921439947468	-0.704281678371303	-8.41844370300811E-18	-5.50412736237851E-18
58.5	-8.05906785140665E-18	-7.95471275573916E-19	0.579225502309683	-0.841643760853668	0.579225502309683	-0.841643760853667	-8.70588038143253E-18	-2.48683197341264E-18
58.6	-1.53335872809458E-17	-3.14126716221923E-17	0.419656020645257	-0.90821806276576	0.419656020645257	-0.908218062765759	-3.17925199722526E-17	-1.05646466202796E-17
58.7	-5.62068207976648E-18	-3.09643888844956E-17	0.279714376681413	-0.924416944198496	0.279714376681413	-0.924416944198496	-5.9451023003317E-18	3.81677629450685E-18
58.8	-4.19796058597643E-18	9.19600616577319E-18	0.168916238282342	-0.969196037501721	0.168916238282342	-0.96919603750172	-1.87697344579258E-18	6.46200025541386E-18
58.9	-4.92553396763554E-18	-3.1447809495692E-18	0.0523780825370522	-1.00081119108142	0.0523780825370524	-1.00081119108142	-1.38622388104963E-17	-1.45496312693639E-18
59	1.53063090787954E-17	1.48889980460193E-17	-0.129920648002416	-0.972895688867013	-0.129920648002416	-0.972895688867013	1.24399145979706E-17	1.16353647327649E-18
59.1	-1.21177175248543E-17	1.59506419438578E-18	-0.228541194510712	-0.946388775279624	-0.228541194510712	-0.946388775279625	-8.39398227153412E-18	6.15311777408581E-18
59.2	9.95401423690467E-18	1.12626240652879E-17	-0.357465353751361	-0.944245937194048	-0.357465353751362	-0.944245937194049	-9.46438987427697E-18	-2.69782442297916E-18
59.3	7.13107423265044E-19	-7.03700655118847E-18	-0.515226396212713	-0.830044189966212	-0.515226396212713	-0.830044189966212	-2.05384342461606E-17	2.30112872674958E-18
59.4	1.73969332192165E-18	-5.55219674251058E-18	-0.586529435953424	-0.783666872984807	-0.586529435953425	-0.783666872984806	2.19971551238459E-17	4.73109740234037E-18
59.5	2.85031515286783E-18	6.12766542460331E-18	-0.719645263046709	-0.689316143870829	-0.719645263046709	-0.689316143870829	-6.86572611579417E-18	7.26782839705072E-19
59.6	1.85611284481267E-17	-1.65736678054925E-17	-0.794709481795795	-0.562334258694473	-0.794709481795795	-0.562334258694473	-5.88223345611544E-18	-1.84745556889081E-18
59.7	-2.51160106602837E-18	-8.59759128791164E-18	-0.873953296235087	-0.474677613676397	-0.873953296235086	-0.474677613676397	-4.4560677603044E-18	-5.29009259563515E-18
59.8	-1.37228653527535E-17	5.4889380913278E-18	-0.940419669754147	-0.343464195390785	-0.940419669754146	-0.343464195390784	5.60316524431418E-19	-6.64764685785277E-19
59.9	1.0146177425758E-17	1.02418345164095E-17	-0.964787619530642	-0.221843789793957	-0.964787619530641	-0.221843789793957	6.64112204552829E-18	-1.02763659783412E-18
60	-8.72117358657008E-18	1.50468687218853E-17	-0.984236075180316	-0.0624657341753348	-0.984236075180316	-0.0624657341753347	-6.42393832425092E-18	1.70405200958288E-17
60.1	-1.24942635243443E-17	-1.44747822107015E-19	-0.973903750144374	0.0589769977935176	-0.973903750144374	0.0589769977935173	1.31870253352896E-17	-7.84135427515617E-18
60.2	-6.51781761716279E-18	2.34736071447227E-18	-0.984300036227073	0.171843095802754	-0.984300036227072	0.171843095802754	8.86517833163505E-18	4.17045690269052E-18
60.3	-2.07798180761042E-17	-4.58753898599819E-18	-0.928871814813282	0.344343657160355	-0.928871814813282	0.344343657160355	-9.56306487945951E-18	-5.24936298407011E-18
60.4	6.93575945414448E-18	-6.62372192692756E-19	-0.866819083979756	0.419264453855705	-0.866819083979756	0.419264453855705	-5.41160458621803E-18	-2.23384052162719E-18
60.5	2.98401918449703E-18	6.636742310498E-18	-0.818429303191836	0.564698684368902	-0.818429303191836	0.564698684368902	-1.84134075145977E-18	8.47389163657931E-18
60.6	-2.83224547640566E-18	-1.50550270790194E-17	-0.727975910982134	0.663673032092998	-0.727975910982133	0.663673032092997	-1.81577372912489E-18	-7.7758500530047E-18
60.7	3.10592004789662E-17	8.95412516620947E-19	-0.627731206157148	0.759842042457869	-0.627731206157147	0.759842042457868	3.16533616946219E-18	7.54251500632566E-18
60.8	3.63567997076416E-18	-1.80995333294916E-18	-0.522707303272987	0.844118102630168	-0.522707303272987	0.844118102630168	6.69315433960087E-18	-9.44305277938592E-19
60.9	-2.87044737084122E-18	7.81928465753368E-18	-0.412739989935697	0.904972973397641	-0.412739989935698	0.904972973397641	-4.36493629947026E-18	1.51704584026107E-18
61	9.37428737611785E-18	2.69307635559807E-17	-0.272381599506432	0.95367432923803	-0.272381599506432	0.95367432923803	-4.58133168848441E-18	1.42317921525036E-17
61.1	2.3405669376961E-17	2.37168644281762E-18	-0.139218058767216	0.965768312995836	-0.139218058767216	0.965768312995837	1.53330414914877E-17	-2.37243634490994E-18
61.2	-1.30062649726592E-17	-8.20077280569137E-18	-0.0246493249850389	0.982369244056367	-0.024649324985039	0.982369244056366	-3.8957534984171E-18	2.74791379479021E-17
61.3	-6.81496031204945E-18	-1.9828395425662E-17	0.113485453913036	0.994441880467486	0.113485453913037	0.994441880467485	-2.73815161602706E-18	-6.05566267768576E-18
61.4	-4.29241528961235E-18	-1.72912925262574E-17	0.277687506322127	0.94620220317528	0.277687506322128	0.94620220317528	-3.73726728380429E-18	-3.56293118197862E-19
61.5	4.95852811097629E-18	1.96099641428498E-17	0.351989972058291	0.898156498652126	0.351989972058291	0.898156498652126	-1.54057957474109E-18	6.65199915237562E-18
61.6	-8.97300032746436E-19	1.53131997732266E-18	0.50292763687818	0.877607235530091	0.50292763687818	0.87760723553009	-5.95468478522193E-18	-9.14628011774271E-18
61.7	-1.91423894659224E-17	-1.71797485828776E-18	0.622606218620384	0.781232685766062	0.622606218620385	0.781232685766063	-9.11120688414733E-18	-6.74758471127217E-18
61.8	1.4684269351288E-18	-6.6401754935525E-18	0.698855604721142	0.680006361506593	0.698855604721143	0.680006361506593	9.72355996365546E-18	-6.45341411342614E-18
61.9	4.60964216647092E-18	-1.83479884916419E-17	0.792472990469164	0.577503474978148	0.792472990469164	0.577503474978148	-6.31705948293469E-18	-2.64405613904919E-17
62	6.89877868063566E-18	-5.07066968085856E-18	0.860895614211943	0.490989869365107	0.860895614211943	0.490989869365107	-6.2094630136556E-20	9.93497102613714E-18
