# GHZ S RI R 50
50	6.78876732106091E-18	7.98822440095352E-19	0.777972506556159	-0.545232512752502	0.777972506556159	-0.545232512752502	-1.16938630160699E-17	3.25012312367112E-18
50.1	-1.96634808174057E-17	1.48504829767102E-17	0.653995380887423	-0.65420980531383	0.653995380887423	-0.654209805313831	-1.45982781422872E-21	-4.45321062115921E-18
50.2	-3.70976288547084E-19	6.36388184863486E-18	0.55024740349943	-0.746607737973211	0.55024740349943	-0.746607737973212	-7.83429932408752E-19	-7.56832201400353E-18
50.3	1.69200969519669E-17	-8.76605893483153E-18	0.431285350421392	-0.853071870387992	0.431285350421392	-0.853071870387992	6.10832505520021E-18	8.29705437551871E-18
50.4	9.65259871944908E-20	-5.80181101717019E-18	0.241120580772076	-0.878435015823678	0.241120580772076	-0.878435015823678	6.01432590877501E-18	-7.31045537338907E-18
50.5	1.37669215334716E-17	1.04099659192422E-17	0.132918977904807	-0.931572534904223	0.132918977904807	-0.931572534904223	1.47479239428452E-18	4.2959965162896E-19
50.6	7.02583799589096E-18	-5.88976370202898E-18	-0.040436720324772	-0.929671508203222	-0.0404367203247719	-0.929671508203221	1.11273951188866E-17	6.56934539627102E-18
50.7	-1.88045605773799E-19	1.52100112481482E-17	-0.176978004778229	-0.905186315067961	-0.176978004778228	-0.90518631506796	9.31379726266828E-18	-6.00725570498299E-19
50.8	-1.092955564156E-18	-1.06286815934442E-17	-0.340262793201409	-0.888766918931624	-0.340262793201409	-0.888766918931625	3.91266650766683E-18	-3.44282685238724E-19
50.9	4.360434394439E-18	4.0488784674996E-18	-0.464011028897715	-0.785256226898544	-0.464011028897715	-0.785256226898544	2.16161272860577E-18	-2.18752412639373E-17
51	1.64601687386204E-18	8.07051788583924E-18	-0.601850884142211	-0.720748248945571	-0.601850884142212	-0.720748248945572	-1.09116571067149E-18	6.0199480244028E-18
51.1	-2.33068826854248E-17	-3.0086449823294E-18	-0.705980965350464	-0.608702350841132	-0.705980965350464	-0.608702350841132	7.51671673981749E-18	9.54911417220445E-18
51.2	2.45471172827572E-19	-7.62984175402574E-18	-0.789224154885919	-0.481632082198269	-0.789224154885919	-0.481632082198269	-8.70316174441269E-18	-7.19720031902915E-18
51.3	1.9643456477043E-17	1.84238114629435E-18	-0.86145408409473	-0.349695004875255	-0.86145408409473	-0.349695004875255	-1.50263155166514E-19	-1.0601839916762E-17
51.4	-2.59557936319898E-17	-1.43920338961808E-17	-0.921570263876491	-0.225508229689459	-0.92157026387649	-0.225508229689459	-2.6456038542803E-17	8.23293488374984E-18
51.5	-1.64898535887622E-18	-6.06463578958654E-18	-0.913767520733329	-0.0403322577669882	-0.913767520733329	-0.0403322577669884	-1.05864374614452E-17	-3.85022463502014E-18
51.6	-7.35692611666304E-18	-2.21147345286944E-17	-0.929479113432774	0.0738930015287633	-0.929479113432774	0.0738930015287632	6.89512542881546E-18	7.29707413392601E-18
51.7	-1.32059845008939E-17	1.58273725123069E-18	-0.920368376706909	0.22427948265325	-0.920368376706909	0.22427948265325	-1.83918943449949E-18	-8.0030527259631E-19
51.8	7.80495217664098E-18	-4.16341469479113E-18	-0.812925207387018	0.367331272232517	-0.812925207387018	0.367331272232517	-1.78713699182164E-17	-1.57374737885117E-17
51.9	-1.3787803674564E-18	5.97387293530093E-18	-0.817663364411213	0.49200312602859	-0.817663364411212	0.492003126028589	-3.9351809433997E-18	-1.28136268693183E-17
52	-7.22878517969222E-18	-1.17593332874954E-18	-0.667796194414247	0.627881564347132	-0.667796194414247	0.627881564347132	-2.40703042703849E-17	-3.89231780881156E-19
52.1	-3.00961871995143E-19	5.19705874219169E-18	-0.567511501821966	0.708764229077331	-0.567511501821966	0.708764229077331	1.21805539151326E-17	2.03359484941473E-18
52.2	-1.2053182799783E-17	8.9297332648696E-18	-0.476263533261603	0.792675413252382	-0.476263533261603	0.792675413252382	-1.25755609791157E-17	7.94738782798597E-18
52.3	-8.4382272666438E-18	-2.43603467209192E-17	-0.349371911374202	0.857622382596485	-0.349371911374202	0.857622382596485	-1.90073912800426E-17	-6.08951707295727E-18
52.4	2.06176162650038E-18	-1.24853034944719E-17	-0.197242403507595	0.934074752333082	-0.197242403507595	0.934074752333083	7.062615953253E-18	-3.3526820341114E-19
52.5	3.78450843874895E-17	1.96763136542599E-18	-0.0698075819231691	0.878003110360942	-0.0698075819231696	0.878003110360942	2.48224111519878E-17	6.69794279192986E-18
52.6	1.139696780767E-17	-1.63823006441446E-17	0.0579479665154714	0.948214567989683	0.0579479665154713	0.948214567989683	-4.12965634891034E-17	-2.80562896056566E-17
52.7	2.14790571065492E-17	7.1282157747799E-18	0.266902332986173	0.92014540514821	0.266902332986173	0.920145405148209	2.91139514698931E-18	-4.89659878149526E-17
52.8	6.89080040988424E-18	-1.27618545744049E-17	0.299271972926718	0.75591144991808	0.299271972926718	0.75591144991808	2.95099103898913E-18	-3.55740452888376E-18
52.9	-9.67826055461253E-18	3.83822250690154E-18	0.565760375790679	0.860757743864568	0.565760375790679	0.860757743864568	1.35164830615141E-17	5.84003804771098E-18
53	-3.82936389819825E-17	-3.40270010532041E-18	0.578778505110096	0.654797702770192	0.578778505110096	0.654797702770192	1.0112200460673E-17	4.58854823304112E-18
53.1	4.31379076027974E-18	1.27846746446223E-17	0.690544320587859	0.624279135638984	0.690544320587859	0.624279135638984	3.60783165823971E-17	2.80835890257952E-17
53.2	1.35106069062098E-17	2.33102717258471E-17	0.833004955464086	0.496956643856806	0.833004955464086	0.496956643856807	1.63006332642924E-17	-4.16242867365661E-18
53.3	3.00558956132029E-17	-9.82734641337689E-19	0.843606001566678	0.372093656231273	0.843606001566678	0.372093656231273	2.65162113426871E-17	-3.21987066258627E-17
53.4	-3.86771911458706E-18	-1.59487930796339E-18	0.879516515404489	0.174221728566957	0.879516515404489	0.174221728566957	-1.58431973539075E-17	-2.01091803195659E-17
53.5	-2.7601596203771E-18	-1.31391831703067E-17	0.944689366460351	0.13452338306377	0.944689366460351	0.13452338306377	2.28568461210307E-17	-1.63843914299091E-17
53.6	-1.61532505471878E-17	-8.46791517965953E-18	0.94117170493684	-0.0717563392427446	0.941171704936841	-0.0717563392427446	1.15092518130765E-17	1.38710772482421E-17
53.7	1.78908393140358E-17	2.07046320975654E-17	0.850228169152631	-0.2267450928294	0.850228169152632	-0.2267450928294	5.43893525675822E-17	6.71667974846567E-18
53.8	3.47511312784875E-19	-5.65374833633235E-18	0.951791953168043	-0.289055398904109	0.951791953168043	-0.28905539890411	-9.51386642431059E-18	4.30053967069698E-18
53.9	1.55156926429118E-17	1.97417921540978E-18	0.810304142653781	-0.467029501824784	0.810304142653781	-0.467029501824784	8.36698545222062E-18	-1.44425976066471E-17
54	-1.32320188663848E-17	1.02931149936146E-17	0.709229541497993	-0.579263054491933	0.709229541497993	-0.579263054491933	1.08218396331565E-17	5.17469527652956E-18
54.1	-9.15399712631778E-18	7.67515213244014E-18	0.636029269159604	-0.6477994059084	0.636029269159604	-0.6477994059084	1.29177407776941E-17	2.62304063747207E-18
54.2	-8.58793192338319E-18	2.86191112770096E-17	0.542830615925382	-0.749506084870504	0.542830615925381	-0.749506084870504	1.17827002687498E-17	4.30418416566418E-17
54.3	-1.1670974354588E-17	-8.48269156173718E-18	0.375725581452728	-0.8458983586592	0.375725581452728	-0.8458983586592	-2.06518562253178E-17	2.63694317191883E-18
54.4	-2.06151122597954E-17	-1.54802497383264E-18	0.320978782645284	-0.821956518427693	0.320978782645284	-0.821956518427693	-1.0984155363281E-17	1.19193225971979E-17
54.5	-1.39562917216612E-17	-4.96702646662857E-17	0.126696860967554	-0.965193888442951	0.126696860967554	-0.965193888442951	-1.91675059711697E-17	1.68593229869265E-18
54.6	1.82987425338276E-17	5.19576381977576E-18	-0.00980447643269535	-0.897832190577702	-0.00980447643269561	-0.897832190577701	-4.2556767870975E-18	-2.70477456758404E-18
54.7	4.19084947049069E-19	1.43775082294876E-17	-0.1172033526016	-0.94106987952356	-0.1172033526016	-0.941069879523559	8.69666557629315E-18	-2.2003410664576E-18
54.8	8.92539602034024E-18	3.3376479118989E-18	-0.281365623832217	-0.906013663889888	-0.281365623832217	-0.906013663889888	7.87987988514633E-18	5.95093500574502E-18
54.9	5.69828215046539E-18	-3.06678935599874E-18	-0.410104459360743	-0.827059337358112	-0.410104459360743	-0.827059337358111	1.28770922542784E-17	-2.27994795220807E-18
55	-3.3840697814694E-18	3.94933824448073E-18	-0.514912935069088	-0.785216643127951	-0.514912935069087	-0.785216643127951	-3.65780162350434E-18	8.4165634124273E-18
55.1	6.15085574831022E-18	1.12945073222936E-17	-0.643355258419978	-0.694726584223482	-0.643355258419978	-0.694726584223482	1.75947142298745E-17	1.46117848352012E-17
55.2	5.80554110121357E-18	2.65838063539416E-18	-0.713479818424416	-0.588833235954863	-0.713479818424417	-0.588833235954863	-1.35837080263842E-18	-1.48574581057558E-17
55.3	-1.58261821441885E-17	7.46935939600433E-18	-0.814667983648368	-0.456525674957003	-0.814667983648369	-0.456525674957004	-1.35875232923245E-17	3.8820159407803E-18
55.4	5.76755505052839E-18	-2.27083283266728E-18	-0.863526432108043	-0.372856389106082	-0.863526432108044	-0.372856389106082	7.49602714926808E-18	3.48055169690808E-18
55.5	-6.73888612782391E-18	-6.21644471809404E-19	-0.931447594092569	-0.213556808645251	-0.931447594092568	-0.213556808645251	1.69284317293392E-17	-5.88632141352682E-18
55.6	-8.43010580159909E-20	-1.53914087428529E-18	-0.924270128763125	-0.088192870108626	-0.924270128763124	-0.0881928701086261	1.28243486273158E-17	-1.12362881178506E-17
55.7	8.46418285383283E-18	-7.0444452105369E-18	-0.951104560798902	0.0410683206333148	-0.951104560798903	0.0410683206333148	1.77714235709467E-17	4.77452667534127E-18
55.8	8.38478897314654E-18	-3.11542608854528E-19	-0.927133971296139	0.196470581963159	-0.927133971296139	0.196470581963158	-1.08414732767955E-17	8.22012733502952E-18
55.9	-1.02969040646494E-17	3.37140182701243E-18	-0.8922397914691	0.317422274822233	-0.8922397914691	0.317422274822233	-8.28760652934958E-18	1.0764575381889E-17
56	3.93985288383286E-18	-6.33768825773523E-18	-0.810740540341035	0.450628574633979	-0.810740540341034	0.450628574633979	5.34463046457163E-18	-1.42513176690036E-17
56.1	-4.93389014816094E-19	1.47808810080523E-18	-0.768991442013198	0.554011223018458	-0.768991442013199	0.554011223018459	-1.23160148776149E-17	-7.3966773349553E-18
56.2	1.72900409469969E-18	-7.9535858662923E-18	-0.683926148965842	0.672625295573585	-0.683926148965842	0.672625295573584	9.5230281285598E-18	3.35163363444459E-18
56.3	-1.52620427621041E-18	-5.04541271613413E-18	-0.527648347523465	0.766526450568804	-0.527648347523465	0.766526450568805	-2.60002404888663E-17	3.50396627235915E-18
56.4	8.04559097958135E-18	-3.41586860915681E-17	-0.470437067783356	0.828741659470121	-0.470437067783356	0.82874165947012	-4.43496952793306E-19	-4.37684993571999E-17
56.5	4.98201021640663E-18	-8.50244090735389E-18	-0.329181495749756	0.908597738249209	-0.329181495749756	0.908597738249209	-7.26382474163664E-18	8.70887693497343E-18
56.6	-1.10949665724052E-17	-4.62912057131693E-18	-0.18275047518563	0.912619489885751	-0.18275047518563	0.912619489885751	-2.42842295009696E-17	1.91772740737656E-17
56.7	-1.13498645579563E-17	9.51340422210284E-18	-0.0589605681940892	0.943521996429384	-0.0589605681940887	0.943521996429384	0	0
56.8	-7.96561197205506E-18	9.51234328668201E-19	0.0571186274241821	0.960018266280609	0.0571186274241821	0.960018266280609	-3.07952358600919E-18	-1.90223453000653E-17
56.9	-5.60037376703722E-18	-2.10327662942786E-17	0.203577408439857	0.916959859646842	0.203577408439857	0.916959859646842	-7.92657922383874E-19	-2.15890266241691E-17
57	-5.14707663235653E-18	3.19304220742709E-18	0.358459666314414	0.84755960428746	0.358459666314414	0.84755960428746	-4.69093156712824E-17	-1.073177812711E-17
57.1	-4.10456322888395E-18	-7.84738388891309E-18	0.457738135583683	0.816088376608089	0.457738135583683	0.816088376608089	-2.64247380669537E-17	-1.79250821390395E-17
57.2	2.29902686598202E-18	6.80940783489768E-19	0.574361416620899	0.769143329373117	0.5743614166209	0.769143329373117	-2.52061652785088E-17	-2.74714253743864E-17
57.3	1.52062095081345E-18	-2.50944089273754E-19	0.718712013695927	0.609825827709854	0.718712013695927	0.609825827709854	-2.41089039540833E-17	2.42850659675024E-17
57.4	8.60204312445567E-18	1.78545487563529E-17	0.725270636381125	0.530876769615154	0.725270636381125	0.530876769615154	2.47622017562151E-17	3.9091502551402E-18
57.5	1.02635669465923E-18	1.67392038641164E-17	0.848968688658698	0.442526861840185	0.848968688658699	0.442526861840185	-2.14131266726319E-17	1.93233139886226E-17
57.6	-1.47701800251656E-18	4.75543819877438E-18	0.906914195390083	0.291959935967775	0.906914195390083	0.291959935967775	-8.73449420349791E-19	1.87605165279172E-17
57.7	9.05102141209119E-18	1.08491741368761E-17	0.895402901037079	0.155448415564991	0.895402901037079	0.155448415564991	1.54205349026583E-17	-5.6647279916417E-19
57.8	6.80370675006186E-18	1.24165549298853E-17	0.942789182544071	0.051647868477294	0.942789182544071	0.0516478684772943	2.41826216913036E-17	1.35484649350027E-17
57.9	-8.18198532006264E-18	-1.15178336344876E-17	0.951893800347005	-0.0659687806269511	0.951893800347006	-0.0659687806269511	2.02660282310518E-17	-1.47822589337254E-17
58	3.33371872029287E-18	-2.01195089355621E-17	0.897265591336406	-0.262200509603921	0.897265591336405	-0.262200509603921	2.6037207006414E-18	1.25944344348087E-18
58.1	-1.02627891554513E-17	-5.70571778799906E-18	0.83447619044616	-0.333543610798644	0.834476190446161	-0.333543610798644	1.80231372437315E-17	-7.47872837144292E-18
58.2	8.01683143750442E-18	-3.10305982021818E-17	0.816757741233362	-0.47286756886921	0.816757741233362	-0.47286756886921	-2.80222806834639E-18	-3.54606214452459E-17
58.3	-6.36028091406918E-18	-7.44053867230236E-18	0.723397421320235	-0.598277480192692	0.723397421320235	-0.598277480192693	-1.96971929413055E-17	-6.87581242779961E-18
58.4	-8.22562233990342E-18	-1.07961776156576E-17	0.623092145441929	-0.627829066601723	0.623092145441929	-0.627829066601723	6.16747815169071E-20	8.14338929788088E-18
58.5	-1.5143224956981E-18	4.29933785249914E-19	0.574285683092987	-0.760028946219421	0.574285683092987	-0.760028946219421	9.06682647954182E-18	8.88052232888707E-18
58.6	-1.82172893792153E-17	5.56671861218544E-18	0.427143567336619	-0.828048939107457	0.427143567336619	-0.828048939107457	3.73857089394193E-18	1.30494026653432E-17
58.7	1.81188775776369E-17	1.09335728578977E-17	0.297514727301589	-0.84712901655418	0.297514727301589	-0.84712901655418	1.24897388275012E-18	9.06449119599202E-18
58.8	1.36413823559892E-18	2.23675271954825E-18	0.197573974219277	-0.893708553496211	0.197573974219277	-0.893708553496211	1.4033128884589E-17	-9.5026632821925E-18
58.9	5.77670021208573E-18	1.92230914952406E-18	0.0917068006602952	-0.928552104350647	0.0917068006602953	-0.928552104350647	1.21481878670604E-17	8.58337231513232E-18
59	-2.80902262770727E-18	8.94138700725105E-18	-0.0804381626437665	-0.909158855133695	-0.0804381626437664	-0.909158855133695	1.16394451891494E-17	7.64895856513753E-18
59.1	2.9000525313799E-18	-4.22228312366785E-18	-0.171333414206016	-0.888597737509746	-0.171333414206016	-0.888597737509746	-5.93556351932356E-18	4.64313263933133E-19
59.2	-2.73462144783398E-18	-7.01251547288541E-18	-0.290811026257778	-0.893763399532333	-0.290811026257779	-0.893763399532333	2.58891436984737E-18	-6.85946986736197E-18
59.3	-8.14334896454106E-18	3.70458473450928E-18	-0.443366083976734	-0.792184820676576	-0.443366083976734	-0.792184820676576	-1.38532215309084E-17	6.17663575862927E-18
59.4	-2.73802417914135E-18	-8.83317353516968E-18	-0.509520864043382	-0.753578070557534	-0.509520864043383	-0.753578070557533	-6.31815543012335E-18	-1.02703421803041E-17
59.5	2.2883543260779E-18	-1.00139366098802E-18	-0.63824236608117	-0.671752556029562	-0.63824236608117	-0.671752556029561	2.09581799043178E-17	-1.53699759748681E-18
59.6	-1.16917365144516E-17	1.16941928170489E-17	-0.712651489783141	-0.556361230208829	-0.712651489783141	-0.556361230208829	-6.8749635205331E-19	3.09526877336323E-18
59.7	2.75948480615318E-18	6.91882659779137E-18	-0.790096282043141	-0.479871145111777	-0.790096282043141	-0.479871145111777	-2.07604570398837E-18	-5.60340518844958E-18
59.8	-6.51804793302617E-18	1.26772313137956E-17	-0.857824072806152	-0.360993264515592	-0.857824072806152	-0.360993264515592	3.22313751128741E-18	-3.15136460083606E-18
59.9	5.54860125137509E-18	1.6206596896745E-17	-0.885066331673812	-0.249869251292618	-0.885066331673811	-0.249869251292618	-7.42494218206443E-18	1.78180456579919E-19
60	1.04151696017745E-17	1.28735617255556E-19	-0.910112115745908	-0.102108909672592	-0.910112115745907	-0.102108909672593	-1.56544561482344E-17	2.29266324126223E-17
60.1	9.82637561105922E-18	-5.90943147703088E-18	-0.905406665935656	0.0100915783147178	-0.905406665935656	0.0100915783147178	1.37852600899028E-17	1.21403182749408E-17
60.2	-9.06991790407774E-18	9.9597660874368E-18	-0.921257704686299	0.113011715038883	-0.921257704686298	0.113011715038883	-1.28758547023806E-17	1.01377357241086E-17
60.3	-1.23679907025938E-17	1.04712373858077E-17	-0.876948972592213	0.276990385846452	-0.876948972592213	0.276990385846452	-7.1427091392495E-18	7.70072169229956E-18
60.4	2.1810829684226E-17	9.67737723195105E-18	-0.822460887782114	0.346878088663046	-0.822460887782114	0.346878088663047	1.20185076510609E-17	3.51098301800856E-18
60.5	1.09076665219493E-17	-3.62344849899118E-18	-0.785355290578804	0.484819221733469	-0.785355290578804	0.484819221733469	6.94548335771497E-18	-6.43610905218064E-18
60.6	-4.29867996798015E-18	-1.56147629853183E-17	-0.705996513785004	0.580190296225823	-0.705996513785003	0.580190296225823	-5.97403288598954E-18	-3.39482490520145E-18
60.7	-5.15045466105518E-18	-9.00936883089916E-18	-0.617696588774698	0.673867249397848	-0.617696588774698	0.673867249397849	1.75719772609739E-18	-4.88223654057121E-18
60.8	-2.60742118663498E-17	6.42419684261647E-18	-0.524792928012702	0.756878507350095	-0.524792928012703	0.756878507350095	-6.11484279354891E-18	1.50398739775098E-18
60.9	-2.81665717043383E-18	2.81978096227039E-17	-0.42645758536092	0.818126986520019	-0.42645758536092	0.818126986520019	-8.58123386104223E-21	9.0120524250825E-18
61	-7.14221991347451E-18	1.39622020258837E-17	-0.298474613916355	0.869893865457807	-0.298474613916355	0.869893865457807	-1.28205271186464E-17	1.97690219578927E-17
61.1	8.81036679225018E-18	6.51527663191285E-18	-0.175934630503588	0.886637191944246	-0.175934630503589	0.886637191944246	6.49317342500518E-18	1.91569072447683E-18
61.2	9.73077198515473E-20	-2.34658090778071E-17	-0.071836268096445	0.907652846085946	-0.0718362680964451	0.907652846085946	7.91141208363884E-18	-1.76704750873126E-17
61.3	1.22634510128621E-18	1.33943820418628E-17	0.0552170747474009	0.926354897959561	0.0552170747474008	0.926354897959561	1.26269717367663E-17	1.90830820769403E-17
61.4	6.51506334053775E-18	-4.89265502872579E-18	0.210704644461897	0.888850253160494	0.210704644461897	0.888850253160495	1.10790848284685E-17	-3.74299967607024E-18
61.5	-7.56081058824515E-18	-5.58167705649061E-18	0.279220541434734	0.847729898980786	0.279220541434734	0.847729898980787	-2.02509415749625E-19	-2.00394791146689E-17
61.6	-4.58165925505467E-18	-1.51073602639925E-18	0.420748121276776	0.838097645592452	0.420748121276776	0.838097645592452	-1.84749905477894E-18	-5.18100854802868E-18
61.7	-2.80709404270174E-18	-9.7494701933287E-19	0.536419055648913	0.754158305247363	0.536419055648913	0.754158305247364	1.0732659936901E-17	-1.27873496855184E-17
61.8	-1.55389355335789E-18	1.64092437206062E-18	0.610741546811388	0.663941146461874	0.610741546811388	0.663941146461874	6.18377263254851E-18	2.28792305811022E-18
61.9	-1.18115141580163E-17	6.4079322096265E-18	0.702530560477664	0.57409680898651	0.702530560477664	0.57409680898651	8.40464502662148E-18	2.34268402805471E-17
62	1.49869025239746E-17	8.48763556143747E-18	0.769682715196236	0.498967622604952	0.769682715196236	0.498967622604952	1.1165704608378E-17	6.19917294082543E-18
62.1	-1.03306025591955E-17	-4.91813871872136E-18	0.847977641729918	0.383380293476419	0.847977641729917	0.38338029347642	-1.14978765822023E-17	-5.39191731134464E-18
