# GHZ S RI R 50
50	1.93228652266807E-19	7.69706353930969E-18	0.784484780966656	-0.551217892102338	0.784484780966656	-0.551217892102337	-3.89131326229748E-18	-1.4019136427119E-18
50.1	-2.24761962403873E-17	9.13595492414477E-18	0.659411666440811	-0.6611765554344	0.659411666440811	-0.661176555434401	2.25480256346253E-18	-5.30028933423848E-18
50.2	-4.44808384458342E-18	-6.57519961668817E-18	0.554435393189447	-0.754480780518712	0.554435393189446	-0.754480780518712	-1.13556144934724E-18	-3.62826824314826E-18
50.3	-1.42383228191644E-17	-1.58268818915633E-17	0.433985631145468	-0.861668955362058	0.433985631145468	-0.861668955362058	1.06682248572582E-17	-1.87535315571229E-18
50.4	2.95245521223741E-17	-1.53703002071083E-17	0.242381901669629	-0.887205230809131	0.242381901669629	-0.88720523080913	-6.55714611635027E-19	1.40974863195182E-17
50.5	-1.20572350429148E-18	1.26846255309562E-17	0.132615012882713	-0.9406545567394	0.132615012882714	-0.9406545567394	-5.25459972283083E-19	-6.66690966733585E-18
50.6	6.99433133186261E-18	9.36110288766522E-18	-0.0422771502894778	-0.938521787765758	-0.0422771502894781	-0.938521787765757	-1.52488401883733E-18	1.37660808694354E-19
50.7	9.34664336992692E-18	-1.68490949608004E-17	-0.180268272228859	-0.913689641944812	-0.180268272228859	-0.913689641944813	-6.7101974319504E-18	-4.97848635225554E-19
50.8	-1.30669590886718E-17	1.18085407425345E-17	-0.345102851350975	-0.896591770118684	-0.345102851350974	-0.896591770118684	-8.8168329665955E-18	-4.98042482245107E-18
50.9	9.2212201252855E-19	2.90138376871889E-17	-0.469951945891981	-0.792200532412602	-0.469951945891981	-0.792200532412601	4.33045972148538E-18	2.58444107469226E-17
51	1.75072984950987E-17	1.73582762081341E-17	-0.609030898272739	-0.726586454903665	-0.609030898272739	-0.726586454903666	2.35238031623623E-18	-4.33346477871446E-18
51.1	-1.64114412421918E-17	-5.65646529176767E-18	-0.714050320247524	-0.613290173322419	-0.714050320247524	-0.613290173322418	6.90068033479276E-18	-5.71805690253992E-18
51.2	9.62888561227667E-18	-1.18143373431287E-17	-0.797959516020826	-0.484841239259143	-0.797959516020826	-0.484841239259143	-1.5388400237077E-19	-1.01439850500032E-17
51.3	5.5239903604262E-18	1.38237806478896E-17	-0.870666425761442	-0.351392367528436	-0.870666425761442	-0.351392367528436	1.16367149444689E-17	-1.42713830705217E-17
51.4	-1.77585528889439E-17	-3.77015715169191E-18	-0.931108867644706	-0.225612509656747	-0.931108867644705	-0.225612509656747	-1.31666321993235E-18	-1.57330252017301E-18
51.5	-1.77958099219933E-18	1.66578304660559E-17	-0.923012782791403	-0.0389428333806804	-0.923012782791403	-0.0389428333806805	-2.06959195399214E-19	-3.27053871769086E-17
51.6	2.06545921338728E-17	1.29677978949485E-17	-0.938618701309666	0.0768483000235865	-0.938618701309667	0.0768483000235865	1.61939686567967E-17	-3.44927491306147E-18
51.7	2.12474162654168E-17	-3.074481228289E-18	-0.92896001973709	0.228806648158615	-0.928960019737091	0.228806648158616	-2.86186775209132E-18	-5.67085609835485E-18
51.8	7.91699137720293E-18	2.46836609642274E-17	-0.820579787202973	0.37292540884778	-0.820579787202972	0.37292540884778	1.51162726555445E-17	1.97120064680361E-18
51.9	-2.19636425027615E-17	3.74300009091158E-18	-0.824495061689783	0.499204068720305	-0.824495061689783	0.499204068720305	3.30415833661674E-17	6.37103671425916E-18
52	7.02209234696454E-18	-5.55844339891443E-18	-0.673192609458538	0.635832184077781	-0.673192609458539	0.635832184077781	2.80004103709015E-18	-2.29334912507787E-17
52.1	-7.24217895676507E-18	-5.45508707385435E-18	-0.57167076886554	0.717539289690624	-0.57167076886554	0.717539289690624	-9.55429896424138E-18	4.06250856478061E-18
52.2	9.82103902125899E-18	-1.31058616437872E-19	-0.47900543339807	0.802223136740269	-0.47900543339807	0.802223136740269	1.05005676795692E-18	-4.43645657992682E-18
52.3	1.36025804812025E-17	-5.33879475602551E-18	-0.350551365613306	0.86756622590339	-0.350551365613306	0.867566225903391	2.17753492947299E-17	1.68077099395057E-17
52.4	-2.41464955575169E-18	5.5472911427452E-18	-0.196575477907071	0.944133157250183	-0.196575477907071	0.944133157250182	-1.49147279991114E-17	-2.23281904173948E-17
52.5	3.35641235779082E-17	7.95665169175605E-18	-0.0680205225460219	0.887820472056309	-0.0680205225460218	0.887820472056309	1.8611531652402E-17	5.65193230142388E-18
52.6	8.67485626219264E-19	-5.75330470872976E-18	0.0617019680616249	0.957924493393464	0.0617019680616252	0.957924493393463	2.69013676479692E-17	8.60805362486062E-18
52.7	2.62453345709455E-17	1.98456435057401E-17	0.272295158617539	0.928767347532263	0.272295158617539	0.928767347532261	2.52906754308146E-17	-2.70949744407126E-18
52.8	-1.58294111624364E-17	2.08617436994532E-18	0.305058735580441	0.763954327607531	0.305058735580441	0.763954327607531	-7.87114460938851E-18	1.55747867151386E-17
52.9	5.10598935270349E-18	1.43970580844229E-17	0.574215233662016	0.867267293765303	0.574215233662016	0.867267293765304	-2.17820614695497E-17	-2.55469955191084E-17
53	2.55636923828089E-17	3.00959021537408E-18	0.587217524321718	0.660405562642723	0.587217524321718	0.660405562642723	-6.42559779057182E-18	-6.12886711389941E-17
53.1	-2.76514686286439E-18	3.00330078650907E-18	0.700297916192505	0.628581640687455	0.700297916192505	0.628581640687455	1.98933281929382E-17	-1.60596042196323E-17
53.2	1.52310899602445E-17	2.77586299928302E-17	0.843433446218782	0.499267569278167	0.843433446218783	0.499267569278168	1.44935713054472E-17	-1.29965866879213E-18
53.3	-2.04936810382659E-17	-1.0517097102291E-18	0.854244271803351	0.373154310012673	0.854244271803352	0.373154310012673	-1.83478295630943E-17	3.3431553000084E-17
53.4	6.5348948595811E-18	1.80323626697278E-17	0.889787703507108	0.173495479055821	0.889787703507108	0.173495479055821	3.17799821159533E-18	-2.50016848453203E-19
53.5	2.63943039704672E-17	1.56996753876728E-18	0.955601891247282	0.132117151136384	0.955601891247282	0.132117151136384	-2.33327529717036E-17	-4.51554955503252E-17
53.6	-3.32485212020928E-17	2.14417650598212E-18	0.951155836086115	-0.0759450225054233	0.951155836086115	-0.0759450225054232	-4.68932178945299E-17	2.67324923050287E-17
53.7	-5.30064982033906E-18	1.58095429054689E-17	0.859215314528841	-0.232020696084675	0.859215314528842	-0.232020696084675	-2.80886867976424E-17	-1.12898929156498E-18
53.8	5.21164599075886E-18	-1.69837471070405E-18	0.960817582819114	-0.296595926458853	0.960817582819114	-0.296595926458854	7.77278148092872E-18	-1.05713021903703E-18
53.9	1.79017103304139E-17	3.04842151783082E-18	0.81754430159872	-0.475372287918497	0.81754430159872	-0.475372287918497	-1.56689928633667E-18	-1.60656967328046E-17
54	-4.43771047426575E-19	-1.60323854319125E-18	0.715102822972487	-0.588509712928573	0.715102822972486	-0.588509712928572	5.78298430039967E-18	-1.40284353765658E-17
54.1	2.39596510934597E-17	-7.22253250219569E-18	0.64074277565396	-0.657971555079439	0.64074277565396	-0.657971555079439	6.9640956896372E-18	-1.33582479847726E-17
54.2	1.1452093468174E-17	8.96893989749906E-18	0.545877606729811	-0.760482689490115	0.545877606729811	-0.760482689490116	1.82559426099322E-17	-2.95544289011827E-18
54.3	1.71957280671767E-17	2.54853587275186E-17	0.376726696955987	-0.856977235452248	0.376726696955987	-0.856977235452248	1.55030441014088E-17	2.28007525396367E-18
54.4	9.01606496405313E-18	-5.84013265858431E-18	0.321076734634465	-0.833485491784578	0.321076734634465	-0.833485491784579	1.20700893754687E-17	-1.33415871083378E-17
54.5	3.57025854383285E-18	1.30715592916933E-17	0.12394790229577	-0.976475155359944	0.12394790229577	-0.976475155359944	-1.46467314300717E-17	-3.77922840368448E-18
54.6	-1.11073717906206E-17	1.17946541514806E-17	-0.0136283807586961	-0.908470239883023	-0.013628380758696	-0.908470239883023	-3.09748238997442E-17	1.81215327027585E-17
54.7	6.13668146761021E-18	-4.91541539350696E-18	-0.122997841174235	-0.951460202860875	-0.122997841174234	-0.951460202860875	9.91868064364343E-19	1.7899314868407E-17
54.8	1.5576927724829E-17	2.74116974257738E-18	-0.288739707193337	-0.915222568792103	-0.288739707193337	-0.915222568792103	2.88416806847835E-18	9.68429291206724E-18
54.9	-5.58700848924381E-18	2.8968943478315E-18	-0.418605796860295	-0.835028785144811	-0.418605796860295	-0.835028785144811	-2.58695404146307E-18	-6.65424050141854E-18
55	2.63700396520314E-18	-8.23674614422394E-18	-0.524777431639425	-0.792055383710616	-0.524777431639425	-0.792055383710617	1.80841766357599E-17	-2.54697252644222E-18
55.1	1.48563467069217E-17	4.49328224632259E-18	-0.654216827300384	-0.69985511709251	-0.654216827300384	-0.69985511709251	5.76443329060812E-18	9.16561453159522E-18
55.2	-6.76430008313758E-18	6.80497768105191E-18	-0.724947189502065	-0.592499866790158	-0.724947189502064	-0.592499866790157	-1.32723928989737E-17	-4.07555242617507E-19
55.3	-3.67495012356727E-18	4.35122555682937E-18	-0.826522301068408	-0.458173262661038	-0.826522301068407	-0.458173262661038	-8.94739812733052E-18	-1.72439785699049E-17
55.4	1.55823652556912E-17	-8.05812581334204E-19	-0.875904291724191	-0.372930259747113	-0.875904291724191	-0.372930259747113	1.73478111453768E-17	-5.77466376940034E-18
55.5	-2.93392815822152E-18	-1.38454008637385E-18	-0.943590619672915	-0.21146167711533	-0.943590619672915	-0.21146167711533	-2.74442159677898E-18	-1.69895559513407E-17
55.6	9.2631445625379E-19	-2.94647118477381E-18	-0.936062308647431	-0.084588268799725	-0.936062308647431	-0.0845882687997252	-1.7756189015857E-18	-1.58998752455515E-17
55.7	1.07199388404599E-17	6.24098560128975E-18	-0.962444593736499	0.0466216008185522	-0.962444593736499	0.0466216008185522	9.92997171422699E-18	2.27214697194191E-18
55.8	8.11552016471059E-18	-7.21046792120643E-18	-0.937398766621408	0.203680703654505	-0.937398766621408	0.203680703654505	-8.14762030963877E-19	-1.71733226759784E-17
55.9	1.38859154240534E-17	-9.48491570224163E-18	-0.901502864961351	0.326123799141235	-0.901502864961352	0.326123799141235	1.85754284090646E-17	1.13239157279132E-18
56	-1.43411053784122E-17	7.39888709234315E-18	-0.818503619404009	0.460448233160597	-0.818503619404009	0.460448233160597	5.89124240827048E-18	-2.14834082279934E-17
56.1	2.49861219283083E-18	-2.55235895004672E-18	-0.775461822629618	0.565214335183569	-0.775461822629617	0.565214335183569	3.49805706996316E-17	-3.57330253006541E-17
56.2	8.80265282652077E-18	-1.58777682228154E-18	-0.688584822989746	0.684816546448573	-0.688584822989746	0.684816546448573	8.18016280436269E-18	4.48890591544165E-20
56.3	2.08449955713747E-18	1.15934966590565E-17	-0.530273700175467	0.778851462207678	-0.530273700175466	0.778851462207678	-1.74986358899077E-17	1.02044588527682E-17
56.4	5.34197997049324E-18	1.56721672047747E-17	-0.471495028553857	0.841957335826819	-0.471495028553857	0.841957335826819	1.99472703129946E-17	2.94564340330313E-17
56.5	1.31129427327246E-18	-1.60927720113598E-18	-0.328010082306641	0.921812741786576	-0.328010082306641	0.921812741786576	1.67845666978875E-17	-2.05987481745405E-17
56.6	-8.40121271859698E-18	-1.21248529390694E-17	-0.179931941367555	0.925353304545352	-0.179931941367555	0.925353304545352	-7.96796392618806E-18	-1.31967861514563E-17
56.7	4.30955336237116E-18	-2.7110316154656E-18	-0.0541713384345505	0.955926650676522	-0.0541713384345503	0.955926650676523	-1.12771665055549E-17	1.47229561221582E-17
56.8	-1.36088605977334E-17	1.0095067405247E-17	0.0638185816194013	0.971934148919098	0.0638185816194013	0.971934148919098	-2.40443738563248E-17	6.49131811028315E-18
56.9	7.0748492004306E-19	-3.40783219395636E-19	0.211771271857674	0.927643061789887	0.211771271857674	0.927643061789887	9.04179307304905E-18	6.10433650474727E-18
57	-3.09914858965998E-17	-2.39224902796395E-18	0.367959849157107	0.856610451469127	0.367959849157107	0.856610451469128	-4.97871891709896E-17	1.30286968296987E-17
57.1	1.03589028549204E-17	1.61338493013631E-17	0.468744469236759	0.824001296522448	0.468744469236758	0.824001296522448	1.85075357699072E-17	1.46303725905271E-17
57.2	-1.35573375320917E-17	-1.23522589955802E-17	0.586775843822507	0.775462682682722	0.586775843822507	0.775462682682723	-1.9148999859747E-17	1.40995004757197E-18
57.3	-2.93066102974668E-18	1.97842838067849E-17	0.731398597113659	0.61361890398707	0.731398597113659	0.61361890398707	7.05277379882601E-18	3.57203336200312E-18
57.4	-8.0181584773401E-18	1.93348174370475E-17	0.738487244394375	0.533679683140197	0.738487244394375	0.533679683140197	-1.95277512432992E-17	2.35184982169095E-17
57.5	-2.27602061183188E-17	3.27635185694008E-18	0.862964945179364	0.442876203645381	0.862964945179364	0.442876203645382	-2.42419333037168E-17	1.94066766299472E-17
57.6	5.69328440773443E-18	-3.90692261616056E-18	0.920630447836956	0.290138839786791	0.920630447836957	0.290138839786791	9.40018932975018E-18	-9.20393457807703E-18
57.7	-2.41330617109902E-18	3.18666297250535E-17	0.908571543214537	0.152101573410349	0.908571543214537	0.152101573410349	9.61095409416583E-18	3.99012208868169E-17
57.8	-2.01720792481763E-17	-5.94143828692078E-18	0.955813489564283	0.0461297472308369	0.955813489564283	0.0461297472308369	-2.21870150816469E-18	-1.8105756083189E-18
57.9	-9.5579309242325E-18	-2.12664224249568E-18	0.964286573127124	-0.0734065437536146	0.964286573127124	-0.0734065437536145	-1.02974532400203E-17	-2.93661947272338E-18
58	-2.90833707837467E-18	2.83958952384991E-18	0.907690667448682	-0.271231091059647	0.907690667448682	-0.271231091059647	-1.0172798062941E-18	2.11511352779604E-17
58.1	-6.52889381569721E-18	-7.72047098341175E-18	0.844066104379428	-0.343645126788628	0.844066104379428	-0.343645126788628	-7.81267522387814E-18	-1.21297959348833E-17
58.2	-1.16469703577853E-18	1.02537208643925E-17	0.824716427094944	-0.484824355094855	0.824716427094943	-0.484824355094854	-3.17425806633545E-17	1.86721292431778E-17
58.3	-1.11704319208401E-17	-1.79388776018825E-17	0.729355014161468	-0.611167514744092	0.729355014161469	-0.611167514744092	-3.12055184825207E-17	-3.95021503240022E-18
58.4	5.64507670570028E-18	2.67658513840249E-18	0.627883837915768	-0.641143801245987	0.627883837915768	-0.641143801245986	-2.50144128106531E-18	1.40251198355821E-17
58.5	-7.70255191581911E-19	-8.2149981786341E-18	0.576748442745429	-0.774704444578519	0.576748442745429	-0.774704444578519	-7.12890350305545E-18	-1.24401441757702E-18
58.6	1.71332222059227E-17	1.81618637967201E-17	0.427412508583904	-0.842578590054601	0.427412508583904	-0.842578590054601	1.65533783972947E-17	1.47483239581814E-17
58.7	3.32521465993663E-17	7.6708129499686E-18	0.296044231561386	-0.861386040860394	0.296044231561386	-0.861386040860393	4.29005426692406E-18	1.51910860092001E-18
58.8	7.83305073417875E-18	-4.6853792269864E-18	0.194010664537131	-0.9079934870352	0.194010664537131	-0.9079934870352	-3.48352469093239E-18	-3.19843900225186E-18
58.9	-1.9043920679921E-17	4.45216454074786E-19	0.0860223170694485	-0.942578770408904	0.0860223170694487	-0.942578770408904	-9.97659288084308E-18	-1.44775930007398E-17
59	5.34184167116514E-20	-7.58297477903671E-18	-0.087990621753659	-0.921715195400211	-0.0879906217536588	-0.921715195400211	6.84435200689706E-18	-3.77991878785469E-18
59.1	-7.75441495514111E-18	1.27514480586471E-17	-0.180480582625697	-0.900436276801204	-0.180480582625697	-0.900436276801203	-5.48131080806968E-18	5.85658292047088E-18
59.2	-7.03014172755049E-18	-1.00079242034723E-17	-0.302043108338621	-0.904441948150374	-0.302043108338621	-0.904441948150374	-3.97903373457632E-18	3.237898009499E-18
59.3	-1.48565245629721E-18	6.82214022518114E-18	-0.455550578470855	-0.800618595319056	-0.455550578470855	-0.800618595319056	-6.11653905955629E-18	1.60558019806318E-17
59.4	-5.86654553155889E-18	-1.96734898003783E-17	-0.523043905306302	-0.760860643266253	-0.523043905306301	-0.760860643266252	-5.53475132754052E-19	4.53939252017771E-18
59.5	6.1651606842818E-18	-7.37420572510062E-19	-0.652809910522979	-0.676711554243011	-0.652809910522979	-0.676711554243011	-1.66044888180188E-17	-7.69501184461361E-18
59.6	-5.08036412801998E-18	-2.04983623697487E-18	-0.727543027326749	-0.559306119491687	-0.727543027326749	-0.559306119491688	-8.84626873462335E-18	8.41574367677775E-19
59.7	-6.33490692113696E-18	-2.78147289104034E-17	-0.805706465599821	-0.480730412522745	-0.805706465599821	-0.480730412522745	-7.03894838498008E-18	-6.61243431640257E-18
59.8	-1.1051145124645E-17	-2.40271254734392E-17	-0.873456011182941	-0.359514636370141	-0.873456011182941	-0.359514636370141	-1.67330978517783E-18	-7.10603162464389E-18
59.9	-1.23436913129115E-17	-1.47693023500015E-17	-0.900490068321258	-0.246428954520608	-0.900490068321258	-0.246428954520608	2.59416079800129E-18	-1.03236420378051E-17
60	1.25102610771614E-17	-1.19295328350292E-18	-0.924678129206208	-0.0964279776827932	-0.924678129206208	-0.0964279776827935	1.63021468764058E-17	-2.64431745997692E-17
60.1	2.80619304751002E-19	7.32657304656986E-18	-0.919242102598614	0.0175977596185301	-0.919242102598614	0.0175977596185301	-4.52222251507987E-18	-3.12858628810584E-18
60.2	-1.60916143295842E-17	2.18398066873308E-17	-0.93437159580851	0.122658391368069	-0.93437159580851	0.122658391368069	-2.4558629033743E-17	6.56086479780252E-18
60.3	-3.90774732572054E-18	1.77864533651448E-17	-0.888060605269057	0.288336281536038	-0.888060605269057	0.288336281536038	-5.14097632586022E-18	2.89596806002637E-17
60.4	-5.84426073766877E-18	-3.5474425944224E-18	-0.832519224392574	0.359399658600931	-0.832519224392574	0.359399658600931	3.23913565224759E-18	-1.35744179479141E-18
60.5	6.18630160071263E-18	-1.81596989547595E-17	-0.793328205523202	0.499056249337452	-0.793328205523201	0.499056249337451	4.31959006619948E-18	3.76515418853136E-18
60.6	1.84426112742443E-17	-1.23728630458774E-18	-0.712022430302907	0.595363118892644	-0.712022430302908	0.595363118892644	2.05825874471077E-18	-7.22141027411526E-18
60.7	1.99904633011119E-17	1.14463400458669E-17	-0.621536648196452	0.689788263186181	-0.621536648196452	0.68978826318618	-1.09930686547956E-18	3.8738863996983E-18
60.8	5.09217871654117E-18	-3.63974522560761E-18	-0.526357201969314	0.773347280603642	-0.526357201969314	0.773347280603642	0	0
60.9	2.08043806233408E-18	1.51951659559088E-17	-0.425816629701356	0.834853608313016	-0.425816629701356	0.834853608313016	4.36422028327119E-18	3.4222643873587E-18
61	-7.57543506435502E-19	2.11967650791824E-17	-0.295441622402671	0.886288941503861	-0.295441622402671	0.886288941503861	1.07497853742149E-17	4.92329632808495E-19
61.1	-2.39742134812705E-18	-1.39122496454563E-17	-0.170852671853158	0.902443775599347	-0.170852671853158	0.902443775599347	1.69509517061816E-17	-1.6140055203402E-17
61.2	6.6283415470451E-18	6.18100823504849E-18	-0.0646031069864989	0.922954683962004	-0.064603106986499	0.922954683962005	6.81708943083418E-18	2.08284532036486E-17
61.3	9.51285658273129E-18	-1.84416751822174E-17	0.0647865533484058	0.940623858085581	0.0647865533484059	0.940623858085581	-4.1624588151115E-18	-1.9537098009834E-18
61.4	-1.25354361594177E-17	-3.22386292345345E-17	0.222041767691701	0.901211974484276	0.222041767691701	0.901211974484276	-7.51195724033685E-18	-3.86431972171698E-18
61.5	-8.35606285114629E-18	-6.18815117311483E-18	0.291911564273262	0.859143097347728	0.291911564273262	0.859143097347728	6.9683042639278E-18	-2.65163985260051E-18
61.6	5.47390153983859E-18	1.94133947047943E-17	0.435599418514577	0.847468144320537	0.435599418514578	0.847468144320538	-5.36547959603787E-18	1.02023017636927E-17
61.7	1.55679845050095E-17	6.69749799930423E-18	0.552244357374718	0.76126387208384	0.552244357374718	0.76126387208384	8.85559151764004E-18	6.69704177060586E-20
61.8	-1.96246272514373E-18	7.73190813886872E-18	0.627208689588559	0.669108013915772	0.627208689588559	0.669108013915772	-2.18403608012026E-18	-1.41331722343318E-19
61.9	1.12398309475794E-18	5.04104246367251E-18	0.719648000315256	0.576862007483251	0.719648000315256	0.576862007483251	-8.84973326010461E-18	-9.17707549804972E-18
62	-7.22861909564061E-18	-8.26777639854568E-18	0.787437014753844	0.499547239500095	0.787437014753844	0.499547239500094	-1.43340851281603E-17	-7.42260650318498E-18
