# GHZ S RI R 50
50	-2.36212500814803E-17	1.41669777676801E-18	0.834923840059335	-0.593485150299528	0.834923840059335	-0.593485150299528	-1.97186610528272E-18	2.2048317255239E-18
50.1	1.82918656491987E-17	5.73145092982664E-18	0.700108555758026	-0.71290137032455	0.700108555758025	-0.71290137032455	-1.82761868940598E-17	-4.86563596014918E-18
50.2	-5.07838582045209E-18	2.86393523178787E-17	0.584600337440654	-0.810850573220388	0.584600337440654	-0.810850573220387	-2.46766570465745E-18	3.56227677784226E-18
50.3	1.15976782420302E-17	1.21759945957254E-17	0.455685209326011	-0.92104696714054	0.455685209326011	-0.921046967140539	-1.15154171345094E-17	3.02801817297074E-18
50.4	1.58439660648492E-17	-2.2911532553976E-17	0.250407600836484	-0.952109658395042	0.250407600836484	-0.952109658395041	1.33645397900952E-17	3.68980931670903E-18
50.5	3.20058366254285E-18	-1.19910706855758E-17	0.131473407804077	-1.00238133797529	0.131473407804077	-1.00238133797529	-5.87964049070285E-18	-8.90955846053517E-18
50.6	-1.44312389194659E-18	2.78449700148885E-18	-0.0549733421586968	-0.999916282795288	-0.0549733421586966	-0.999916282795287	5.95041625748167E-18	6.34462894954233E-18
50.7	5.29711518417234E-18	-2.18713557647325E-17	-0.203480189816151	-0.970222601060493	-0.203480189816152	-0.970222601060493	-7.31192844743914E-18	8.79302893035016E-18
50.8	-1.27803043332291E-17	-4.06437606541173E-19	-0.375674443875276	-0.949365685963058	-0.375674443875276	-0.949365685963057	2.93543251101459E-19	1.08835805635718E-17
50.9	-6.856680458561E-19	-5.97821257351225E-18	-0.511419640608046	-0.836971570001268	-0.511419640608046	-0.836971570001269	2.27477633844666E-19	-2.23898624464403E-17
51	1.41092082024847E-18	-9.13234445759281E-18	-0.65563902233738	-0.764712052554542	-0.65563902233738	-0.764712052554543	2.94149471898832E-18	4.0164820106062E-18
51.1	-1.75708010438057E-17	1.01666525643908E-17	-0.766361117756182	-0.642244316562411	-0.766361117756182	-0.642244316562411	-1.91208405649969E-19	8.84143856007448E-18
51.2	1.43570179962899E-17	-3.13353145239651E-17	-0.854269765536263	-0.503810540601937	-0.854269765536263	-0.503810540601937	-2.98643132719763E-18	1.65128942286515E-18
51.3	2.35255434399883E-18	-1.93295872490072E-18	-0.928812032108677	-0.360839937401916	-0.928812032108677	-0.360839937401915	-7.50422552579885E-18	9.47602550157381E-18
51.4	-9.55328666698293E-18	1.32270421958433E-18	-0.98828766358085	-0.226414105599151	-0.988287663580851	-0.226414105599152	1.11191332373854E-17	-3.53671896273167E-18
51.5	-1.41688782393829E-18	2.53473688693154E-17	-0.981245322337912	-0.0274038338874633	-0.981245322337913	-0.0274038338874632	-3.42606219468525E-18	-1.35849330379832E-17
51.6	4.02540219359655E-18	-1.30617481767535E-17	-0.991451645247474	0.0959043819715676	-0.991451645247474	0.0959043819715673	6.20610744746615E-19	-1.59041491745983E-17
51.7	5.75013938007693E-18	-4.2361714308864E-18	-0.977856050134758	0.255207657678264	-0.977856050134758	0.255207657678264	1.13852507432369E-18	6.43457297919959E-17
51.8	5.22800678737893E-18	-3.92774009219461E-18	-0.863182364883541	0.411285618617038	-0.863182364883541	0.411285618617039	1.07774095656692E-17	8.7419124559741E-18
51.9	-7.71667664326564E-18	7.68110641460781E-18	-0.860861587216094	0.538413440336543	-0.860861587216095	0.538413440336543	2.22143540335258E-17	-1.70343411076002E-17
52	1.41530277777519E-18	1.00542567435402E-17	-0.702344077757087	0.684795119283257	-0.702344077757087	0.684795119283257	6.16266991956176E-18	2.04015536373142E-17
52.1	3.10383917171885E-18	2.12922508948242E-18	-0.590994230100544	0.76948503456838	-0.590994230100545	0.76948503456838	-4.76509442605708E-17	5.11623239218263E-18
52.2	-6.22145142991559E-18	1.4358871216117E-17	-0.490042791689355	0.854277886869733	-0.490042791689355	0.854277886869732	-3.65214791012254E-18	1.0419828153607E-17
52.3	1.66769899305041E-18	2.58539696613019E-17	-0.352877621829617	0.920049878914177	-0.352877621829617	0.920049878914177	3.00503332638459E-17	4.3719520366074E-18
52.4	-1.42932160894903E-17	6.8054026426199E-18	-0.192325870202493	0.997319638387484	-0.192325870202493	0.997319638387484	-4.65300885954873E-17	1.02785872682208E-17
52.5	-1.14074873583437E-17	1.33487919536157E-17	-0.050187884193683	0.936394370133253	-0.0501878841936827	0.936394370133253	-2.48624315147612E-17	-4.20700300214095E-18
52.6	8.33929697457504E-18	1.82199319264511E-17	0.0819348376766924	1.00318107818552	0.081934837676692	1.00318107818552	5.46367010372853E-17	-1.4327926895809E-17
52.7	-2.96275504222324E-17	-1.14079493470634E-17	0.300988542261675	0.973878708174458	0.300988542261675	0.973878708174458	-2.37857905541883E-18	5.40207518190011E-17
52.8	3.91416678655388E-17	-1.16122988487555E-17	0.346517519887863	0.793621063435152	0.346517519887862	0.793621063435152	-4.82988729164384E-17	-2.34802343644705E-17
52.9	-1.43679308735313E-17	-5.75211572954027E-18	0.611324639883912	0.903235117102673	0.611324639883912	0.903235117102673	6.58982731371953E-17	3.52730519676766E-17
53	5.26471132345648E-18	1.08990556688786E-17	0.634683404668894	0.680166402042578	0.634683404668894	0.680166402042578	-1.03609443854743E-17	1.92224254302118E-17
53.1	-8.5556338551479E-18	1.1049518429414E-17	0.745694592563562	0.642891284488265	0.745694592563562	0.642891284488265	1.07224304409521E-17	3.50396100407244E-18
53.2	-1.10639591886734E-17	-1.15395884207918E-17	0.892154212388038	0.509350263736442	0.892154212388038	0.509350263736441	-4.4449669153053E-18	6.87589173713728E-18
53.3	8.73605883393374E-18	-5.28305178141761E-18	0.901886724356088	0.371737223020091	0.901886724356088	0.371737223020091	3.49929606075672E-17	-7.12527782827713E-18
53.4	6.52885231816741E-19	1.70036389642566E-17	0.940406577951778	0.162457680305324	0.940406577951777	0.162457680305324	2.47928355125297E-17	3.39862451413999E-17
53.5	-2.17578549515405E-18	-5.93119310046991E-18	0.998014371320089	0.118521310210634	0.998014371320089	0.118521310210634	-2.94720263156577E-17	-4.8472359460364E-18
53.6	-6.10901484454319E-18	-4.07799456903518E-18	0.994166254707799	-0.0981394770424126	0.994166254707799	-0.0981394770424129	-5.60657778167258E-18	7.29643567492605E-18
53.7	1.28646800644304E-17	-1.10129409150413E-18	0.897311914794504	-0.26550139951214	0.897311914794503	-0.26550139951214	3.40318119908568E-17	3.67706766487802E-17
53.8	-1.7012091502636E-17	-1.6817873384565E-17	0.991958752481511	-0.324592501302349	0.991958752481511	-0.324592501302349	1.89560869308363E-19	5.14052640192978E-17
53.9	-1.88966269611867E-17	2.55069956892812E-17	0.843961532196233	-0.513928497059557	0.843961532196233	-0.513928497059557	-1.73918033280614E-17	2.62844095304601E-17
54	-4.87582187139604E-18	3.50574287875691E-17	0.734142939353033	-0.631724491576607	0.734142939353034	-0.631724491576607	1.24187191150501E-17	1.58609297156627E-17
54.1	9.73729266871263E-18	2.46285358878713E-18	0.651064856058674	-0.701129827324529	0.651064856058674	-0.701129827324529	-1.94142095855256E-17	1.73640415339908E-17
54.2	-1.71848588595383E-17	5.78749302498651E-18	0.550354187761031	-0.803997572704926	0.550354187761031	-0.803997572704926	-8.86769657832065E-18	-9.07640277257824E-20
54.3	-8.22414604489766E-18	5.8687953630562E-18	0.374666365420644	-0.903948535303718	0.374666365420644	-0.903948535303719	-1.18561372262916E-18	2.46639705275373E-17
54.4	-1.07325264025118E-17	8.52261088572402E-18	0.309142572384202	-0.872546595339711	0.309142572384202	-0.872546595339711	9.99653874840682E-18	3.48860003281732E-17
54.5	1.90021444015453E-17	-1.42358135207342E-18	0.110911183297576	-1.01972591017762	0.110911183297576	-1.01972591017762	1.3834110879828E-17	-1.19056310685319E-17
54.6	-1.55177532362712E-18	1.23550003895436E-19	-0.0376218289559612	-0.946547924026022	-0.0376218289559611	-0.946547924026022	-4.53177596698593E-18	1.92242533531343E-18
54.7	-8.76363092204E-19	1.46747552426328E-17	-0.148396884490244	-0.984805868759085	-0.148396884490244	-0.984805868759084	3.87888903497537E-18	3.3014551460298E-17
54.8	-4.11833645263636E-18	3.147279483218E-18	-0.319864529592798	-0.94533931855185	-0.319864529592797	-0.94533931855185	-1.20313237014363E-17	7.01996647103589E-18
54.9	1.57417927458559E-18	-9.52239988863518E-19	-0.455375718139032	-0.858934472560714	-0.455375718139032	-0.858934472560714	-1.08793750173587E-17	-4.40514981705267E-18
55	-5.38923862011439E-18	1.68868305486378E-17	-0.562502215510456	-0.809729586334074	-0.562502215510456	-0.809729586334074	-7.57431998907402E-18	1.06748182742874E-17
55.1	-1.74637300032196E-18	1.1374662884082E-18	-0.694730141588337	-0.712302966010583	-0.694730141588337	-0.712302966010583	1.35420641557808E-17	8.06911730128254E-18
55.2	1.44580269916233E-17	-1.29285974399076E-17	-0.766150009452458	-0.59688678486178	-0.766150009452458	-0.59688678486178	1.11133092525636E-17	5.71749667899716E-19
55.3	3.5192541774008E-18	-5.21690943202316E-18	-0.869421438664245	-0.4569481256119	-0.869421438664245	-0.4569481256119	8.78982488298666E-18	-1.98857988320216E-18
55.4	1.34802993329411E-17	2.93831464953444E-18	-0.915145068138302	-0.365663435289572	-0.915145068138302	-0.365663435289572	1.39501478884365E-17	9.778689431684E-18
55.5	-1.32179234387181E-17	1.33692682795095E-17	-0.983203484496372	-0.198895523700524	-0.983203484496372	-0.198895523700523	-1.1854898995039E-17	1.15621772562529E-18
55.6	3.32192084848333E-19	8.34113449016312E-18	-0.971498109036706	-0.0649151622497644	-0.971498109036706	-0.0649151622497645	-1.27223607889702E-17	8.24801716891361E-18
55.7	-6.21561537636977E-18	-8.64529899948501E-19	-0.994459310994797	0.0697742148892434	-0.994459310994796	0.0697742148892435	1.71750780444908E-17	-9.38625981800489E-18
55.8	2.72334277723925E-18	5.3390138534761E-18	-0.966047271110306	0.232153712954898	-0.966047271110306	0.232153712954898	6.1017301182584E-18	-3.11239174541629E-18
55.9	1.30067268256924E-17	-1.99145230078976E-17	-0.924706553101937	0.357889305520321	-0.924706553101936	0.35788930552032	-2.87980421779491E-18	-1.58300551412822E-17
56	8.77526675830876E-18	1.04116382958891E-18	-0.83615080370201	0.496788050716924	-0.836150803702009	0.496788050716924	5.43555577760655E-19	2.6454031281711E-17
56.1	6.61203123391E-18	3.85069693111334E-20	-0.787621321601005	0.601473367561347	-0.787621321601005	0.601473367561348	-1.37445648043521E-17	-1.43471525069129E-17
56.2	3.88018935256024E-18	1.03335231156861E-17	-0.695845530506306	0.722408477146713	-0.695845530506307	0.722408477146713	9.02451115520933E-18	3.10985977177079E-17
56.3	3.24125154302621E-18	2.17040627325917E-18	-0.530465716162647	0.819780129450391	-0.530465716162647	0.819780129450391	-1.8079467112894E-17	-2.81418523636111E-17
56.4	-9.36508025250747E-18	-1.23274769265422E-17	-0.466799126891766	0.878731591669437	-0.466799126891766	0.878731591669437	-1.55837588367997E-18	1.76348499013107E-17
56.5	3.44311387326318E-18	-4.60948342245881E-18	-0.318520868747384	0.958671644898522	-0.318520868747384	0.958671644898522	9.91088897935014E-18	-1.43553175285616E-18
56.6	-5.19926870750975E-19	8.96262333596793E-18	-0.162909337879871	0.959844228682686	-0.162909337879871	0.959844228682685	2.2498891909055E-17	-9.55403807958783E-18
56.7	-1.14312288757207E-17	6.01195850545271E-18	-0.0333202415127024	0.987127971468313	-0.0333202415127025	0.987127971468312	7.43839310146991E-18	-9.67409767234698E-18
56.8	-9.54804947242804E-18	6.11240747742681E-18	0.0874482060901107	0.998892356362933	0.087448206090111	0.998892356362933	-6.82090988854909E-18	3.66252951346482E-17
56.9	2.99283333187506E-17	2.76474890337619E-18	0.240585837503743	0.950363230352268	0.240585837503743	0.950363230352268	5.87774134435496E-18	-2.59258366522071E-17
57	-1.08267226830007E-17	7.66931678032832E-18	0.402044805046439	0.875137359797533	0.402044805046439	0.875137359797532	8.04022823259172E-18	-1.43033837043085E-17
57.1	9.52938794762791E-18	-3.83129285242226E-18	0.502928073224871	0.836954745411715	0.50292807322487	0.836954745411714	1.00006438274618E-17	-1.52878755239714E-17
57.2	-8.04986869360675E-18	-3.67731095733583E-18	0.621024950423206	0.784125322518631	0.621024950423205	0.784125322518631	-2.98140856760257E-17	-2.48461640813517E-17
57.3	-1.00778025776045E-17	9.19938447844301E-18	0.771116727292917	0.617272005917529	0.771116727292917	0.617272005917528	-4.94051763744919E-17	-1.14641082984092E-17
57.4	5.83682823808664E-18	4.51928659014932E-17	0.774381086304998	0.528291821680527	0.774381086304997	0.528291821680527	3.52673815306953E-17	5.65831066124818E-17
57.5	9.46240788357957E-18	-1.95357226472812E-18	0.898027844507403	0.435766256325934	0.898027844507403	0.435766256325934	2.39845014452218E-17	5.30861654475352E-18
57.6	1.78975754280995E-17	-8.98250439237058E-18	0.955452831408129	0.27744824907149	0.955452831408129	0.27744824907149	4.70586015137144E-18	-2.34495595149544E-17
57.7	2.03331959972457E-18	7.08593587768285E-18	0.939934816504866	0.132053002011155	0.939934816504866	0.132053002011155	-2.16290564151104E-18	1.88893318072419E-17
57.8	-5.77646696601125E-18	1.48411383323047E-17	0.983423208415654	0.0243094003730007	0.983423208415654	0.0243094003730006	-2.09137315971902E-18	8.30037157496325E-18
57.9	-1.21283933006262E-17	4.17039017305315E-18	0.987732417917777	-0.097875005209523	0.987732417917777	-0.097875005209523	-8.04239156169568E-18	1.2067268474673E-17
58	7.23293867197526E-18	3.95630201489155E-18	0.929287181068654	-0.30234113920704	0.929287181068654	-0.30234113920704	-3.89496155571867E-18	8.7249485215083E-18
58.1	1.72928459748069E-17	1.41847390594587E-18	0.857504374233592	-0.376737083619502	0.857504374233591	-0.376737083619502	5.09056194683734E-17	7.49424497935614E-18
58.2	-7.48653891226754E-18	3.77273986628832E-18	0.835486136751773	-0.518175765093223	0.835486136751772	-0.518175765093223	-5.20992801202655E-18	1.238874310563E-17
58.3	3.90268721414527E-18	5.53370106862085E-18	0.735292471668027	-0.646917460540059	0.735292471668027	-0.646917460540058	5.54178962703037E-18	9.09922598695223E-18
58.4	-1.44177256593056E-17	4.07462741110695E-18	0.624854462939362	-0.675620827407866	0.624854462939363	-0.675620827407866	-1.34111562338687E-17	-1.89861170863862E-18
58.5	1.28924172297957E-18	1.39596963259606E-17	0.572670723705497	-0.807508255739049	0.572670723705497	-0.807508255739049	7.70683508543403E-18	1.17106771238572E-17
58.6	-7.33391702733266E-18	9.10124471739327E-18	0.417333044347186	-0.875799862748769	0.417333044347186	-0.875799862748769	-9.58552100422606E-19	9.18611697546711E-18
58.7	0	0	0.279375172545717	-0.892080497735732	0.279375172545717	-0.892080497735732	-4.04660795161989E-18	-2.8101885911474E-18
58.8	-2.10041999500402E-17	2.38558437435932E-17	0.174478614041245	-0.935121507557785	0.174478614041245	-0.935121507557786	-5.32021781069029E-19	-1.88867585466527E-18
58.9	8.272276654505E-18	-5.34157640662748E-19	0.0642870880954377	-0.965930969922991	0.064287088095438	-0.965930969922991	5.60839749296601E-20	-6.5531887645518E-18
59	-2.56291157888525E-17	3.93774278491089E-18	-0.115173895017554	-0.942828898304807	-0.115173895017553	-0.942828898304808	1.93081676457498E-18	7.78502989521253E-18
59.1	3.68324211756023E-20	-2.5657305721921E-18	-0.209208986830222	-0.915561743421968	-0.209208986830222	-0.915561743421968	3.61741367585934E-18	-1.36347864901237E-17
59.2	-9.33537650052703E-18	-8.02771846102556E-18	-0.330658680073535	-0.916250809927666	-0.330658680073535	-0.916250809927666	-1.79547423995302E-17	-1.19707090561451E-17
59.3	-7.21252894763655E-18	2.93459266884076E-18	-0.48887425662348	-0.807933429981945	-0.48887425662348	-0.807933429981945	-6.69142260784251E-19	-1.03916869762637E-17
59.4	4.77870460769917E-18	-4.11994700594859E-18	-0.5541822240545	-0.762347871331498	-0.554182224054499	-0.762347871331498	1.10627147084201E-17	-2.89175799459064E-18
59.5	7.86604398085256E-18	-1.05391174039847E-17	-0.684788602857838	-0.674914248410657	-0.684788602857838	-0.674914248410658	-1.68500426818586E-18	-5.58891285444148E-18
59.6	4.95055335175043E-18	4.00120179309789E-19	-0.759332693636243	-0.551696872578177	-0.759332693636244	-0.551696872578178	-1.68953617564666E-18	-2.54492211875559E-19
59.7	4.91082571652609E-20	-3.75468533924676E-18	-0.834866578809513	-0.469885342673705	-0.834866578809513	-0.469885342673704	-1.84686870286571E-18	-7.41465326769285E-19
59.8	-1.68750508144015E-17	-5.37265603670083E-18	-0.901121267953213	-0.34489889794687	-0.901121267953213	-0.34489889794687	-1.86540513465126E-18	-2.75771605865331E-18
59.9	1.11678324504792E-17	-4.3579009955594E-18	-0.92468564322972	-0.227759864276179	-0.92468564322972	-0.227759864276179	8.01593661823024E-18	-5.122637559374E-18
60	9.09416685081417E-18	2.28075076362363E-17	-0.946858335083112	-0.0737855660219922	-0.946858335083111	-0.0737855660219926	-8.59114106605195E-18	2.95372361114984E-17
60.1	1.24949872100134E-17	-5.74830295493064E-18	-0.936876317218552	0.0430733793074467	-0.936876317218552	0.0430733793074465	6.69032555395078E-19	-1.76832599625135E-17
60.2	3.04145981305644E-18	-9.76296827066789E-19	-0.947981814661423	0.148419725647209	-0.947981814661422	0.148419725647209	4.24289530383536E-18	-1.81361895464825E-17
60.3	-1.51000291808711E-17	-1.61778134919156E-17	-0.898843192585779	0.317774958116248	-0.89884319258578	0.317774958116248	-9.38952792597632E-18	-6.60244028626025E-18
60.4	-1.43844107096222E-17	-8.27309524005909E-18	-0.836536939706337	0.388725261487106	-0.836536939706337	0.388725261487106	-7.07707867544206E-18	6.09946344354311E-18
60.5	2.91617810031105E-18	1.22288294887568E-18	-0.794957675067249	0.528664064226397	-0.794957675067249	0.528664064226398	5.46783393808322E-19	2.29290552914191E-19
60.6	1.26923450068116E-17	-7.7594102100147E-18	-0.708899300483911	0.62475390474553	-0.708899300483911	0.62475390474553	6.63298025917724E-18	-3.06274957360326E-18
60.7	-7.41578104739598E-18	2.73548599500819E-18	-0.614315560093012	0.718480464997866	-0.614315560093012	0.718480464997867	6.45245044314291E-19	-8.86077695377559E-19
60.8	1.5068499893809E-17	-1.72123216727515E-17	-0.515543267922924	0.800535232024185	-0.515543267922924	0.800535232024185	8.29801703066149E-18	-7.47443876650777E-19
60.9	-1.41491551058033E-18	-9.92204949022348E-18	-0.411486890654099	0.85957561769273	-0.411486890654098	0.85957561769273	1.71173709019027E-17	-3.40077881721025E-17
61	-1.56172264374771E-17	-7.67691073774396E-18	-0.277465572974894	0.909184187390399	-0.277465572974894	0.909184187390399	2.16292170752551E-18	-9.88105809688329E-18
61.1	-1.57809209442131E-17	1.14992790149482E-17	-0.149183017947533	0.921993324352504	-0.149183017947534	0.921993324352504	-2.75011676427791E-17	1.55775894127197E-17
61.2	-7.99581371705106E-18	3.52156695576008E-18	-0.0413138413760506	0.938566994355201	-0.0413138413760504	0.938566994355202	5.49823996197865E-19	1.11920196964808E-17
61.3	1.42246478955424E-17	4.59589701681383E-18	0.0893281119755645	0.953416814447208	0.0893281119755649	0.953416814447208	1.16137940199329E-17	2.55995419321851E-18
61.4	-1.62951416985101E-17	-9.2281647330398E-18	0.249911980984459	0.91091727631828	0.24991198098446	0.910917276318281	-4.64017263361701E-18	-7.82008386965343E-18
61.5	1.17765622126225E-17	-4.30166477765282E-18	0.319253248764149	0.862545905462782	0.319253248764149	0.862545905462781	-1.95756105753471E-17	4.22489433447865E-18
61.6	-3.0669337730068E-18	-2.51594462342132E-17	0.462550749780465	0.84935681907435	0.462550749780464	0.849356819074349	1.40564958804171E-18	3.8051498071436E-18
61.7	0	0	0.5800489214256	0.758951916316523	0.580048921425599	0.758951916316523	5.28831316337169E-18	-7.37840659233996E-18
61.8	9.00732715909757E-18	1.04924230221156E-19	0.653977456527021	0.661639854523271	0.653977456527021	0.661639854523271	-1.21933869483505E-17	1.56229235547925E-17
61.9	3.48793760786396E-18	1.19674097358453E-18	0.745299960931272	0.566010867099479	0.745299960931272	0.566010867099479	-1.94046827235354E-18	1.52649670951215E-18
62	-9.18129371142866E-20	-3.46018952393501E-18	0.810079594153996	0.485927603382095	0.810079594153996	0.485927603382096	1.86494395899815E-18	-8.01352366731911E-18
62.1	1.29912215523175E-17	2.76351933046781E-18	0.887003896812644	0.365092312581938	0.887003896812644	0.365092312581938	2.87963293362157E-17	3.82158217560878E-18
