# GHZ S RI R 50
50	-4.90666110900176E-18	1.3034540738763E-17	0.840609274078114	-0.602716822231727	0.840609274078113	-0.602716822231726	1.41959386932293E-18	-1.47859224149988E-18
50.1	-1.85936541335446E-19	2.29816241981824E-17	0.706241110094351	-0.721048105455757	0.706241110094351	-0.721048105455756	-1.01588683054789E-17	2.10803115528906E-19
50.2	-2.84371162081884E-18	-9.83293251399079E-18	0.590713380239521	-0.822360988226602	0.59071338023952	-0.822360988226603	1.49026840686024E-17	-3.2922307803902E-19
50.3	1.30504601172304E-17	1.10063331433821E-17	0.457200929265476	-0.93589719961843	0.457200929265476	-0.93589719961843	-5.86119603161222E-18	-1.39770762628365E-18
50.4	1.30833764939589E-17	-7.41206182291054E-18	0.253492210033843	-0.962708049017956	0.253492210033843	-0.962708049017956	5.10926705285327E-18	-2.04734710762643E-18
50.5	-3.29909971666222E-17	-3.6924940377563E-17	0.12992784582789	-1.01915764289623	0.129927845827891	-1.01915764289623	1.02409522222902E-17	-3.02055879761799E-18
50.6	1.15054662613606E-17	5.89542937672049E-18	-0.0581594185709793	-1.01493201713162	-0.0581594185709796	-1.01493201713162	2.80501844232006E-18	8.70044781904055E-18
50.7	2.55127484843794E-17	-2.96420106873653E-17	-0.208710745763855	-0.987249843317437	-0.208710745763855	-0.987249843317436	-8.42000556732521E-18	-5.93138816246953E-18
50.8	-3.17973443763313E-18	-6.02849484018472E-18	-0.387127483730086	-0.964107647500822	-0.387127483730086	-0.964107647500822	-1.64016287989259E-18	1.45317267733186E-17
50.9	-3.97940121301473E-18	1.15789243265128E-17	-0.521295805813448	-0.852291518259592	-0.521295805813448	-0.852291518259591	1.54146138145149E-18	7.88694656352318E-19
51	-4.2507340578722E-18	-2.14176079614133E-17	-0.671253620742893	-0.776935675383956	-0.671253620742893	-0.776935675383955	-1.80938904548804E-18	-2.6549529991822E-19
51.1	-1.53056369406864E-18	1.65855381141584E-18	-0.783959017857959	-0.652841588091998	-0.78395901785796	-0.652841588091999	6.49256798274576E-18	1.53273916108454E-17
51.2	-3.08512067599766E-18	-6.43050099983962E-18	-0.873626145067484	-0.512488511615706	-0.873626145067484	-0.512488511615707	2.97184796992596E-18	1.26101965895978E-17
51.3	-6.75174728350846E-18	-1.70167900378597E-17	-0.950473092778595	-0.365881347325126	-0.950473092778595	-0.365881347325125	-3.74799400353084E-18	1.46330712822422E-18
51.4	-1.910551906347E-18	7.37384651496571E-18	-1.01382710375405	-0.22611075338788	-1.01382710375405	-0.22611075338788	-1.29766965765195E-17	2.17937135472615E-18
51.5	8.58844664400254E-18	-2.16202340089238E-17	-1.00299258929125	-0.0267902293489165	-1.00299258929125	-0.0267902293489166	-6.04325208120531E-18	-1.78116677481288E-17
51.6	-3.56161551709901E-18	1.09187766595855E-17	-1.0178580486529	0.102838808462122	-1.0178580486529	0.102838808462122	2.33702154216015E-17	-1.03301890565727E-17
51.7	1.05051986152338E-17	4.23086328532202E-19	-1.003332768193	0.268554695237989	-1.003332768193	0.268554695237989	3.49528015578391E-17	1.76494405101954E-17
51.8	9.5867879212567E-18	2.39907894846473E-17	-0.88695844331272	0.421504101013952	-0.886958443312719	0.421504101013952	5.76049646877833E-17	8.08344958720467E-18
51.9	-6.18565389420245E-19	-2.33888820240699E-17	-0.883469943741331	0.562289514668873	-0.88346994374133	0.562289514668873	-2.32293089654193E-17	2.27429368556212E-17
52	6.83973063410476E-18	9.82768852557505E-18	-0.719729768616786	0.704924738965313	-0.719729768616786	0.704924738965312	-6.84430424387429E-18	-9.60765822982618E-18
52.1	6.06493493615101E-18	9.13436853650162E-18	-0.607546446025757	0.793890407773545	-0.607546446025758	0.793890407773545	2.35293474767915E-18	2.05708122732662E-18
52.2	-1.32317328987715E-17	-1.51332188969897E-17	-0.502404039548127	0.885469979530256	-0.502404039548127	0.885469979530256	-2.9376726540727E-17	3.41575571322163E-18
52.3	3.8766547079066E-18	-4.4018669716137E-18	-0.360291768255806	0.954243407164978	-0.360291768255806	0.954243407164978	-7.80331609300554E-18	-2.06242611950739E-18
52.4	1.69233733333524E-18	1.69859554781887E-17	-0.190023078689061	1.03153319888681	-0.190023078689061	1.03153319888681	-8.46168666667621E-19	-8.49297773909435E-18
52.5	-1.69743272361925E-17	-1.17738195022755E-17	-0.052174299139131	0.973488100173778	-0.0521742991391308	0.973488100173778	-3.74729921931335E-17	9.23714018166172E-18
52.6	1.27657023594275E-17	6.34361017851849E-18	0.0952861897893506	1.04239099643522	0.0952861897893506	1.04239099643522	1.5694840068648E-17	2.2231501905792E-17
52.7	-1.20437010602383E-17	-1.03209081943939E-17	0.31986871688982	1.00322800833408	0.31986871688982	1.00322800833408	-1.3164975444297E-18	-8.50050374836394E-18
52.8	3.95600858801739E-18	-4.11913074078392E-18	0.355628058269669	0.834621014305585	0.35562805826967	0.834621014305585	1.70169391900321E-17	-7.41238148733002E-18
52.9	-1.1648065896454E-18	-9.80015156276458E-18	0.648648254034428	0.92270893304812	0.648648254034427	0.92270893304812	-4.06947139277531E-17	8.81224830161651E-18
53	8.13187930024312E-18	5.71320966482267E-19	0.661053723867512	0.70912682128666	0.661053723867513	0.70912682128666	2.59951039749431E-18	-3.70000508161062E-17
53.1	5.74009954286511E-18	-1.02877054778042E-17	0.786017803045825	0.665411301412436	0.786017803045825	0.665411301412436	-7.41026498391147E-18	3.07361805056675E-19
53.2	7.55401197296877E-18	1.39694673440246E-17	0.934611908907404	0.518290838630235	0.934611908907403	0.518290838630235	-5.98442862522694E-18	-2.10292876268881E-18
53.3	1.31957211849477E-17	3.90019917216066E-18	0.94743317109621	0.381571135471241	0.94743317109621	0.381571135471242	1.05371930264138E-17	1.51516458791037E-17
53.4	4.07972502660589E-18	-1.29062857135058E-18	0.979236150803678	0.166636707682688	0.979236150803678	0.166636707682688	-2.66439286772282E-17	-2.74752859274448E-17
53.5	1.30602156502265E-18	-1.55640816535829E-17	1.05105532239512	0.109743499557888	1.05105532239512	0.109743499557888	-4.2111712339959E-17	1.1898839215276E-17
53.6	8.92935004468503E-18	-7.78822297585446E-18	1.03794931572297	-0.113533117333748	1.03794931572297	-0.113533117333747	2.45259591396435E-17	-1.60841419957685E-17
53.7	1.35280510866475E-18	-2.86159765881583E-18	0.937411980900468	-0.278477806992866	0.937411980900468	-0.278477806992866	-2.31405925579776E-17	-1.46210370975939E-17
53.8	-7.38533246766144E-18	-9.23840049301638E-18	1.03896099919359	-0.364240327157906	1.03896099919359	-0.364240327157906	-4.59771261399008E-17	9.83513678632268E-18
53.9	1.67311455918369E-17	4.03022401171134E-18	0.880052152319696	-0.549145978417142	0.880052152319697	-0.549145978417143	6.97343072890759E-18	-1.4251986230311E-17
54	-7.65143143652798E-18	-3.74229587184084E-18	0.765681716385186	-0.669971004513248	0.765681716385186	-0.669971004513247	1.29508977749342E-18	1.73845679387683E-17
54.1	2.43295300623979E-17	-6.73013467878786E-18	0.681186790357798	-0.747802034881839	0.681186790357797	-0.747802034881839	-2.6014275315288E-17	7.77892300577083E-18
54.2	2.54762803933642E-18	-1.30310825425529E-17	0.571424204631059	-0.857268890717107	0.571424204631058	-0.857268890717107	-1.55770018689374E-17	2.24518862207447E-17
54.3	-5.69375154976205E-18	-2.58467666247899E-17	0.384351428406895	-0.954017003543907	0.384351428406895	-0.954017003543906	-3.07027419652537E-17	-1.0435266137616E-17
54.4	1.4433047157833E-17	9.0716119190109E-18	0.320805894814853	-0.935366622842245	0.320805894814853	-0.935366622842244	5.05402202814005E-18	-1.75562897226233E-17
54.5	-1.26571718007531E-17	1.77653206482359E-18	0.0982472540029007	-1.0748544041834	0.0982472540029006	-1.0748544041834	-8.68236705404478E-18	2.50928962545182E-18
54.6	-1.20908418431266E-17	-1.6354975280761E-17	-0.0482019966180366	-1.00152594996166	-0.0482019966180362	-1.00152594996166	1.30504823323342E-17	-1.00198717154812E-17
54.7	-1.01798784460857E-17	-1.90224832105787E-17	-0.175442050213067	-1.04203259399555	-0.175442050213067	-1.04203259399555	-4.82486567173794E-18	-6.52805451911354E-18
54.8	1.77380979462485E-18	-3.94883965248054E-18	-0.354769608251876	-0.995059989025357	-0.354769608251876	-0.995059989025357	-1.83927222433834E-17	5.02579772522102E-18
54.9	-3.00678445345404E-18	-1.0792047121697E-19	-0.494236588808934	-0.903995702935424	-0.494236588808934	-0.903995702935424	2.91101217954692E-18	5.6943554202376E-18
55	-1.20018517893871E-18	-5.4280391402685E-18	-0.612568571554865	-0.850845277141839	-0.612568571554865	-0.850845277141839	1.14545705267684E-17	1.82108223050077E-18
55.1	-2.95939695302531E-18	-5.89960858910678E-18	-0.750443502186776	-0.743350558192641	-0.750443502186775	-0.74335055819264	-5.80621588561112E-18	5.5140254909146E-20
55.2	-3.1898260369275E-18	5.74527807519508E-18	-0.826460609829442	-0.623228351977544	-0.826460609829443	-0.623228351977544	-3.18803043256472E-18	1.25109413613344E-17
55.3	1.81539578589666E-17	7.15936202860352E-18	-0.930928320289404	-0.471011200351052	-0.930928320289405	-0.471011200351052	1.52794442265193E-17	1.65596425707153E-18
55.4	-1.05105392937105E-17	-9.88696375031531E-18	-0.985076730011408	-0.371638139437695	-0.985076730011408	-0.371638139437695	1.48988938640545E-17	9.2656188461678E-18
55.5	-5.78706779992566E-18	4.1560190717423E-18	-1.05005430859999	-0.191070286285966	-1.05005430859999	-0.191070286285967	-3.74148178865936E-18	9.94052202931118E-18
55.6	5.99246971578754E-18	6.25406271407406E-18	-1.03949111082651	-0.051043192075912	-1.03949111082651	-0.0510431920759117	1.06672734978438E-17	6.71427569665012E-18
55.7	-4.1812323271339E-18	1.77729002980863E-18	-1.06149904505987	0.0975359579193974	-1.06149904505987	0.0975359579193976	-1.5037440991833E-17	1.08058551404411E-17
55.8	1.36239439885255E-17	-2.55962574807661E-17	-1.02663699610407	0.268912177027702	-1.02663699610407	0.268912177027703	-5.53423848403263E-18	-5.85387410764776E-18
55.9	9.70102861719473E-18	-5.49523134029927E-18	-0.981726566767761	0.404486933291651	-0.981726566767761	0.404486933291651	1.66154998234686E-17	-5.46927017978512E-18
56	2.27118825452464E-17	-3.40367334116601E-18	-0.885426047142561	0.548250372184312	-0.885426047142561	0.548250372184312	2.77715152066717E-17	3.31897669441459E-18
56.1	-6.88680240396224E-18	1.05393430029558E-17	-0.830591350838433	0.66535699893273	-0.830591350838433	0.665356998932731	-1.05976932949537E-18	-4.2635012364182E-18
56.2	5.10297727075189E-18	3.59113513076601E-18	-0.727400886205856	0.793340220749893	-0.727400886205856	0.793340220749893	-1.18848782822625E-17	3.73430879820269E-17
56.3	4.25579157579792E-18	-4.2185499793625E-18	-0.551424930414652	0.887856024904696	-0.551424930414652	0.887856024904697	1.86286547827788E-17	3.47166813422209E-18
56.4	-4.3453331636526E-19	-1.71336606834926E-17	-0.47826845043141	0.95905828701441	-0.478268450431411	0.959058287014411	2.10178048978926E-17	-4.82601256644669E-17
56.5	-1.13473421847038E-18	1.69782883951423E-18	-0.315015070513334	1.03825150361526	-0.315015070513334	1.03825150361526	-1.07543401463206E-17	-5.95949089106515E-18
56.6	1.22749792227376E-17	1.21608962447099E-17	-0.152756648270244	1.03740805715628	-0.152756648270244	1.03740805715628	4.29310913436395E-17	2.96346038243259E-18
56.7	1.12320212408322E-17	-2.34043324873604E-17	-0.00941549538803229	1.06469926554922	-0.00941549538803234	1.06469926554922	3.16695108408806E-17	-1.12413303913075E-17
56.8	1.54832719681956E-17	-1.41288589217515E-17	0.125704258433411	1.07601692182023	0.125704258433411	1.07601692182023	2.7083807228109E-17	6.13779401758482E-18
56.9	1.81028889243307E-17	7.23167094420612E-18	0.286450565255238	1.02063322611934	0.286450565255238	1.02063322611934	6.00845189028307E-18	-1.37828556088593E-18
57	4.43511014795254E-18	6.47726943861116E-18	0.453528687303595	0.934956045059948	0.453528687303596	0.934956045059948	2.74235607150973E-17	-1.05838205955854E-17
57.1	-2.0737965797313E-17	3.15714721533287E-18	0.567837930170996	0.891907909405845	0.567837930170996	0.891907909405845	-2.78823755207943E-17	-4.46025876898372E-18
57.2	-5.70982334782651E-18	3.1508451956589E-18	0.69821296118929	0.828693969347236	0.698212961189289	0.828693969347236	-1.75744421335997E-17	3.00453441887913E-17
57.3	7.63600688556298E-18	1.97378628307813E-18	0.843965796711688	0.644653343448938	0.843965796711688	0.644653343448938	1.93895580322226E-17	1.90484201553878E-17
57.4	2.75031708584395E-18	-7.16477676998853E-18	0.856413475386568	0.556162670209456	0.856413475386567	0.556162670209456	2.38767757554642E-17	2.59916666223935E-19
57.5	5.56607364776168E-18	3.19946598460575E-18	0.987038479869194	0.442825831313515	0.987038479869195	0.442825831313515	2.84880038051941E-17	-7.6914749052568E-18
57.6	-1.27929349179374E-17	4.36457679333412E-18	1.04157349851183	0.271063451588212	1.04157349851183	0.271063451588212	-7.3092584024739E-18	4.19467486206753E-17
57.7	1.30248528028006E-17	3.09169950707849E-18	1.02470380341716	0.119950115495659	1.02470380341716	0.11995011549566	1.79062363390463E-17	-1.94715535842011E-17
57.8	-3.91949422492949E-18	5.00914459766468E-18	1.07013327181944	-0.00576924050472823	1.07013327181944	-0.0057692405047279	-1.38413940204027E-17	6.10950490371721E-18
57.9	8.56508036318603E-18	-4.55167773812826E-18	1.07258054669362	-0.142475243373274	1.07258054669362	-0.142475243373274	1.18953234280768E-17	-2.69100997490287E-18
58	-6.92736043587291E-18	-2.69113811606095E-17	0.998034701682819	-0.35325572021357	0.998034701682819	-0.35325572021357	-1.32371051274683E-17	-3.18103823242603E-17
58.1	1.50390342992779E-17	1.83735442604638E-18	0.927349434729907	-0.435382861280279	0.927349434729908	-0.43538286128028	2.70238874058057E-17	1.06044308837992E-17
58.2	-1.90500660500925E-19	1.07235823373755E-17	0.892568805640516	-0.59280640724811	0.892568805640516	-0.59280640724811	-7.17503407873784E-18	-7.3404221939212E-18
58.3	-1.49535428431612E-17	-4.99318206605711E-18	0.779275955075962	-0.726756009349243	0.779275955075962	-0.726756009349243	9.09449307468544E-18	-1.71352443191733E-17
58.4	9.81725463758275E-18	2.02364496144173E-17	0.66791789400829	-0.760868575027698	0.66791789400829	-0.760868575027698	1.27230235514173E-17	-1.24220533817914E-17
58.5	-1.67093113197432E-17	3.83208771162665E-17	0.594879189726356	-0.905891984067936	0.594879189726356	-0.905891984067936	6.16843775213904E-18	3.98962055044288E-18
58.6	-9.25954092605826E-18	-1.00630863536397E-17	0.42639029562138	-0.971774717986228	0.42639029562138	-0.971774717986229	-5.00150451805821E-18	2.05306266366232E-17
58.7	1.1124588133114E-17	-1.89311246583681E-17	0.27990164021644	-0.988049893643189	0.279901640216439	-0.988049893643188	3.42058835068845E-18	-1.07848735885173E-17
58.8	-2.80525072069428E-17	2.90250920118721E-17	0.158842331491363	-1.0344923927902	0.158842331491364	-1.0344923927902	-9.32641276803179E-18	1.6986675105323E-17
58.9	-4.52565650097113E-18	9.61829807192366E-18	0.0316154809450071	-1.06624655935828	0.0316154809450071	-1.06624655935828	-1.43104924057818E-17	-8.75892624668293E-18
59	-1.84051660898342E-17	1.32086066808091E-18	-0.158153295761554	-1.03176780599498	-0.158153295761553	-1.03176780599498	-2.03316813628375E-17	4.64960316701784E-18
59.1	-3.29518633613686E-18	1.69272655163414E-17	-0.265125696914838	-1.00397675185631	-0.265125696914837	-1.00397675185631	-6.56154184399513E-18	2.64980993504098E-18
59.2	1.1682484406661E-17	2.63541577450404E-18	-0.405354457409555	-0.99667676113172	-0.405354457409555	-0.99667676113172	1.29728214869956E-17	-1.07593242614805E-18
59.3	-1.95875032340032E-18	-1.05793746505901E-17	-0.566141341983214	-0.872904598665511	-0.566141341983214	-0.872904598665511	-1.99326230437517E-18	-4.74636912578017E-18
59.4	-5.23136669332622E-18	1.04424068532471E-17	-0.646021338128794	-0.822455520720882	-0.646021338128794	-0.822455520720881	-9.66644763317502E-18	-4.03843519628065E-19
59.5	4.14238499519998E-18	2.33290091316737E-18	-0.784208855709109	-0.717069867249841	-0.78420885570911	-0.717069867249842	-9.75491458546851E-18	8.74251494591184E-19
59.6	-1.01309579534577E-18	1.50558763106577E-17	-0.861355845566376	-0.581869913788338	-0.861355845566375	-0.581869913788337	4.3419793619152E-18	-4.27275665779145E-18
59.7	-2.63949176089364E-18	-5.33604393073992E-18	-0.945545025798422	-0.484049611416774	-0.945545025798423	-0.484049611416775	-7.40329259714432E-18	-1.90258536380449E-18
59.8	9.45861290181546E-18	7.20728289602089E-18	-1.01273404884221	-0.34187288402235	-1.01273404884221	-0.34187288402235	1.57643548363591E-18	1.20121381600348E-18
59.9	1.06467536702021E-17	4.78588872293669E-18	-1.0376162819518	-0.211211053278658	-1.0376162819518	-0.211211053278658	-4.90751063599624E-19	6.13124893608213E-18
60	-3.08316900398714E-18	-9.9134510927807E-18	-1.05337656479076	-0.0416198762568415	-1.05337656479076	-0.0416198762568409	1.55546510269406E-17	-1.32730697343755E-17
60.1	1.11723453441665E-17	-7.68285085801425E-18	-1.04113054155529	0.0887060768644209	-1.04113054155529	0.0887060768644214	3.64116330041453E-18	4.41948002194758E-18
60.2	-3.08014109591796E-18	2.0738078132082E-17	-1.04898731874789	0.213241770185159	-1.04898731874789	0.213241770185159	1.3169094608021E-17	3.05145202352904E-18
60.3	-5.93345959971936E-18	-1.04879026734628E-17	-0.984224078894033	0.393013694283487	-0.984224078894033	0.393013694283487	6.88626393788941E-18	1.76118629587409E-19
60.4	3.79236886497664E-18	-4.14136318865676E-18	-0.919308227713648	0.474935009666737	-0.919308227713648	0.474935009666737	-9.966946272399E-18	6.02317367482813E-18
60.5	-3.20171204860691E-18	-6.18958425834024E-18	-0.860435570850581	0.629182929856725	-0.860435570850581	0.629182929856725	6.10434259951565E-18	1.94211693632666E-18
60.6	2.3376277309668E-18	-1.05838068778716E-17	-0.761460068109366	0.733409366872727	-0.761460068109365	0.733409366872726	-3.94784885635095E-18	1.79207277677981E-18
60.7	-1.62469897985423E-17	7.06341742088166E-18	-0.651095641074455	0.833886079966283	-0.651095641074454	0.833886079966284	-4.94438201686478E-18	-1.17731765883267E-17
60.8	-1.71959219383012E-17	-7.76840332314823E-18	-0.53517274906666	0.92166617242584	-0.53517274906666	0.921666172425841	-1.71041024660528E-17	-8.1044105652494E-18
60.9	6.83192927705797E-18	1.12410876469534E-17	-0.414579723354042	0.984922109697145	-0.414579723354041	0.984922109697145	-1.00768587615782E-17	2.36991501761283E-17
61	-6.5326798582878E-18	-1.4769996619207E-17	-0.262922485830483	1.03254411008908	-0.262922485830483	1.03254411008909	6.58635675775211E-18	6.95053390192363E-18
61.1	-5.78764632825705E-19	-1.85435367633132E-17	-0.1201589053138	1.04298838416777	-0.120158905313799	1.04298838416777	-3.28925173378347E-18	-2.73164126209285E-18
61.2	-2.3329985339119E-17	-1.20869943207656E-18	0.00563886442210418	1.05831040492166	0.00563886442210394	1.05831040492166	-2.97124452377785E-18	-5.31183961982156E-18
61.3	-1.84136945567057E-17	8.65291604253664E-18	0.155828555669312	1.06563438407791	0.155828555669311	1.06563438407791	1.29599637076214E-17	1.17453676635516E-17
61.4	1.62163893581434E-17	1.17305540808656E-17	0.327859744924009	1.00859492677316	0.327859744924008	1.00859492677316	9.6846809484941E-18	-8.24634742000409E-18
61.5	-8.09898445463064E-18	-1.81259713218985E-17	0.410374734819977	0.957889471475448	0.410374734819977	0.957889471475448	-1.3146405928969E-17	4.83737004592211E-19
61.6	-2.76220619607594E-18	-8.28039903338044E-18	0.572652157737133	0.926337281709878	0.572652157737133	0.926337281709878	-1.01280893856118E-17	-3.03614631223949E-17
61.7	1.28607677171692E-17	-4.01326569432103E-18	0.697119151478789	0.819608613145442	0.697119151478789	0.819608613145441	1.55925360136088E-17	-2.04310200503534E-18
61.8	-6.05071193600475E-18	-2.8291633508515E-18	0.777516542368255	0.710009875873301	0.777516542368255	0.710009875873301	-2.96003195239241E-18	-6.96348359197635E-19
61.9	9.65169479103868E-18	6.38788470609268E-19	0.874915545853031	0.595807395811643	0.874915545853031	0.595807395811643	-9.75487449284277E-18	1.75188247849019E-18
62	-9.93747020061455E-18	-4.01800173132747E-19	0.947896698425271	0.498136818512339	0.947896698425271	0.498136818512339	-1.07565758270517E-17	1.62304025053507E-19
62.1	7.3814108645101E-18	7.11378331510501E-18	1.02465533850133	0.355135838900467	1.02465533850133	0.355135838900466	1.68330963078488E-17	2.47862857937619E-17
