# GHZ S RI R 50
50	2.62068932181217E-19	1.80067922701077E-17	0.767423258703272	-0.545890618059139	0.767423258703272	-0.545890618059139	-1.30703244361392E-18	-3.71127654127339E-18
50.1	-2.6480038019202E-17	-2.81324276110949E-18	0.647458571229814	-0.650090725184751	0.647458571229814	-0.650090725184752	2.93840177351183E-18	4.36909219491318E-18
50.2	-9.04204972146207E-18	-6.47663179552192E-18	0.546612045780842	-0.745714911561719	0.546612045780842	-0.745714911561719	5.50653796503048E-18	7.59251869547409E-18
50.3	-4.59957992414855E-18	-1.18873061183524E-17	0.423207504234095	-0.855210138787529	0.423207504234094	-0.855210138787529	-9.26893765381194E-18	6.07851821044393E-18
50.4	9.38965667397617E-18	2.29290871523567E-18	0.240562409783876	-0.87259726553188	0.240562409783876	-0.872597265531881	5.27603336430893E-18	1.47337519270699E-17
50.5	-3.63557848250992E-18	-4.2195991413546E-18	0.127759762493076	-0.934976953726892	0.127759762493076	-0.934976953726892	2.44847104085159E-19	4.87888012690468E-18
50.6	5.42527031125298E-18	-6.55632113769669E-18	-0.0438079166334126	-0.930206313737165	-0.0438079166334127	-0.930206313737165	-7.34711330228808E-18	2.20460569764603E-18
50.7	4.4643728809842E-18	3.003056624128E-18	-0.180009355454735	-0.909849866144456	-0.180009355454735	-0.909849866144457	7.79228339355354E-18	3.24643391989409E-18
50.8	3.61154747025068E-18	8.55674806250589E-18	-0.349510391950328	-0.890329651957156	-0.349510391950328	-0.890329651957156	1.16702664083843E-17	3.24220721973036E-18
50.9	-3.97299669815419E-18	1.15211498821729E-18	-0.467205626417019	-0.79045113417783	-0.46720562641702	-0.790451134177831	-1.28127792159287E-18	-7.05220427484226E-19
51	4.62745387230651E-18	1.92982364156898E-17	-0.611139129907808	-0.722765021578233	-0.611139129907809	-0.722765021578233	1.17606146541149E-17	-4.3218765530494E-18
51.1	-7.94314114011647E-19	4.79423067332297E-18	-0.715845456982262	-0.611091981402691	-0.715845456982262	-0.611091981402691	3.03540122679611E-18	-4.82257666257605E-19
51.2	-1.04622686496356E-17	2.90459853343273E-18	-0.799856045409978	-0.48430702841371	-0.799856045409978	-0.48430702841371	-1.46777342608059E-18	-6.07885899897915E-18
51.3	1.88849485881896E-17	1.64120296173551E-17	-0.874162855090771	-0.349949334688561	-0.87416285509077	-0.349949334688561	-7.13194010769624E-18	-2.54973484199945E-18
51.4	2.27497644470037E-17	-1.32782775546267E-18	-0.939425518578733	-0.22037925445449	-0.939425518578733	-0.22037925445449	-6.60552990012341E-18	-5.0829669988439E-18
51.5	-1.10046033018801E-17	2.38925197020145E-17	-0.925411330743714	-0.0394786937693716	-0.925411330743714	-0.0394786937693715	6.76161024587928E-18	1.7008924716224E-17
51.6	1.70280972502215E-17	2.09928010982288E-17	-0.9488385482494	0.0819347866172359	-0.9488385482494	0.0819347866172359	4.40791744556487E-17	1.46887848623667E-17
51.7	2.78775178953204E-17	-1.51796700361532E-17	-0.938746142112053	0.239011778344207	-0.938746142112053	0.239011778344207	-4.44155430595647E-19	-2.57070044960952E-17
51.8	-6.24554897714635E-19	-6.33623178206335E-18	-0.831094347582468	0.372975076595227	-0.831094347582467	0.372975076595227	4.74432364755597E-18	1.57823440980731E-17
51.9	7.79275382444504E-18	1.43777023535138E-17	-0.834580073083803	0.517157360747441	-0.834580073083803	0.517157360747441	3.21202555708758E-17	-1.57803902507579E-17
52	1.62493765120552E-17	8.88541525876666E-18	-0.679757041079559	0.643301415048455	-0.679757041079559	0.643301415048455	1.5071830833226E-17	-1.11526824498717E-17
52.1	4.45359688230955E-18	5.94134514499369E-18	-0.58106297072151	0.729091549530604	-0.58106297072151	0.729091549530604	1.91477051627854E-17	-1.09568139762191E-17
52.2	3.81777197022272E-19	6.9283826177635E-19	-0.485732929401393	0.822250338473851	-0.485732929401394	0.82225033847385	-1.0286274935178E-17	3.05063681095178E-17
52.3	-1.03856284494913E-17	2.14337417231435E-17	-0.354239556751194	0.890665125444142	-0.354239556751194	0.890665125444142	3.56566087612822E-17	2.49215256610149E-17
52.4	-7.37679784863849E-20	9.04710294455178E-18	-0.19004229166456	0.965594622324151	-0.19004229166456	0.965594622324151	2.11299536875679E-17	1.04679524036994E-17
52.5	-2.62649814377271E-17	1.57625691492254E-17	-0.0735483477026755	0.915469051083286	-0.0735483477026756	0.915469051083286	1.74233159639876E-18	1.21396815737586E-17
52.6	8.49730461564686E-18	-4.52968013955477E-17	0.0761751726628632	0.988259335300078	0.0761751726628633	0.988259335300078	-4.92460260081389E-17	-6.16018456193114E-18
52.7	-3.77307775569928E-18	-2.5602540581631E-18	0.289196335799722	0.94475659827106	0.289196335799721	0.944756598271059	9.25586650546259E-18	-2.26012396112934E-17
52.8	-2.09106568687998E-17	1.4992323784162E-17	0.303294734169	0.803706630249929	0.303294734169	0.803706630249929	1.0609545234152E-17	4.30484346727234E-18
52.9	-1.20112222103911E-17	-4.35606263482635E-18	0.611063526873497	0.871620088706685	0.611063526873497	0.871620088706686	-3.82584876554655E-17	3.63071663740725E-17
53	6.46703250047269E-18	6.67562010962677E-18	0.604635822300181	0.686421737190935	0.604635822300181	0.686421737190936	6.67562010962677E-18	-6.46703250047269E-18
53.1	2.30855903939494E-17	-1.64750745596752E-17	0.736977608827204	0.646982051974515	0.736977608827203	0.646982051974514	-3.77307233407225E-17	-3.12456326001459E-17
53.2	-1.95240417607071E-17	-3.28583915807614E-17	0.879850415369412	0.50065521707535	0.879850415369412	0.50065521707535	-4.54047482807141E-19	-7.64148641413056E-19
53.3	1.32312173325438E-18	2.15068683112897E-17	0.895126898669035	0.381019572092629	0.895126898669035	0.381019572092629	1.73404116769968E-18	3.02234267231661E-17
53.4	-7.60433412706694E-18	-5.53497457753714E-18	0.919078486838276	0.178763504756604	0.919078486838276	0.178763504756604	-1.10972273028882E-18	-5.36972790680698E-18
53.5	-1.07611416718031E-17	6.58147585560412E-18	1.00699850421514	0.119633410114194	1.00699850421514	0.119633410114194	3.09874290514059E-17	-6.7530632778222E-18
53.6	1.77357503983754E-17	-1.20471445782839E-17	0.988466135326906	-0.0924632767931419	0.988466135326906	-0.0924632767931415	-6.58744971078608E-17	-1.71463510863884E-17
53.7	-8.86380704238279E-18	-1.20254493194982E-17	0.893618063813488	-0.239232558850338	0.893618063813488	-0.239232558850339	9.4048912980787E-19	-6.54064917137627E-18
53.8	-3.70037808562247E-18	1.12271344489136E-17	1.00572294446437	-0.343736176298431	1.00572294446437	-0.343736176298432	3.84869761259399E-17	4.90379106779423E-18
53.9	2.36442305117556E-17	-1.53838487671991E-17	0.849665773718757	-0.509886694778164	0.849665773718758	-0.509886694778164	-1.28292687553645E-17	-2.66254846196865E-17
54	-9.66710325546088E-18	-8.76813481425351E-18	0.74404032931773	-0.624185345561134	0.74404032931773	-0.624185345561134	-1.70595280146993E-17	-1.63039184818159E-17
54.1	-2.00542435135319E-17	1.04396953824098E-17	0.671193024452754	-0.704795418191214	0.671193024452754	-0.704795418191214	-8.96512666283305E-18	1.85348298105616E-17
54.2	-1.51334258003479E-17	1.9318247743867E-17	0.566034353867852	-0.815158918030645	0.566034353867852	-0.815158918030645	-1.30238062867438E-17	1.39731476971291E-17
54.3	-6.69610361816966E-19	4.13249278508617E-18	0.384478084929348	-0.90415307521389	0.384478084929348	-0.90415307521389	-3.03815008334215E-17	-2.18868540348804E-17
54.4	-1.81295840129369E-17	1.32158337548472E-18	0.335704477960873	-0.901942158978232	0.335704477960873	-0.901942158978232	1.18265837738923E-17	5.97260439517337E-18
54.5	1.21552716109166E-17	3.29098414984551E-17	0.105825654456363	-1.02988620321688	0.105825654456363	-1.02988620321688	1.13013346902151E-17	4.48242233637256E-19
54.6	-5.32810822133927E-18	6.71488670696279E-18	-0.0231768997009258	-0.96392832039553	-0.0231768997009255	-0.96392832039553	1.37836863134515E-18	-4.91021052731428E-18
54.7	1.84992157887745E-17	-7.69850618717139E-18	-0.154685074026047	-1.01085026953258	-0.154685074026047	-1.01085026953258	4.94914457360143E-18	-3.57703674741178E-17
54.8	7.06428423295029E-18	1.95524097817211E-17	-0.327646158007324	-0.964802056742393	-0.327646158007324	-0.964802056742392	1.85432032174936E-17	1.52806602911178E-17
54.9	-1.13700623962286E-18	-1.01499300914746E-17	-0.459462628837283	-0.880611319852179	-0.459462628837283	-0.88061131985218	-6.75973429997413E-18	-1.72338348595712E-17
55	3.08198605807014E-18	-3.15410501054852E-18	-0.580082898426938	-0.834240369947456	-0.580082898426938	-0.834240369947456	1.76766203239041E-17	-1.15852068967218E-17
55.1	-6.27238444133153E-18	-3.18845323472508E-18	-0.714822934241034	-0.730016555710725	-0.714822934241034	-0.730016555710725	-1.0691457038174E-17	-8.37560446926391E-18
55.2	-2.97229442340072E-18	-1.70111790347727E-19	-0.790783062370793	-0.619750935923074	-0.790783062370794	-0.619750935923074	-1.29501572934716E-18	5.72875289191024E-18
55.3	1.12479911473744E-17	-7.35997415326828E-19	-0.891808202574154	-0.470963593896706	-0.891808202574154	-0.470963593896706	1.20847707093245E-17	-1.35919012412744E-17
55.4	-2.78933849693639E-18	-6.36355109485463E-18	-0.95379320388341	-0.376979888993351	-0.953793203883409	-0.37697988899335	1.19422280887274E-17	9.93776369277286E-18
55.5	2.73842519920116E-18	3.12381485469994E-18	-1.01551481938183	-0.199201295079782	-1.01551481938183	-0.199201295079782	1.27772414608618E-17	-1.80942026493313E-18
55.6	-4.34464788111115E-18	-7.76999086956829E-18	-1.01082846374916	-0.0676516050873586	-1.01082846374916	-0.0676516050873588	2.8173468396173E-18	5.76817934133362E-18
55.7	2.20843077730065E-18	1.10363165420934E-17	-1.03627671888243	0.0809181584517089	-1.03627671888243	0.0809181584517083	-1.56058236169443E-17	2.14243362149508E-17
55.8	-1.26944456518433E-18	-1.42396209103354E-18	-1.0028990301351	0.247081540575791	-1.0028990301351	0.24708154057579	-1.81083674429629E-17	5.31942960903548E-18
55.9	3.99336274002263E-18	-1.18832616663578E-18	-0.963823108234643	0.380989379686189	-0.963823108234643	0.380989379686189	-1.43978185786143E-18	-1.65247756193969E-17
56	-6.75442256524097E-18	1.05629043729315E-17	-0.872204356388132	0.518792035893991	-0.872204356388131	0.51879203589399	9.41939596667704E-18	5.11669105830104E-18
56.1	1.23467329446972E-17	-4.64951827173582E-18	-0.82217344440055	0.640169281621471	-0.82217344440055	0.64016928162147	4.29231188049633E-17	6.96697201400608E-18
56.2	6.72351710234683E-18	-4.2069083649047E-19	-0.721200541414428	0.76773647438764	-0.721200541414427	0.76773647438764	-9.60502443192405E-19	6.009869092721E-20
56.3	-8.55118620040821E-18	2.87802749312644E-18	-0.551779850567122	0.854752617154501	-0.551779850567122	0.854752617154502	-2.81909252122043E-17	-1.87886483338329E-17
56.4	-9.46334264866881E-19	7.76669943913651E-18	-0.481504292381288	0.93617204984461	-0.481504292381288	0.93617204984461	1.46455790860053E-17	1.55259509137625E-17
56.5	2.64445533246978E-18	1.50047875304098E-17	-0.319581334809641	1.01343476910174	-0.319581334809641	1.01343476910174	2.23667459249034E-18	4.46119111184539E-17
56.6	1.0640618263534E-17	-1.72086545193543E-17	-0.166461828468865	1.01442177392124	-0.166461828468865	1.01442177392124	2.15125851976193E-17	-1.78947930825472E-17
56.7	2.00682093839942E-17	-2.89079603338386E-18	-0.0236082615430343	1.0454283365316	-0.0236082615430343	1.0454283365316	-1.75683017758697E-17	1.05990301954934E-17
56.8	3.451619183608E-18	-2.76463451881028E-18	0.112800746346857	1.0617692139947	0.112800746346857	1.0617692139947	-6.19120991298916E-19	4.17879663251239E-18
56.9	-2.73235871706108E-17	-1.92422011846264E-17	0.267870930083303	1.00919034641239	0.267870930083304	1.00919034641239	-5.63500366728016E-18	2.0641486208581E-17
57	-6.24577286508833E-18	1.78866675826086E-18	0.428067673627421	0.924923345475111	0.428067673627422	0.924923345475111	2.58919856283084E-17	1.96170911855708E-17
57.1	-1.53782113124593E-17	-2.98798383172092E-18	0.546965467121099	0.887416384262401	0.546965467121099	0.887416384262401	-2.19639342156022E-17	1.8493525424875E-17
57.2	2.61845164826776E-17	1.11381213113892E-17	0.681195642062247	0.825603273655734	0.681195642062247	0.825603273655734	1.74969829370259E-17	-6.73632576666798E-18
57.3	-1.95298002129498E-18	1.58414252422415E-17	0.815112151166671	0.642260793975309	0.815112151166672	0.64226079397531	-2.58041381752795E-17	4.84800824299873E-17
57.4	4.22567174158952E-18	-1.69468563281886E-17	0.836633157374706	0.567449044518479	0.836633157374706	0.567449044518479	6.37662393352361E-18	2.56061499674802E-17
57.5	-5.3034697975663E-19	-2.1481420224054E-18	0.969729324081853	0.44773626201392	0.969729324081853	0.44773626201392	-2.70964690865249E-18	-2.75915856413889E-17
57.6	6.02080470053704E-18	1.29458533922895E-18	1.02206514143941	0.279316370912585	1.02206514143941	0.279316370912585	-1.4400647176226E-17	1.8635710407125E-17
57.7	-9.77563551709359E-18	2.34262121359813E-17	1.00906643537715	0.137556674438509	1.00906643537715	0.137556674438509	-4.28615883432658E-18	2.21502903697808E-17
57.8	6.16978889502585E-18	1.17736179591287E-17	1.0596564795559	0.00727596846909861	1.0596564795559	0.00727596846909856	3.00568474802862E-17	1.01535193722788E-17
57.9	-3.39399827849793E-17	-7.28027513020221E-18	1.06653938214018	-0.130919264662874	1.06653938214018	-0.130919264662874	-1.42044695294821E-17	-7.29686620016408E-18
58	1.81598752680662E-19	-1.55119345178637E-17	0.987295544574743	-0.332668120530372	0.987295544574743	-0.332668120530373	-7.1831476518376E-18	-1.87827457788666E-17
58.1	-1.42837530010627E-17	-5.5870460804247E-18	0.929020628975705	-0.414415246156465	0.929020628975705	-0.414415246156465	-9.6504112544179E-18	-1.42703466399876E-18
58.2	5.00446408848418E-18	1.51260477322191E-17	0.891909567289316	-0.576962304077843	0.891909567289316	-0.576962304077843	2.54415389289008E-17	1.14358084746758E-17
58.3	-1.71169644833786E-17	-2.29429155856758E-17	0.780157578557571	-0.708045774465721	0.78015757855757	-0.708045774465721	-2.20395010731969E-17	-2.14090174301054E-18
58.4	-5.29405598666256E-18	4.72161714730524E-19	0.682122466595411	-0.745666564353678	0.682122466595411	-0.745666564353679	-2.55259565038517E-17	1.29489205469777E-17
58.5	-4.7391970440921E-18	1.50762299618031E-17	0.601159572435668	-0.897240491654111	0.601159572435668	-0.897240491654111	-7.04801512004929E-18	9.46213004419922E-18
58.6	-6.00540049577259E-18	7.79536954828341E-18	0.436723995984959	-0.960081513950221	0.436723995984959	-0.960081513950221	9.06350213465435E-18	7.4601071122013E-18
58.7	1.07196191063583E-17	-1.03144014381466E-17	0.297176868243471	-0.979212564525147	0.297176868243471	-0.979212564525147	8.68763040406098E-18	2.53040442385942E-18
58.8	1.71240117952314E-17	-2.61947476852771E-17	0.173854877204918	-1.03133003644098	0.173854877204918	-1.03133003644098	8.22803019375943E-19	6.31119054194841E-18
58.9	-1.59800478523124E-19	1.97564481075233E-18	0.0431245145183497	-1.06805496939206	0.0431245145183498	-1.06805496939206	-3.48620491283665E-19	-7.98247948227087E-18
59	-2.17569812017328E-17	1.29117029619038E-17	-0.141421924367285	-1.03116255490691	-0.141421924367286	-1.03116255490691	-8.29494612479761E-18	-5.24228101744945E-18
59.1	-6.02137366092513E-18	-5.34265571651343E-18	-0.250919764712628	-1.0115764724287	-0.250919764712628	-1.0115764724287	1.37981737074979E-18	-1.35179257216641E-17
59.2	4.64506021606624E-18	4.99261774168864E-19	-0.398482797310304	-1.00481334843046	-0.398482797310304	-1.00481334843046	2.1693343205596E-20	2.24113449621159E-18
59.3	-1.8662223564482E-18	8.66528684555467E-18	-0.551464423650348	-0.881069137125402	-0.551464423650348	-0.881069137125402	1.70950933593015E-18	2.91435502218196E-18
59.4	-9.88625856503306E-19	2.72550671107529E-18	-0.640206933957156	-0.836956788064698	-0.640206933957155	-0.836956788064698	3.82809084963593E-18	1.89999102651587E-17
59.5	-7.69325899148206E-18	3.23188757676196E-18	-0.778767360574843	-0.728546689582432	-0.778767360574843	-0.728546689582433	1.37791815371364E-17	-9.19209605942775E-19
59.6	9.12451563263572E-18	1.6936865743101E-19	-0.85603232153759	-0.597319615462224	-0.856032321537591	-0.597319615462224	-6.28073706128124E-18	4.82654661518062E-18
59.7	5.6516707918169E-18	3.22468152384671E-17	-0.946739578010201	-0.497424372669571	-0.946739578010202	-0.497424372669571	1.3916096634202E-17	1.93250467202342E-17
59.8	5.28662730567851E-18	-9.88492780155794E-18	-1.01521850401865	-0.353968414465769	-1.01521850401865	-0.353968414465769	-7.87711629642422E-18	-1.26537867163761E-17
59.9	-5.72743818308927E-19	1.5765130502597E-17	-1.04496102122967	-0.224173993234112	-1.04496102122967	-0.224173993234111	1.08510769008746E-18	4.8331796342942E-18
60	-1.39047400232223E-17	1.50288479326744E-18	-1.0597975205882	-0.0548547180319452	-1.05979752058821	-0.0548547180319454	9.48709891720002E-18	-1.57101687135228E-17
60.1	-1.28299189277973E-17	5.77261838667169E-18	-1.05271128309836	0.0761907386989075	-1.05271128309836	0.0761907386989073	1.00835238997254E-17	2.1942934079589E-18
60.2	9.2142103762727E-18	5.06342670908861E-18	-1.06428545684178	0.207997369676914	-1.06428545684178	0.207997369676914	-6.11402414728588E-18	-9.62630375059844E-18
60.3	-8.65518592917238E-18	5.18967841538125E-18	-0.996329755133257	0.385020901946155	-0.996329755133257	0.385020901946155	-1.74735166434037E-17	-8.37181063558176E-19
60.4	1.80258430991874E-17	-1.04881734487724E-17	-0.940460415243768	0.471133194983007	-0.940460415243769	0.471133194983007	1.62197015930477E-17	7.42834604218994E-19
60.5	1.57180006175234E-17	-1.49709632566128E-17	-0.876942217362788	0.62973052318111	-0.876942217362788	0.62973052318111	-2.08309592279815E-18	1.43136235868011E-18
60.6	4.26653716559496E-18	-4.75410939388237E-18	-0.779521663132072	0.736560274134019	-0.779521663132072	0.736560274134019	-1.12987719631477E-19	1.99203393325813E-18
60.7	1.59392468639066E-17	1.58159585136145E-17	-0.668546368098889	0.839677565651935	-0.668546368098889	0.839677565651935	1.11934839852328E-19	4.86905122896589E-19
60.8	-3.86091195687264E-18	8.77819342402595E-18	-0.550732581127252	0.930913286536293	-0.550732581127252	0.930913286536294	1.32221604088987E-17	7.20843658931571E-18
60.9	9.28710729537746E-18	1.59433547802462E-18	-0.428568276296924	0.998592906827274	-0.428568276296925	0.998592906827275	1.41056256522816E-17	-1.34066572914743E-17
61	-7.19305582583086E-18	-1.73217225461091E-18	-0.275457863023649	1.04681517670918	-0.275457863023649	1.04681517670918	-2.93303197510985E-18	-4.90925974938408E-19
61.1	-2.05960321094352E-17	1.26455827464794E-17	-0.132841639643665	1.06039268641405	-0.132841639643664	1.06039268641405	-2.17305409565489E-17	-2.97597447314534E-18
61.2	1.53272941011579E-17	-3.46025104411713E-17	-0.00226048196287763	1.08024611573545	-0.00226048196287814	1.08024611573545	6.18302020817322E-18	-2.62904178098133E-17
61.3	1.37234012026751E-18	2.87060494403911E-18	0.153686772653591	1.08743826191234	0.153686772653591	1.08743826191234	-3.56391238675308E-18	-2.91901627161652E-18
61.4	2.51601224064047E-17	-4.69346651364862E-18	0.32401659429569	1.02804534677295	0.32401659429569	1.02804534677295	3.50879117200985E-17	-6.10647201737166E-18
61.5	-2.44887871938008E-17	3.67846796926707E-18	0.412506093306002	0.985826770419188	0.412506093306002	0.985826770419188	-1.5534739015951E-17	6.94108263931415E-18
61.6	-5.7195537021467E-18	-7.70310666378304E-18	0.582372858464992	0.94739435071903	0.582372858464992	0.947394350719029	-4.25499949919568E-18	-1.29729931620731E-17
61.7	1.06576544990417E-17	-2.77861057075854E-19	0.707035403694872	0.839876711976822	0.707035403694872	0.839876711976822	1.92393158475884E-17	-1.92164442265598E-17
61.8	-3.86945514322819E-18	2.31606618940172E-18	0.790734019772936	0.733027688037353	0.790734019772937	0.733027688037353	9.24014813716609E-18	1.8273346069468E-18
61.9	5.12602456212942E-18	1.35671381961399E-17	0.89110570448098	0.615905248188779	0.891105704480981	0.615905248188779	7.18261209175845E-18	-9.78572939622481E-18
62	-1.65548431876233E-17	1.73370429580701E-18	0.971269736696615	0.514726582657692	0.971269736696615	0.514726582657692	9.35338723535151E-18	6.31880074484773E-18
62.1	-6.90393837513382E-18	-2.05315797363E-17	1.04844757118774	0.366227191129689	1.04844757118775	0.366227191129689	1.14989226255242E-17	-1.10151812024347E-17
