# GHZ S RI R 50
50	1.49074770303846E-17	3.10304079769137E-18	0.754426553747163	-0.527430889566489	0.754426553747163	-0.527430889566488	-1.65749331045975E-17	3.3301341168844E-18
50.1	-2.21114966347116E-17	8.29169639853252E-18	0.63412099058406	-0.632480263230144	0.634120990584061	-0.632480263230144	-4.86660179166939E-18	-1.40410519621192E-18
50.2	-7.38261393136801E-18	1.17655318828059E-17	0.534410727153767	-0.72192796594532	0.534410727153767	-0.72192796594532	-3.87996099559825E-19	-1.08563523864014E-17
50.3	1.41266045540272E-17	-1.28472066223324E-17	0.419677722100941	-0.825965934455077	0.419677722100941	-0.825965934455076	3.74019276235427E-18	1.01743851114582E-17
50.4	-2.27950429963213E-19	3.00522759373749E-18	0.234839376209801	-0.849603990787049	0.234839376209802	-0.849603990787049	-5.94999277437467E-19	-1.60644765047866E-17
50.5	1.19564578628227E-17	3.06307805724674E-17	0.131236100107933	-0.90222362869579	0.131236100107933	-0.90222362869579	-6.35039848942922E-18	1.1212118746787E-18
50.6	-3.10033101963935E-17	1.13172935207021E-18	-0.0368966242956803	-0.900396334163434	-0.0368966242956806	-0.900396334163433	4.67304888386291E-18	5.27022744752274E-18
50.7	7.34759994610248E-18	-3.3847204634113E-17	-0.168574302396099	-0.877056098975608	-0.168574302396099	-0.877056098975608	-3.08315604078206E-18	-2.59191323150314E-19
50.8	4.90437621703891E-18	-3.3634626766248E-18	-0.327230600030649	-0.862173186889219	-0.327230600030649	-0.862173186889219	2.81771897854183E-17	6.44954614012368E-19
50.9	1.88227014032989E-18	-1.44398332390285E-17	-0.446558312153242	-0.761569381071424	-0.446558312153243	-0.761569381071424	-1.23603421154352E-18	-2.54804170073929E-17
51	-1.01549128805825E-17	-8.11636312316226E-18	-0.580649284805337	-0.700070046935998	-0.580649284805337	-0.700070046935997	-1.02212419750009E-17	-7.76378476423431E-18
51.1	-1.23814396780352E-18	-8.74830500494178E-18	-0.68158950848499	-0.591916914418245	-0.68158950848499	-0.591916914418245	-1.27956622419647E-17	3.83198512846383E-19
51.2	-6.03278301446633E-19	4.97569438637804E-18	-0.762354617992743	-0.469214815374264	-0.762354617992743	-0.469214815374264	1.11924379852197E-17	5.80283228399714E-19
51.3	-7.57799482484174E-18	4.20760409930744E-19	-0.832824206388576	-0.341884784234841	-0.832824206388576	-0.341884784234841	4.4990236737414E-19	-7.45922990210008E-18
51.4	5.56239821166451E-18	4.66779626110981E-19	-0.891957659150376	-0.222352322563005	-0.891957659150377	-0.222352322563005	3.86586302871386E-18	-8.73588479499658E-18
51.5	-6.97005891563938E-19	3.68751774736991E-18	-0.884099733160316	-0.0425375325529021	-0.884099733160316	-0.0425375325529016	-3.22746198244589E-18	5.15015443707754E-18
51.6	-1.61221013992387E-17	4.56366022557932E-18	-0.900504761377282	0.0671572721260277	-0.900504761377282	0.0671572721260276	1.51427778945467E-17	5.59566998143317E-18
51.7	-1.93348693167273E-17	-1.31446423290018E-17	-0.892712598328393	0.212862312848209	-0.892712598328393	0.212862312848209	-1.32904468388585E-17	5.08292436968861E-18
51.8	2.53127580068374E-18	-1.68215747295721E-17	-0.78799667299202	0.351283279429455	-0.78799667299202	0.351283279429455	-3.84151121285615E-18	-3.45236904508564E-18
51.9	2.16468068119818E-17	1.91783655980804E-17	-0.794994584369703	0.472288383013938	-0.794994584369702	0.472288383013938	2.41329216113669E-17	-2.57046260598331E-17
52	-2.05392774737286E-17	2.42824201690628E-19	-0.649124267052687	0.604404867941481	-0.649124267052687	0.604404867941481	-1.28340949368196E-17	7.29189759910419E-18
52.1	-1.73258737307621E-17	-1.06893496947028E-17	-0.552875850528039	0.682682755512681	-0.552875850528039	0.682682755512681	-1.98632757235921E-17	-3.30716419521035E-18
52.2	1.42576931143774E-17	-3.44755614741882E-18	-0.46576316956627	0.764547219810881	-0.46576316956627	0.764547219810881	1.62204375386765E-17	-7.98096590093087E-18
52.3	7.89447183200524E-18	-6.89328652218755E-18	-0.343513199153079	0.828104986294434	-0.343513199153079	0.828104986294434	1.0833906781531E-17	1.0856298234839E-17
52.4	5.70585640644655E-18	1.78692802790053E-18	-0.196308163216661	0.903599186556263	-0.196308163216661	0.903599186556262	-8.66867318018719E-18	-3.81870423929699E-17
52.5	-1.76784716780713E-17	-1.17889111243214E-18	-0.0737167486348266	0.848501911069585	-0.0737167486348264	0.848501911069585	-7.21997184290008E-18	-2.54155543692959E-18
52.6	-1.1643028427613E-18	9.73018136656837E-18	0.0495335689687776	0.918901227850306	0.0495335689687776	0.918901227850306	2.31312623593601E-17	-4.71743386226337E-18
52.7	5.80807725388314E-19	-4.74515796460299E-18	0.253250415769627	0.89254422400362	0.253250415769628	0.89254422400362	1.58437356181251E-17	-2.759504849582E-18
52.8	2.23642832025134E-17	-8.72603275857178E-18	0.282305703007872	0.732201043874482	0.282305703007872	0.732201043874482	-3.35858410225307E-17	-2.43498938784137E-17
52.9	-1.24324663313186E-18	7.02983538588433E-18	0.543645158159745	0.838188057611766	0.543645158159745	0.838188057611766	-2.11201542531873E-17	1.33229743280925E-17
53	3.98721219943614E-18	-1.0687135940874E-17	0.554438890999394	0.637033791469652	0.554438890999393	0.637033791469651	7.69380191796217E-18	-1.42651139122839E-18
53.1	2.011393769725E-17	2.05659207988124E-17	0.663453245186531	0.609785199072405	0.663453245186531	0.609785199072405	1.84652101629046E-17	-1.56956573734517E-17
53.2	-3.36490258673063E-18	3.48089251145907E-18	0.803293004751694	0.487107487509212	0.803293004751694	0.487107487509212	1.25719289918682E-17	-5.69121743929938E-18
53.3	-1.27602481934642E-17	-7.15310528042469E-18	0.813222095991146	0.366876726432472	0.813222095991145	0.366876726432472	-3.52683776660435E-18	2.52136805890479E-17
53.4	-5.6385685524754E-18	-6.67453741205393E-18	0.848745090756118	0.174563768493623	0.848745090756118	0.174563768493623	-6.10241185608125E-19	1.4622307167672E-17
53.5	-2.13963107307126E-17	1.89453512697384E-17	0.913590182443792	0.138643249102264	0.913590182443792	0.138643249102265	-2.45205594361672E-17	2.65055793711173E-17
53.6	3.07604509671182E-17	-1.00555873637943E-17	0.911288643412818	-0.0621071727725416	0.911288643412818	-0.0621071727725413	-2.38055460696199E-17	-2.44951149800275E-17
53.7	5.88671400926386E-18	1.67911906207762E-17	0.822924058900902	-0.212424113895979	0.822924058900902	-0.212424113895979	3.20652699658718E-17	2.3112358087677E-18
53.8	-4.99114469679621E-18	7.14835169828293E-18	0.925067841058301	-0.271036517011223	0.925067841058301	-0.271036517011223	1.17263352974541E-17	-5.60202046769362E-18
53.9	-1.94925499109534E-18	4.82522015872718E-19	0.787811193706882	-0.444847704014899	0.787811193706881	-0.444847704014899	1.59607231725683E-17	-4.46812037872376E-18
54	-2.50609284863408E-18	-4.38775467339518E-18	0.690630040513467	-0.55388723599642	0.690630040513467	-0.55388723599642	2.57500096682251E-21	-1.25349704948623E-17
54.1	-6.70959691574905E-18	1.60256169892597E-17	0.621174907109664	-0.620111230349527	0.621174907109664	-0.620111230349526	2.67124155189254E-17	9.40076497043097E-18
54.2	-6.79292703354484E-18	-8.27562131801399E-19	0.532277190752722	-0.71954856106301	0.532277190752723	-0.719548561063011	3.06426458981825E-18	5.1544935944692E-19
54.3	1.2037929484944E-18	1.82936808134318E-17	0.370566118621896	-0.814428546434743	0.370566118621897	-0.814428546434743	-7.07532021330203E-18	9.84972984718878E-18
54.4	-1.07027712596424E-17	1.86552739688601E-19	0.319463733488071	-0.79067233146332	0.319463733488071	-0.790672331463321	-2.20331570763628E-17	1.55509108255113E-17
54.5	-2.11228432707439E-17	-1.56776134932189E-17	0.131324968148332	-0.932820365060411	0.131324968148332	-0.932820365060411	-3.00001961465908E-17	-1.82277112247333E-17
54.6	2.08878193920568E-17	5.1887744527328E-18	-0.000648607559407269	-0.867341999126266	-0.000648607559407018	-0.867341999126266	-6.54452170464787E-18	-1.30402487103525E-17
54.7	-1.12103390503244E-17	-6.40527763835324E-18	-0.103574960955725	-0.911403638422434	-0.103574960955725	-0.911403638422434	-1.2716918385049E-17	-1.56508420878361E-18
54.8	1.84239274179406E-17	1.18863631980055E-19	-0.263015426023181	-0.878893064023158	-0.263015426023182	-0.878893064023158	2.42299792148777E-17	1.02797802937872E-17
54.9	-2.69928185619261E-18	-1.17907107645306E-18	-0.387927257627658	-0.803297525792516	-0.387927257627658	-0.803297525792517	3.82962038565899E-18	-1.37043094745381E-17
55	-1.44531433597222E-18	9.9592712977245E-18	-0.48933311823513	-0.764584595590976	-0.48933311823513	-0.764584595590976	-6.18845682431194E-18	6.59082747641165E-18
55.1	-3.23220949022089E-18	3.14970951935078E-18	-0.61463521426868	-0.678320569958454	-0.61463521426868	-0.678320569958453	-3.25006464095766E-18	3.33051962098968E-18
55.2	-6.08561641563911E-18	3.49217151969573E-18	-0.682858681345065	-0.576814416863967	-0.682858681345065	-0.576814416863967	-1.68621154960941E-17	4.76049025064947E-20
55.3	6.3920658352699E-18	-2.50255828713345E-19	-0.782284732147319	-0.449638233460075	-0.78228473214732	-0.449638233460076	-1.72984133777672E-18	2.64212258386803E-18
55.4	-1.27942156432395E-17	6.67256925935177E-18	-0.830233658211348	-0.37029692223938	-0.830233658211347	-0.37029692223938	-7.94528612269787E-18	6.17170177441921E-18
55.5	-6.55395996806914E-18	-6.68250302296446E-18	-0.897902834057814	-0.216574142848832	-0.897902834057814	-0.216574142848832	-2.23282803774892E-18	-8.62619597877852E-18
55.6	-3.70533049314857E-18	6.22017099109799E-19	-0.891735337418166	-0.0958655006591475	-0.891735337418165	-0.0958655006591479	-6.64034818060983E-18	4.26761687536947E-18
55.7	1.46553047353368E-18	-9.09264053633118E-20	-0.919583072179616	0.0284996024968926	-0.919583072179616	0.0284996024968926	-4.95285784050162E-18	1.50190103567901E-17
55.8	2.78973594069364E-18	6.71567019264229E-18	-0.897963101455045	0.179091242891194	-0.897963101455045	0.179091242891194	1.41029074045488E-17	-5.85844547545664E-18
55.9	-4.68521581847006E-18	-1.19825720200372E-17	-0.865745431277067	0.295948134396587	-0.865745431277066	0.295948134396587	6.14909094520862E-18	-1.57788609021112E-17
56	-9.81528245103935E-19	-2.30825531663812E-18	-0.78806362988113	0.425451268648646	-0.78806362988113	0.425451268648647	-1.09055856283432E-17	-1.381306076782E-17
56.1	-1.69194580092717E-17	9.33009217988559E-18	-0.749695915138779	0.525528850128901	-0.749695915138779	0.525528850128901	1.29189070675525E-17	-1.50051414864531E-18
56.2	1.63179488292606E-17	-6.7633137467932E-18	-0.669066265594196	0.641260481374474	-0.669066265594196	0.641260481374474	5.95420595531576E-18	2.52816259479625E-19
56.3	1.40174049264936E-17	3.94104412392662E-18	-0.518300270893276	0.733569042774605	-0.518300270893276	0.733569042774605	3.90659907474074E-18	1.94025866205427E-17
56.4	1.04099495973304E-17	-2.46920771192193E-18	-0.465142590400506	0.794231780930589	-0.465142590400506	0.794231780930589	8.75128825978753E-18	4.56411412170796E-17
56.5	-6.98561864456495E-18	2.05295712855775E-17	-0.329464098754233	0.873399099870313	-0.329464098754233	0.873399099870313	-2.26998765370223E-18	-1.99669202901827E-18
56.6	-1.86292555801459E-18	4.14971103043123E-18	-0.188106562469143	0.878310230576008	-0.188106562469143	0.878310230576008	4.84649978243717E-18	-3.96092092482946E-18
56.7	8.0730311931698E-18	-2.24311514212161E-19	-0.0693241802138442	0.909950510091018	-0.0693241802138442	0.909950510091019	2.53322900191728E-18	1.20808261826617E-17
56.8	8.26150345714188E-18	8.26403979866328E-18	0.0420120506310136	0.927743568328029	0.0420120506310137	0.927743568328029	-3.08211160124149E-18	3.28431739494806E-18
56.9	9.76323373801412E-18	8.19810406638499E-18	0.183933867753493	0.887595766517762	0.183933867753493	0.887595766517762	2.67203139904939E-17	1.32809081951181E-17
57	1.97972218323271E-18	-3.84011047524789E-18	0.334543730061761	0.821983239733045	0.334543730061761	0.821983239733046	2.93378310748381E-17	-2.86218277275329E-17
57.1	6.11592241176126E-18	-1.45734921418057E-17	0.43024962197221	0.793588892150369	0.43024962197221	0.793588892150369	9.64236708811531E-19	-1.96149899242158E-17
57.2	1.40514350806162E-17	3.59649844327371E-17	0.543416526499459	0.750454493394473	0.543416526499459	0.750454493394474	-3.10856505747344E-17	-8.04731313718562E-19
57.3	-1.05017387227872E-17	1.30272953250416E-17	0.685353398845715	0.597216499248308	0.685353398845716	0.597216499248308	-2.04691250338202E-17	-1.51483316333424E-18
57.4	1.75264870951688E-18	2.52079044074977E-17	0.691125122412472	0.522069267326163	0.691125122412472	0.522069267326162	2.01808706683274E-17	1.38820708800634E-17
57.5	-5.23247715563564E-18	-1.33820474379423E-17	0.812686130627264	0.439009837331468	0.812686130627264	0.439009837331469	-4.55088445726688E-17	-7.3324560496664E-18
57.6	-7.36923175386276E-18	5.43309007021386E-18	0.870584111469733	0.294165742778679	0.870584111469733	0.29416574277868	-4.07632476075265E-18	-3.10979046786709E-18
57.7	-1.33974537261084E-18	-1.48081380018928E-17	0.860356479769005	0.162530050889619	0.860356479769005	0.162530050889618	-2.11821646678859E-18	-2.01122727751219E-17
57.8	7.85752170088693E-18	1.63557402572146E-17	0.908196089635591	0.0637445972904309	0.908196089635591	0.0637445972904307	-1.20513170265078E-18	8.5427161547364E-18
57.9	-5.75681822802432E-18	-2.09897832766395E-17	0.918905940055185	-0.0490689959212696	0.918905940055186	-0.0490689959212697	1.31773062637206E-18	-1.52840550293312E-17
58	-3.46503984602181E-18	-6.12841757310844E-18	0.868204741060019	-0.240090428574179	0.868204741060019	-0.240090428574179	-2.49196608746179E-18	-1.51197783101755E-17
58.1	-1.1176754049453E-17	-5.69255193574246E-18	0.808488050157482	-0.308398620158427	0.808488050157482	-0.308398620158428	1.71588728932349E-17	3.61650278132195E-18
58.2	-3.99026976887528E-18	-5.83340081987869E-18	0.794242818382182	-0.443306374501247	0.794242818382183	-0.443306374501247	-5.88453017986693E-18	8.17427740709366E-18
58.3	-4.77312713905821E-18	1.84311432440765E-18	0.705753230912732	-0.565654650384018	0.705753230912732	-0.565654650384018	8.75750422578367E-18	1.94015017335323E-17
58.4	-1.38214556632052E-17	-3.57233975880256E-19	0.609624285832071	-0.594071322788358	0.60962428583207	-0.594071322788358	9.92206449110184E-18	5.28579040544206E-18
58.5	-7.09528956369768E-18	1.76087716733142E-18	0.565610820488625	-0.723139623843538	0.565610820488625	-0.723139623843538	-7.25063224681368E-19	9.21869834336978E-18
58.6	7.38132456268083E-18	-9.08746496848405E-18	0.424309105918295	-0.790680684562168	0.424309105918295	-0.790680684562168	1.50975443064645E-17	5.07044088136255E-18
58.7	1.63603516658668E-17	3.79419784150836E-18	0.299797920510712	-0.810248351595482	0.299797920510712	-0.810248351595482	-1.73450376133601E-17	7.30017913098296E-18
58.8	-2.45420281624261E-18	7.81469675932066E-18	0.204909604172292	-0.856895689405217	0.204909604172291	-0.856895689405217	6.08314085894128E-18	-1.05036714278039E-17
58.9	6.7127164981154E-18	2.02963030083344E-17	0.104102927105469	-0.892463309647923	0.10410292710547	-0.892463309647923	-9.89078534730029E-18	2.35650246819972E-17
59	-1.73054456359996E-17	1.12716599472601E-17	-0.0625846549696722	-0.876008265300585	-0.062584654969672	-0.876008265300585	-1.62152623823047E-17	1.41564895084305E-17
59.1	-1.97151963750589E-18	9.09321870948539E-18	-0.149485997064325	-0.857740152358577	-0.149485997064325	-0.857740152358578	-4.7134292224246E-18	-1.44982357079459E-18
59.2	1.639314918862E-17	9.08517418548398E-18	-0.264231479238403	-0.865506335913853	-0.264231479238403	-0.865506335913853	6.23012517423312E-18	-5.37241821631376E-18
59.3	1.21373869400466E-17	-4.25435886191936E-18	-0.413143760589619	-0.769205413185747	-0.413143760589619	-0.769205413185747	3.30769179826674E-18	2.19089954907389E-18
59.4	-5.17067107098154E-19	-2.49512329840251E-17	-0.476498105014504	-0.733938283998541	-0.476498105014503	-0.73393828399854	-4.32820397868397E-18	-2.37408346318878E-17
59.5	3.76536932884896E-18	-3.47547522882572E-18	-0.602188760436622	-0.657392254612796	-0.602188760436623	-0.657392254612796	-8.75902999060856E-19	-5.78616260003743E-18
59.6	-3.17541042881237E-18	-2.3427273464863E-18	-0.675301841265073	-0.547360021378364	-0.675301841265073	-0.547360021378364	3.0944760010992E-18	-1.07036199163104E-17
59.7	4.48058420084848E-18	5.46765988526976E-18	-0.751176680159874	-0.475816508203209	-0.751176680159873	-0.475816508203209	5.41062739174004E-18	5.02808305286538E-18
59.8	-9.75868153826898E-18	-1.1795646548799E-17	-0.818489268935965	-0.362670942897078	-0.818489268935965	-0.362670942897078	-7.7594632146784E-18	-2.34749604744081E-18
59.9	-4.93654546538396E-18	-2.3798218078612E-18	-0.846295201207686	-0.256661386962649	-0.846295201207686	-0.256661386962649	1.39214638107054E-17	1.14162308433818E-18
60	-1.16151129629135E-17	1.22042515720217E-17	-0.872903271504429	-0.114708327225171	-0.87290327150443	-0.114708327225171	-5.1958584731139E-18	-1.38957281936098E-18
60.1	-7.81472905745121E-18	-4.07141250611241E-18	-0.870155775335554	-0.00724523302905418	-0.870155775335555	-0.00724523302905411	-1.00363563515458E-17	1.09997787078549E-17
60.2	-3.96794027674123E-19	1.49295909192199E-18	-0.887833536140393	0.0908188162468272	-0.887833536140394	0.0908188162468269	1.02477663974349E-18	1.1780969933791E-17
60.3	-1.72935410350961E-18	-1.01750116901111E-17	-0.847809670710623	0.24988141453042	-0.847809670710624	0.24988141453042	-4.91830949429672E-18	1.4869707166826E-17
60.4	3.61403682454013E-18	1.12510559530024E-17	-0.796673181205742	0.316867777824727	-0.796673181205743	0.316867777824727	2.93788136943445E-18	7.75056775197035E-18
60.5	-6.35162156800082E-18	5.84500494479647E-18	-0.764035998228408	0.450558233592672	-0.764035998228408	0.450558233592672	-8.61363105243876E-18	1.47486234067655E-18
60.6	6.16651069094746E-18	-8.48712373124568E-18	-0.689556886432621	0.543391219108937	-0.689556886432621	0.543391219108937	7.81556601650034E-19	-3.24999712180197E-18
60.7	4.73824889240725E-18	1.12204190770516E-18	-0.606564694990227	0.634987342338314	-0.606564694990227	0.634987342338313	-8.14020246171031E-18	-2.3052990769529E-18
60.8	3.28440663137243E-18	-1.96999897613423E-18	-0.519126956039576	0.716503380343723	-0.519126956039576	0.716503380343723	8.7267061857097E-18	-6.07662395473676E-18
60.9	1.22922211567167E-18	-6.94434258839778E-18	-0.426194759759083	0.777091175698732	-0.426194759759083	0.777091175698733	-1.17056264466925E-17	-6.1811808216832E-19
61	-8.97712795145992E-18	-4.06080468998583E-18	-0.304162215790641	0.829255418582229	-0.304162215790642	0.82925541858223	-2.8268304574289E-18	6.47474083963151E-18
61.1	5.56398239899302E-18	4.21332563212174E-19	-0.186971224946567	0.847343479692943	-0.186971224946567	0.847343479692943	-1.55680246519556E-17	7.17661505617334E-18
61.2	8.33574941985309E-18	1.87851301307281E-17	-0.0879960120356778	0.8696929335835	-0.0879960120356782	0.8696929335835	-1.0995167204043E-18	-1.23950484450152E-18
61.3	-1.72967133103301E-18	-9.19611662389099E-18	0.0335271835229308	0.890574135014824	0.033527183522931	0.890574135014824	-1.88328254877366E-17	2.19721144990224E-18
61.4	7.97989523638177E-18	-3.59156308904272E-18	0.18401811176431	0.857222105204007	0.18401811176431	0.857222105204007	-8.81634920032342E-18	-3.34349115987737E-18
61.5	5.68343510636802E-18	1.30347491669249E-17	0.249367917047794	0.819144551940849	0.249367917047794	0.819144551940849	6.85095037430023E-18	-9.19230424122758E-18
61.6	2.77622328775329E-18	7.71843209897791E-18	0.385883148417731	0.81364307684186	0.385883148417731	0.81364307684186	-1.33641669749359E-17	-3.65369896299608E-18
61.7	-3.0496682252584E-18	2.59488030977466E-19	0.498638003862508	0.735125023759391	0.498638003862507	0.735125023759391	-1.01227686532139E-18	2.54352979259771E-18
61.8	-2.28995230121507E-17	4.89116343503504E-18	0.571199890481661	0.649991718546275	0.571199890481662	0.649991718546275	-2.07549435262036E-18	-4.19818872247671E-18
61.9	1.83908656917045E-18	-1.37506507295917E-17	0.661173400346744	0.565828758860672	0.661173400346745	0.565828758860672	-1.20706942216488E-18	-3.46791353328077E-18
62	-2.74665644043715E-18	3.55386781437868E-19	0.727020592729364	0.495858761393132	0.727020592729364	0.495858761393132	-1.54248095453412E-17	-6.2178469690522E-18
