# GHZ S RI R 50
50	-5.45806267696103E-18	-3.81635392588117E-17	0.852451536640699	-0.614514230673548	0.852451536640699	-0.614514230673547	1.9518311988023E-17	4.48351688340385E-18
50.1	6.045085837596E-18	-1.38455711680563E-17	0.716237521208661	-0.734345904124488	0.716237521208661	-0.734345904124487	-8.48558545528659E-18	7.51569013828631E-18
50.2	2.98973138774304E-18	-2.53189435202493E-17	0.598542063849169	-0.837679130420816	0.598542063849168	-0.837679130420817	2.07200717844015E-17	9.42385373643181E-18
50.3	8.92929739032507E-19	-2.67246301780215E-17	0.461745070982347	-0.952874751190636	0.461745070982348	-0.952874751190636	1.11482810364139E-17	1.41201747570024E-17
50.4	2.31139385939121E-17	-1.76027115607668E-17	0.255819774012506	-0.979312179215869	0.255819774012507	-0.979312179215869	3.87540948804424E-18	2.1729789874995E-18
50.5	1.01556343541888E-17	-2.08867713611158E-17	0.128830257492332	-1.03712899933545	0.128830257492332	-1.03712899933545	6.89355661639593E-18	-2.14661888537078E-19
50.6	-7.25465361847889E-18	1.81044733100179E-18	-0.0621120021713154	-1.03217795525554	-0.0621120021713155	-1.03217795525554	-7.14343938725526E-18	2.7311808122146E-18
50.7	-3.90007631430414E-18	2.49728725321705E-19	-0.215448984182447	-1.00413349314992	-0.215448984182446	-1.00413349314992	3.34828147670781E-19	-8.17544190930652E-18
50.8	-2.7403214073744E-18	-3.96608427806122E-20	-0.39739751315706	-0.979387621486344	-0.39739751315706	-0.979387621486343	7.54486826709671E-19	-4.78564725221005E-18
50.9	1.05064587961513E-17	-2.08283972455628E-17	-0.533178651133972	-0.866122850763892	-0.533178651133972	-0.866122850763892	2.83877456522775E-20	-8.02511589035028E-18
51	2.46499279919992E-18	-3.96018453764055E-18	-0.686038286687626	-0.788327407822502	-0.686038286687625	-0.788327407822502	1.35312321447795E-18	4.0143282933347E-18
51.1	-3.0463643793672E-17	1.14546040058905E-19	-0.800490088048834	-0.661810196759262	-0.800490088048834	-0.661810196759262	2.97246033627636E-18	-4.37961004226818E-18
51.2	8.33334594367402E-18	9.06206498488826E-18	-0.89147969204069	-0.518785019002254	-0.891479692040689	-0.518785019002255	-2.51633915671536E-18	-6.92804273274965E-19
51.3	9.26337221767584E-18	2.01183729193813E-17	-0.969389023253216	-0.369028248158682	-0.969389023253216	-0.369028248158682	6.35843581735914E-18	-4.33449986977269E-18
51.4	-9.56370334356276E-18	-1.11935850669709E-19	-1.03376622683326	-0.225709947528976	-1.03376622683326	-0.225709947528976	5.60835615359004E-18	6.84496808510772E-18
51.5	-1.16287291772364E-19	2.48899370392198E-18	-1.02179511764845	-0.0238564316112425	-1.02179511764845	-0.0238564316112426	-7.24070895686395E-18	-3.38290303337787E-19
51.6	2.19613121941509E-17	1.02634070644986E-17	-1.03706407535664	0.109404789589496	-1.03706407535664	0.109404789589496	-2.02107511335917E-17	2.16725624465633E-17
51.7	-1.19236775376961E-18	1.42463172804089E-17	-1.0213482349705	0.278709127463466	-1.0213482349705	0.278709127463466	1.21766883521007E-17	7.49148349663551E-18
51.8	5.86022757929938E-18	-8.68376559655564E-18	-0.903115374268337	0.432922953372808	-0.903115374268337	0.432922953372808	-8.52760179050216E-18	-1.57785042141363E-17
51.9	2.31760107755968E-17	4.00203788798914E-18	-0.897870299493862	0.578437187190615	-0.897870299493861	0.578437187190614	3.43027531162057E-17	-1.81126480884577E-17
52	-3.53157104237311E-18	-1.01119343540735E-17	-0.730923842037605	0.721651612012814	-0.730923842037604	0.721651612012814	-5.62737758978494E-18	1.06813767777693E-17
52.1	0	0	-0.616463266941298	0.812584370873725	-0.616463266941299	0.812584370873726	-5.94311075362287E-18	-1.14836273632971E-18
52.2	1.6437095134219E-18	4.48392463772817E-18	-0.508207939380822	0.906389952960482	-0.508207939380823	0.906389952960482	-1.26527003102915E-17	4.4425719170027E-18
52.3	5.5887254691355E-18	-2.80913425459428E-17	-0.362678357502207	0.976164819043194	-0.362678357502207	0.976164819043194	-3.88636472175587E-17	-3.84704209681891E-17
52.4	-1.40776406969277E-17	-2.00968263395146E-18	-0.187833536768643	1.05346693936099	-0.187833536768643	1.05346693936099	-3.19790611491421E-17	1.7857455203694E-17
52.5	-8.39057217558808E-18	6.10164860949875E-18	-0.0487624529528223	0.995457242632555	-0.048762452952822	0.995457242632554	-1.40250379065458E-17	1.93996121660811E-17
52.6	-1.05483569638883E-17	2.33219428933524E-17	0.104357750840976	1.0642499881214	0.104357750840976	1.0642499881214	6.13441030548872E-17	6.46965356351482E-17
52.7	-1.48124272773773E-19	-3.60648216042147E-18	0.332361445517052	1.0216297271962	0.332361445517053	1.0216297271962	-2.04597056032701E-18	5.84408647732991E-17
52.8	-1.00811251763715E-17	1.93609336143463E-17	0.367330642786856	0.853980793030553	0.367330642786856	0.853980793030553	8.33399771985924E-18	-2.51462418409207E-17
52.9	9.54203471605857E-18	3.23718658058257E-17	0.66884591626618	0.935745191010322	0.668845916266179	0.935745191010321	-2.22875989951652E-17	6.51426152263222E-17
53	1.98130389086792E-17	1.14625157852319E-17	0.679598099953192	0.72225454780557	0.679598099953192	0.72225454780557	1.47387556644969E-17	-1.74768813311189E-17
53.1	1.95444450137719E-17	1.06392074162893E-17	0.808782955362179	0.675153532233312	0.808782955362179	0.675153532233312	2.30780006836333E-17	-2.23339677189981E-18
53.2	-8.26561822410809E-18	-3.28226168282018E-18	0.958567176427611	0.522580185762894	0.95856717642761	0.522580185762894	-3.16126228407894E-17	4.38639917063107E-18
53.3	-9.60830492470093E-18	-1.67762375220956E-17	0.972174637114966	0.383891690629101	0.972174637114965	0.383891690629101	-1.32636471548917E-17	4.46884371847331E-17
53.4	1.14615673758494E-17	-2.82382278435213E-17	1.00216107542866	0.165234663220046	1.00216107542866	0.165234663220046	-2.28090342064035E-17	-2.1903691331388E-17
53.5	1.11902595655355E-17	6.30428212830359E-18	1.0770321836483	0.103334149972794	1.0770321836483	0.103334149972794	-1.17026015793077E-17	-2.50203181814507E-17
53.6	-1.2008245540802E-17	8.06820844457331E-19	1.06078838005491	-0.123733642631983	1.06078838005491	-0.123733642631984	-1.47133111401706E-17	6.24418890113435E-17
53.7	5.60873636127565E-18	-2.88001735213062E-17	0.958015103019366	-0.289969950468342	0.958015103019366	-0.289969950468342	-2.29537155880831E-17	-1.60315463611333E-17
53.8	-1.75084997504164E-17	3.10327562057046E-18	1.06024462946392	-0.383759533291963	1.06024462946392	-0.383759533291963	2.31580093221371E-17	-1.35506207477945E-17
53.9	-2.91650173415751E-18	6.19645943418517E-18	0.896751767107602	-0.569040364516174	0.896751767107602	-0.569040364516173	-2.09586410610716E-19	1.88242934245001E-17
54	1.13661517358358E-17	1.2030418843568E-17	0.779356705765427	-0.69169338052852	0.779356705765428	-0.69169338052852	5.61088544843081E-18	6.71114945671218E-19
54.1	8.80844053971946E-18	2.90854464467862E-17	0.692601224897393	-0.772311478312341	0.692601224897392	-0.772311478312341	2.6014258822112E-17	-1.97408031031582E-17
54.2	4.11656777108198E-18	-2.08110246134167E-17	0.578557233219515	-0.883938927464144	0.578557233219515	-0.883938927464144	-5.74852253242582E-18	-2.28412104434639E-17
54.3	1.36357431151088E-18	-1.97986239628218E-17	0.386396936580088	-0.980079861330427	0.386396936580088	-0.980079861330427	8.35336950374716E-18	-1.45898188165813E-17
54.4	-8.96097301167881E-18	-1.52128976147572E-21	0.32150522569333	-0.964242839473834	0.32150522569333	-0.964242839473833	3.22576772943299E-17	1.07586442571559E-17
54.5	3.79939685808588E-17	1.70304191197253E-17	0.0905679189874302	-1.1015669798803	0.0905679189874302	-1.1015669798803	4.18014538763908E-17	-5.96805882064878E-18
54.6	-2.11366557741781E-18	2.24053644920394E-17	-0.0572402631949079	-1.02717861045952	-0.0572402631949077	-1.02717861045952	-1.86428482277577E-17	1.50161958885062E-17
54.7	2.51756421643379E-19	-2.26569477448302E-18	-0.190352914388708	-1.06731092089143	-0.190352914388708	-1.06731092089143	5.23626232144454E-18	2.41677123153052E-18
54.8	-6.51602920528761E-18	1.87987506524853E-19	-0.37331545120092	-1.01704201764595	-0.37331545120092	-1.01704201764595	-2.42761979115454E-17	-3.43518678891952E-18
54.9	4.95882229648021E-18	4.99976068316906E-18	-0.51510477534401	-0.923136791517668	-0.515104775344011	-0.923136791517669	-6.35358865734569E-18	2.91325263408806E-18
55	2.22512533716266E-18	-1.72015727810333E-17	-0.637343226164915	-0.867298137357057	-0.637343226164916	-0.867298137357057	8.2713912358334E-18	4.83060637807935E-19
55.1	5.24842205798367E-18	5.20065658129777E-18	-0.777494490956412	-0.755300642201651	-0.777494490956412	-0.755300642201651	5.31116141025581E-19	1.83366474606643E-17
55.2	-5.10094575168205E-19	8.36314046110085E-18	-0.855105938244695	-0.63198652534798	-0.855105938244694	-0.631986525347979	-1.24008157273913E-17	-2.96406195530996E-19
55.3	5.56712997462773E-18	-5.82161954982964E-18	-0.960093194327654	-0.474513427806861	-0.960093194327654	-0.474513427806861	6.92662051942534E-18	-4.04344384684097E-18
55.4	-1.40183325835178E-17	-3.8477038190564E-18	-1.01627427875193	-0.371134513852793	-1.01627427875193	-0.371134513852792	-1.66060112481118E-19	6.49893211684059E-18
55.5	7.04670521780373E-18	-7.45304777392207E-18	-1.08004123624219	-0.184927864808849	-1.08004123624219	-0.184927864808849	1.10337222050623E-17	2.73884610067542E-20
55.6	6.92742865602619E-18	5.38762784787248E-19	-1.06896748364157	-0.0415054186111219	-1.06896748364157	-0.0415054186111215	-7.47711823312887E-18	1.93308566302572E-17
55.7	2.41976739446146E-18	-3.69500381583083E-18	-1.08977753543781	0.112427188565598	-1.08977753543781	0.112427188565597	1.4267799490682E-17	-2.97555164986185E-18
55.8	-3.24370489877024E-19	-4.60206407076856E-18	-1.05193318452343	0.287744799209294	-1.05193318452343	0.287744799209294	1.28939579551648E-18	-7.95325711625736E-18
55.9	1.1747780855221E-17	2.70385760308851E-18	-1.00462269563697	0.42721144891798	-1.00462269563697	0.42721144891798	1.54388330448745E-18	4.35742919497207E-18
56	9.09764179183403E-18	8.69366864888725E-18	-0.9045613533929	0.573340298762652	-0.9045613533929	0.573340298762652	3.59865940243893E-18	1.69833641548277E-18
56.1	9.58328666269565E-18	-2.13442535068088E-19	-0.846351226528196	0.694546586982124	-0.846351226528195	0.694546586982124	2.97590298711856E-17	-1.10404480858366E-17
56.2	2.29499143974267E-17	-4.15328888832309E-19	-0.738242075651785	0.824973317485269	-0.738242075651785	0.82497331748527	3.63988226256305E-17	3.87320494874809E-17
56.3	-1.24021789992536E-17	8.7216071730662E-18	-0.557391084440366	0.918940136695579	-0.557391084440366	0.91894013669558	-5.25645500563118E-18	7.2579108913521E-18
56.4	-3.07447258878148E-18	2.66963304217723E-17	-0.479891655325789	0.993378129653621	-0.47989165532579	0.993378129653622	2.99500905964305E-17	1.39687909620454E-17
56.5	3.81929731216139E-19	3.43841496443487E-18	-0.310666826418086	1.07206177588698	-0.310666826418086	1.07206177588698	8.46079865266482E-18	2.79573181069232E-18
56.6	4.40483887810103E-18	1.06545226756236E-17	-0.144795029712779	1.06997130506637	-0.144795029712779	1.06997130506637	-7.46135469478965E-18	4.23629849542448E-18
56.7	2.03291464404405E-18	-7.31358245729828E-18	0.00393595980082205	1.09641188824029	0.00393595980082202	1.09641188824029	-4.14069011946323E-18	4.20057878456334E-18
56.8	-5.70893301252223E-18	3.75150949652432E-18	0.144451790493151	1.10653461952855	0.144451790493151	1.10653461952855	-9.19995619793168E-18	5.16165141389773E-17
56.9	2.63502300021297E-18	1.55437439930001E-17	0.308613530195746	1.04790102608081	0.308613530195746	1.04790102608081	-2.66249716698768E-17	-4.9980089179067E-18
57	3.86444641404166E-18	1.47170132841107E-17	0.478372547512327	0.957786134705429	0.478372547512327	0.95778613470543	2.96001385687603E-18	2.58508824450384E-17
57.1	-2.56828236173488E-18	2.13629705413015E-17	0.597192948990351	0.911816307299523	0.59719294899035	0.911816307299523	-1.39035956641831E-17	1.64214071335261E-17
57.2	-9.17933568255076E-18	-4.59677497823533E-18	0.731576278027185	0.844042340633929	0.731576278027185	0.844042340633929	-3.09051848919795E-17	-1.31802644590586E-17
57.3	-4.98514632845265E-18	1.23031154808901E-17	0.876518522158414	0.653309150630712	0.876518522158414	0.653309150630712	-2.08790317368938E-17	1.70419896821188E-17
57.4	-2.79220795421333E-18	-1.14860451830519E-17	0.891419787077963	0.563188051766463	0.891419787077964	0.563188051766464	1.33495875313837E-17	1.12682100019532E-18
57.5	8.29859418219282E-18	1.5897240483384E-17	1.02387556624538	0.442287205100302	1.02387556624538	0.442287205100302	1.4982199887647E-17	4.73929665131175E-17
57.6	-1.93565852896145E-18	1.39568685031843E-18	1.07712394849227	0.264984109562949	1.07712394849227	0.264984109562949	-6.79722766992615E-18	6.0778734427946E-18
57.7	1.8912481485272E-18	1.2461338053218E-17	1.05906359843368	0.110622185197608	1.05906359843368	0.110622185197608	4.63686211348922E-18	3.51546996281489E-17
57.8	-4.40474708684828E-18	9.17075548398111E-18	1.10413242174246	-0.0216064982533121	1.10413242174246	-0.0216064982533124	9.28371088466321E-18	2.08089867521675E-17
57.9	-2.74203857567872E-18	-2.98535938056743E-18	1.10490882416617	-0.163724062032578	1.10490882416617	-0.163724062032577	-2.44746496639957E-18	-2.3003802034083E-17
58	-1.42391678542416E-17	-1.23139871693607E-17	1.02441267561925	-0.377524656111789	1.02441267561925	-0.377524656111789	2.15696609805173E-18	1.20880573545022E-17
58.1	-1.01017288349405E-17	-9.18204851709855E-18	0.952506575817887	-0.46267766672827	0.952506575817888	-0.46267766672827	5.78954245621721E-18	-5.34563381951488E-18
58.2	2.10737883971961E-17	-1.91621877518203E-17	0.912553229744485	-0.625364620416092	0.912553229744485	-0.625364620416092	-1.18322276081834E-17	-9.13159012796777E-18
58.3	-1.0834346813251E-17	7.94723380404873E-18	0.79382048508273	-0.761260644001847	0.79382048508273	-0.761260644001847	9.54752006257674E-19	2.7343656558649E-17
58.4	-1.06027851116897E-17	-6.03292869225575E-18	0.680464899137749	-0.797005929265085	0.680464899137749	-0.797005929265085	-1.3171206885178E-17	2.09086533898438E-18
58.5	3.25939588482823E-18	2.7328787269559E-17	0.59979986520735	-0.945794769129761	0.59979986520735	-0.94579476912976	9.48985895582458E-18	-1.04864816088471E-17
58.6	-2.8383520963424E-17	-3.20656757406034E-17	0.425811138948294	-1.01066633164115	0.425811138948294	-1.01066633164115	-1.32593248767472E-17	-1.63585219378408E-18
58.7	6.67884903430331E-18	1.2909150963083E-17	0.27524554204146	-1.02633744721561	0.275245542041461	-1.02633744721561	-8.49050526000942E-18	9.79809616946488E-18
58.8	8.56840291798498E-19	4.46951071224551E-18	0.148056230778633	-1.07298956675211	0.148056230778633	-1.07298956675211	-1.77564874026589E-17	1.61469357717684E-17
58.9	-5.57792385411867E-20	2.11411408675906E-18	0.0145621488867426	-1.1040452223929	0.0145621488867426	-1.1040452223929	-1.16861552046191E-18	4.20033855424754E-18
59	-2.19348632566663E-18	-9.41347600214199E-18	-0.179434179196222	-1.06507451226826	-0.179434179196222	-1.06507451226826	-1.49529445188375E-17	-6.05965448375303E-18
59.1	1.90907251421877E-18	-9.3996097772809E-18	-0.291131919379473	-1.03579658651027	-0.291131919379472	-1.03579658651027	-3.80655674934745E-18	-2.38199503811468E-18
59.2	-1.98161248069209E-17	-9.27900495129393E-18	-0.437626274589952	-1.0247483088988	-0.437626274589952	-1.0247483088988	-1.3189414805925E-17	-6.66252659722399E-18
59.3	7.63340234873351E-18	3.27265627003683E-18	-0.599767647386839	-0.894876758965971	-0.599767647386839	-0.894876758965971	5.43992224935447E-18	7.94868147999713E-18
59.4	-6.47092311783882E-18	-8.64206048692013E-18	-0.684210434093891	-0.841417437096065	-0.684210434093891	-0.841417437096065	-8.15611560642646E-18	-5.86701450187731E-18
59.5	4.0760539517152E-18	-1.29779387356984E-18	-0.824740964209807	-0.729136311649313	-0.824740964209807	-0.729136311649313	-6.32346776075324E-18	2.51533861249127E-19
59.6	-1.63523215856701E-18	2.87811166287106E-17	-0.902507706767668	-0.588777001262865	-0.902507706767668	-0.588777001262866	2.24938551152489E-18	1.10179188079259E-19
59.7	-2.28689729331726E-18	-1.15363677885511E-17	-0.988871693460079	-0.48468249434472	-0.988871693460079	-0.48468249434472	-1.37213837599036E-18	-6.92182067313066E-18
59.8	2.59908592697529E-17	1.40381623591602E-19	-1.0557458406541	-0.335931653788866	-1.0557458406541	-0.335931653788866	5.99042562141004E-18	-2.93313112065629E-18
59.9	3.38486167492856E-19	-3.01360046434648E-17	-1.08020777280713	-0.199879550158218	-1.08020777280713	-0.199879550158218	-1.05151898511473E-19	6.12494366255287E-18
60	-4.05078015951376E-18	-2.25671617783312E-18	-1.09307972489599	-0.0243990284491161	-1.09307972489599	-0.0243990284491161	-2.65639705780952E-18	-1.02381152432849E-17
60.1	-9.40766964757979E-18	-1.28117993451841E-19	-1.07899578084649	0.111014005382634	-1.07899578084649	0.111014005382634	7.36959141716112E-18	-4.65969420327188E-18
60.2	4.59530960205795E-18	-1.16282575049922E-17	-1.08458754172811	0.24216106796716	-1.08458754172811	0.242161067967161	-8.5302499997395E-19	-4.33337598976654E-18
60.3	-6.222667922773E-18	-2.95999540667304E-17	-1.01376325653982	0.425753657375357	-1.01376325653982	0.425753657375358	1.39493846224832E-17	-1.42258685205174E-17
60.4	7.9781433992659E-18	5.22751435571983E-18	-0.946565396486492	0.511443134359513	-0.946565396486492	0.511443134359513	4.82132533478738E-18	1.0961376384466E-17
60.5	-1.59776948767946E-17	9.91337879730888E-18	-0.880980995657304	0.670240810906526	-0.880980995657303	0.670240810906526	-1.01154326100576E-17	1.26389480940191E-17
60.6	5.16101168598597E-22	1.04666744911189E-18	-0.776572769551398	0.776955784163139	-0.776572769551398	0.776955784163139	-5.23075673971647E-18	5.23591775140246E-18
60.7	-1.28044389363267E-19	3.31262674622847E-18	-0.659926593818542	0.879281201586191	-0.659926593818542	0.87928120158619	1.33620239970607E-18	8.3455890602528E-18
60.8	7.51030578924108E-18	-1.15792529229227E-17	-0.537347620156337	0.968383214596152	-0.537347620156338	0.968383214596152	1.09096574518666E-17	4.05423355622121E-19
60.9	-1.71040512428055E-18	2.12023464525356E-17	-0.410346906441554	1.03230126929778	-0.410346906441553	1.03230126929778	-6.91413248287278E-19	2.29133198411476E-18
61	6.44095984481452E-18	3.77804951380427E-18	-0.252060689061949	1.07852525442244	-0.252060689061948	1.07852525442244	-1.85995330269396E-17	-9.19602842938764E-18
61.1	2.04342917775035E-17	1.97409310653094E-17	-0.103735325206518	1.08728487810037	-0.103735325206517	1.08728487810037	1.91299137483478E-17	5.22626538442128E-19
61.2	-8.35731369048862E-18	-1.89284354215013E-17	0.0285256279097971	1.10108618334745	0.0285256279097973	1.10108618334745	-1.11696777285237E-18	-2.15429496898363E-17
61.3	-5.80887597243481E-19	-2.16828667570969E-17	0.18548471327606	1.10484909547926	0.185484713276061	1.10484909547926	-2.76256067249015E-17	-1.16189916088819E-17
61.4	-1.90056066257241E-17	-4.4942874697643E-18	0.361632706623883	1.04205279291896	0.361632706623884	1.04205279291896	-1.74812144077084E-17	1.69627171335257E-18
61.5	-1.77164089549903E-17	1.16897563516996E-17	0.448651799813606	0.989181907973197	0.448651799813606	0.989181907973196	2.02326714079262E-18	-5.02902333520453E-18
61.6	9.9257772180376E-18	2.1497618089944E-17	0.61691032344475	0.950513931732841	0.61691032344475	0.950513931732841	1.39301219187552E-17	-1.75678920102866E-17
61.7	-2.56626488181189E-17	-5.24665307302309E-18	0.743528214613952	0.837324659756317	0.743528214613952	0.837324659756317	-1.86303292995098E-17	9.2821675842041E-18
61.8	-7.60335464188852E-18	6.15449330279851E-18	0.825742766562285	0.72248659257794	0.825742766562284	0.72248659257794	-6.78193842442025E-19	1.85269988949425E-17
61.9	-6.64825657945669E-18	1.6224739311378E-17	0.924594187504326	0.601161478053086	0.924594187504326	0.601161478053086	-1.50465147265066E-17	-6.59417560409242E-18
62	8.06487336699146E-18	1.42228080451351E-17	0.999485227052989	0.496697579257219	0.999485227052989	0.496697579257219	1.67547546925502E-17	1.53892875789442E-18
62.1	-1.67484131773237E-17	1.38651433952387E-17	1.0753811045978	0.345648517361816	1.0753811045978	0.345648517361816	-1.48469560875853E-17	3.02069025358793E-17
