# GHZ S RI R 50
50	-9.06841083212183E-20	-8.14596925656223E-19	0.754065720326125	-0.525918161112913	0.754065720326125	-0.525918161112912	3.20210517855047E-18	-9.75796231575127E-18
50.1	-1.41390890883801E-18	1.94362220478724E-17	0.636011623658276	-0.629557576599871	0.636011623658276	-0.62955757659987	-1.17939215285925E-17	-1.50962617396265E-18
50.2	1.27895096094646E-17	-3.81208184161131E-18	0.537815577965616	-0.721500536333544	0.537815577965615	-0.721500536333544	7.36534076143518E-18	1.97926907684586E-17
50.3	-2.19033030429274E-17	-7.17629315449682E-18	0.420891370773761	-0.827929227100473	0.420891370773762	-0.827929227100474	6.54404570465213E-19	-4.18156410085291E-18
50.4	2.64479119407914E-17	1.6218468567411E-17	0.239488910281095	-0.848665110159292	0.239488910281095	-0.848665110159291	-5.20784799480921E-19	6.00993847382555E-18
50.5	-8.50374214635547E-18	-1.47228135281815E-17	0.13327074122501	-0.906589809166871	0.13327074122501	-0.90658980916687	9.34906166500478E-18	-3.27435147064256E-18
50.6	2.83227640706969E-18	-2.16613716152921E-19	-0.0345255949452522	-0.90417924709741	-0.0345255949452522	-0.904179247097409	2.06597935199361E-18	8.38852236313261E-18
50.7	-4.51376031116572E-18	1.15543799231124E-17	-0.166709996510532	-0.88350867442515	-0.166709996510532	-0.88350867442515	-1.24344757296897E-17	-8.68694258413342E-18
50.8	-7.19035007479888E-18	-3.60923048793023E-18	-0.329122850837359	-0.867698929110121	-0.329122850837359	-0.867698929110121	8.93128319477926E-18	1.06854065720981E-18
50.9	-2.89337996991587E-18	7.8295304652488E-18	-0.446423708611037	-0.769254108873518	-0.446423708611037	-0.769254108873518	9.87230099066585E-18	2.14458208703293E-17
51	-6.68314361987142E-18	-3.87400595925489E-18	-0.584361497601729	-0.706490455321423	-0.584361497601729	-0.706490455321424	2.10920117210383E-18	1.22792129571109E-17
51.1	-9.39717688037561E-18	1.6183262131248E-17	-0.68654561012792	-0.598605559619103	-0.68654561012792	-0.598605559619103	1.45970157381434E-17	1.10680805072649E-17
51.2	-8.89304018950926E-18	9.17933901410925E-18	-0.768650971935913	-0.475956661447344	-0.768650971935913	-0.475956661447345	-1.07861677572511E-17	3.7862551354837E-18
51.3	-1.77189915404884E-18	2.28924924707707E-18	-0.84106173783169	-0.347220642343702	-0.841061737831689	-0.347220642343701	-3.04436798655405E-18	1.02275367173339E-18
51.4	1.56605975263837E-17	-7.86696331484078E-18	-0.903550953619757	-0.224719007770084	-0.903550953619757	-0.224719007770084	6.78503481134857E-18	-6.57869354428062E-19
51.5	9.75702427263428E-18	1.35812946149023E-17	-0.893538706889016	-0.0463549859369873	-0.893538706889016	-0.0463549859369875	1.42161938143347E-17	4.27148720909132E-18
51.6	1.03162141226691E-17	-3.74132245566359E-18	-0.914325476485209	0.0674433911457547	-0.914325476485209	0.0674433911457546	2.34978508552955E-18	-4.03369526640077E-18
51.7	-8.76745203134654E-19	2.07411470832885E-17	-0.906662214549178	0.217145349901474	-0.906662214549178	0.217145349901474	1.57759938041596E-17	4.10312559689904E-17
51.8	1.11624101834178E-17	2.12323607483202E-18	-0.802235889775404	0.352180358955677	-0.802235889775404	0.352180358955677	1.41425720586682E-17	5.76782363238341E-18
51.9	1.50847866021201E-17	1.22732869201709E-18	-0.808980285708539	0.48338999031507	-0.808980285708539	0.48338999031507	2.06295032823914E-19	-6.88683523341892E-18
52	1.51101266169466E-18	7.87791915517572E-18	-0.660799329260438	0.611934194868256	-0.660799329260438	0.611934194868256	-6.4345363780665E-18	1.09280208365434E-18
52.1	-5.98017605451214E-18	1.94086281799692E-18	-0.565229744280584	0.693541909524289	-0.565229744280584	0.693541909524289	-5.28846081585783E-18	1.56217224575116E-17
52.2	9.31800924135979E-18	-7.24994274841868E-18	-0.475974857940627	0.780772080516997	-0.475974857940628	0.780772080516998	1.36995425053636E-17	-3.35771560792508E-17
52.3	3.89182642170695E-18	-3.68584102297291E-17	-0.351145705732664	0.846919139954804	-0.351145705732664	0.846919139954804	-3.29888597648823E-17	-8.27125883116493E-18
52.4	5.1023635820217E-18	1.87983495636011E-17	-0.197656263520322	0.922627943751122	-0.197656263520322	0.922627943751122	2.12769670239834E-17	1.29409864622279E-17
52.5	-3.29785580343182E-18	-1.14008489349415E-17	-0.0795082157937945	0.87097070768416	-0.0795082157937946	0.87097070768416	1.20382576317558E-18	1.91105866037341E-17
52.6	-1.15653420878526E-17	-1.89243130010836E-17	0.0548524525361006	0.943365033695457	0.0548524525361003	0.943365033695457	-4.46959001237751E-17	-8.8203568686562E-18
52.7	3.26615094009836E-17	5.24382200275955E-18	0.26156309658559	0.910233064999642	0.26156309658559	0.910233064999641	1.18824567928638E-17	7.24456050742589E-18
52.8	2.04866748224065E-18	-1.68692474098817E-17	0.282967898296205	0.760837192671674	0.282967898296205	0.760837192671675	2.0410770543339E-18	1.63589781462982E-17
52.9	-2.96789625139312E-18	-3.26080572869876E-17	0.564995195331742	0.850046488223854	0.564995195331741	0.850046488223854	-3.71918240542849E-17	-2.34583264734961E-17
53	3.29914111051752E-19	6.67448423439495E-18	0.567487089322782	0.658370571065815	0.567487089322781	0.658370571065815	-6.35669983261504E-19	-1.35109989268814E-17
53.1	-6.97524455552023E-18	-1.02871460763839E-17	0.687207387784405	0.626925900608946	0.687207387784405	0.626925900608946	-4.26117651892256E-18	1.9233875600164E-17
53.2	-1.25961765201545E-18	6.18189392717248E-18	0.828449400584505	0.49494630279085	0.828449400584505	0.494946302790849	-1.73972343852665E-17	-1.64494548933592E-18
53.3	-1.62191188647532E-18	-1.28809313907768E-17	0.841381020981139	0.376641469511254	0.84138102098114	0.376641469511254	-3.30675594967451E-18	-5.23881876821841E-17
53.4	-4.17204286620787E-18	2.68964575784227E-18	0.872191982650914	0.181422057904911	0.872191982650914	0.181422057904911	-9.66060809553231E-18	-1.92132519272842E-17
53.5	8.9449145031384E-18	-3.05744106169646E-17	0.948534311868205	0.135904207134402	0.948534311868205	0.135904207134402	2.83874625229227E-17	-4.31415020673043E-17
53.6	4.03473191745293E-19	1.86245863192436E-17	0.939824401827473	-0.0687364340785285	0.939824401827472	-0.0687364340785285	7.19426418267419E-18	-2.51913997137087E-17
53.7	-2.39996810639183E-17	9.10730874238268E-19	0.849907176555414	-0.216325153819384	0.849907176555413	-0.216325153819384	-2.86093146964963E-17	5.69848667635506E-18
53.8	3.18805877622675E-19	1.90294851093069E-17	0.957774741486074	-0.295437828805172	0.957774741486073	-0.295437828805172	9.1636130808925E-19	-4.84326025450899E-18
53.9	-3.3789769484305E-17	4.85411020158154E-18	0.813489011786164	-0.465090031141214	0.813489011786165	-0.465090031141215	-1.01063644822289E-18	1.97319301477085E-17
54	4.00931663307389E-18	-1.85579070061604E-17	0.714033316227578	-0.576244660536182	0.714033316227578	-0.576244660536182	-1.35439815874037E-17	-1.33852178466874E-17
54.1	-3.19584923371609E-17	-3.40471557498534E-18	0.644547838030693	-0.649085769142471	0.644547838030694	-0.649085769142472	-1.44131796463392E-17	1.46168507608002E-17
54.2	2.76115025059733E-18	1.97248703547351E-17	0.549724623992183	-0.753694358872361	0.549724623992183	-0.753694358872361	-4.31242903924244E-18	1.38357046846827E-18
54.3	1.16675561676983E-17	-9.35368699930679E-18	0.380500941627587	-0.846277283971098	0.380500941627587	-0.846277283971098	2.88071520781153E-18	-3.05091448941284E-17
54.4	-4.42331504975202E-18	6.15617505309117E-19	0.331685285886806	-0.833130355453245	0.331685285886806	-0.833130355453244	1.3117574533374E-17	1.04916056099868E-17
54.5	-9.37651017096391E-18	9.52842271989721E-18	0.125875322946955	-0.969535902730564	0.125875322946955	-0.969535902730565	6.32211503610841E-18	8.52968308428211E-18
54.6	-1.07016316415829E-17	-5.59722572685247E-18	-0.00364696172846997	-0.905005797946923	-0.00364696172846978	-0.905005797946922	1.44367899583608E-18	2.83010307022318E-18
54.7	-8.90071343873095E-18	-1.03484502704008E-18	-0.118707061393148	-0.951499355075545	-0.118707061393148	-0.951499355075546	1.24275701316264E-17	1.4949646467571E-17
54.8	-1.3879249258945E-18	-4.8300899681372E-18	-0.283568709696933	-0.914171743954427	-0.283568709696933	-0.914171743954427	2.46508813961785E-18	-1.32577258346027E-17
54.9	3.05159708278503E-18	6.66483638513768E-19	-0.411144596767473	-0.836117137873501	-0.411144596767473	-0.836117137873501	-2.38534916472809E-18	-1.83898725690068E-18
55	5.71509980979997E-18	8.47770039153914E-18	-0.521029853408065	-0.795362226334553	-0.521029853408064	-0.795362226334553	1.1389188862815E-17	-1.04340468621628E-17
55.1	5.64223859779891E-18	9.60367259137384E-18	-0.650584047763124	-0.702442591542726	-0.650584047763124	-0.702442591542727	-1.58234169815993E-18	2.06118916339513E-17
55.2	-9.1692238645019E-18	1.10630080014356E-17	-0.722546170664555	-0.598414244454505	-0.722546170664554	-0.598414244454504	9.75081989183505E-18	-1.84891484942363E-18
55.3	9.74490314402857E-18	-1.22615305737783E-17	-0.823129294714976	-0.462872389754102	-0.823129294714976	-0.462872389754102	2.60658181417961E-18	1.47097391214852E-17
55.4	-8.19027219795538E-18	1.21082668403131E-17	-0.878059208281267	-0.378188455432859	-0.878059208281267	-0.378188455432859	-9.32215190840031E-18	-7.55145316235032E-18
55.5	-7.73778020134912E-18	-6.41869411807564E-18	-0.943891385096167	-0.214796531234448	-0.943891385096167	-0.214796531234448	2.25096765873859E-17	-1.8174411456025E-18
55.6	3.42353777860896E-18	-1.66473674756174E-17	-0.939402319540274	-0.0902044862627254	-0.939402319540274	-0.0902044862627256	-2.01518756478134E-17	-2.59382513327645E-17
55.7	-7.18680320881651E-18	-1.15920178630236E-17	-0.967312003001612	0.0442043277539698	-0.967312003001612	0.04420432775397	-1.35516301705252E-17	-5.29230118947095E-18
55.8	1.57644940684674E-17	1.75413741134732E-18	-0.941670589736768	0.20115720582206	-0.941670589736769	0.201157205822061	1.4526936600927E-17	-2.97864213712641E-18
55.9	1.73074027189851E-18	-1.18622475476593E-17	-0.907705135559423	0.32523111261271	-0.907705135559422	0.32523111261271	-7.19048431106589E-19	-1.61117544757594E-17
56	-1.42327596848827E-17	1.11633975641259E-17	-0.825148121464426	0.458251613755528	-0.825148121464426	0.458251613755528	-5.59406348829265E-18	-1.44060189918769E-17
56.1	-6.109174884652E-18	8.24697657293153E-18	-0.782947095051941	0.567850453138291	-0.782947095051941	0.567850453138291	2.07695565224221E-18	4.09306526844711E-18
56.2	1.06786481531409E-17	-1.15403371769227E-17	-0.694587889612484	0.689099620500765	-0.694587889612484	0.689099620500766	3.59140418612923E-17	-2.62866394862819E-17
56.3	1.07420723918645E-17	-1.32489948259042E-17	-0.536760893802601	0.77948760826563	-0.536760893802601	0.77948760826563	4.77695830215933E-18	8.15544317759569E-18
56.4	-1.8867344769841E-18	1.27354539011275E-17	-0.477210186158155	0.850006554420365	-0.477210186158155	0.850006554420365	1.21864451609971E-17	4.15236166444998E-18
56.5	1.90991694289229E-18	7.00284220548818E-18	-0.330918748374288	0.929152921421617	-0.330918748374288	0.929152921421616	-5.91878990638574E-18	1.25948556343083E-17
56.6	-2.77140364025023E-18	1.28729866524889E-17	-0.185248088199793	0.933240842059167	-0.185248088199794	0.933240842059168	-8.39722439326107E-18	2.03183001872671E-17
56.7	4.03044644730747E-18	4.73756439563782E-19	-0.056561017499881	0.965689818292619	-0.0565610174998811	0.965689818292619	-3.22435715784598E-18	-3.79005151651025E-19
56.8	4.12585239253101E-18	-7.35814300074704E-18	0.0652711575511348	0.984040784145511	0.065271157551135	0.984040784145511	2.80199977988046E-19	-1.70583128381595E-17
56.9	-2.02096206255965E-17	2.50615699641942E-18	0.212645014577118	0.939603297544078	0.212645014577117	0.939603297544077	-1.79966876719494E-17	-3.33315206332575E-19
57	6.5245166827699E-18	-1.05317927922064E-19	0.367345740189807	0.866994184949585	0.367345740189807	0.866994184949584	-4.1216621062954E-17	7.19153022627631E-18
57.1	-3.56863828940977E-18	-9.60785956126621E-18	0.47327724170662	0.835897288440836	0.473277241706621	0.835897288440836	3.56863424470535E-18	2.74508770860249E-19
57.2	7.40967595616501E-18	-1.42898657104562E-18	0.595954231045663	0.785843017623421	0.595954231045663	0.785843017623421	1.55338451978528E-17	8.46864835991265E-19
57.3	1.07552646811541E-17	-1.81035459568634E-17	0.734827255277172	0.620426554843836	0.734827255277172	0.620426554843836	6.23101060503194E-18	-3.03540564598234E-17
57.4	9.47690388823851E-18	-4.58486879810158E-18	0.748003367392759	0.54658094753666	0.748003367392759	0.54658094753666	-1.81915484419958E-18	4.0962309286486E-18
57.5	-8.17351966240167E-18	5.88426834791774E-18	0.875488321642738	0.448484308421345	0.875488321642739	0.448484308421345	3.45976267720216E-17	4.23118087220365E-17
57.6	1.83979516948996E-17	-1.54221387437122E-17	0.931846871851492	0.294108803085905	0.931846871851492	0.294108803085904	1.1144807241803E-17	-2.4552935867204E-17
57.7	-6.33613871918032E-18	-7.07729145167052E-18	0.92133096791867	0.158745532849368	0.921330967918669	0.158745532849368	1.06836244186678E-18	-3.01919039454635E-17
57.8	-9.90910284976607E-18	-8.37636558549267E-18	0.971555799449468	0.0467807125286934	0.971555799449468	0.0467807125286934	-6.84995330554074E-18	2.63654357422997E-18
57.9	-3.51204123964205E-18	4.06479647562967E-18	0.981805965128459	-0.0767195153261508	0.981805965128459	-0.0767195153261509	9.57978727839914E-18	-4.06093515960733E-18
58	3.0515306913117E-18	1.99047274361511E-17	0.919747694486255	-0.272402287980474	0.919747694486254	-0.272402287980474	-5.73868523174388E-18	3.51278602352905E-17
58.1	2.21561150008181E-19	-1.0581008859593E-17	0.861835121334521	-0.346459251444063	0.861835121334521	-0.346459251444063	-1.05605745414097E-17	1.96215668447042E-18
58.2	-9.33976020645905E-18	-5.18785952686036E-18	0.838929135550123	-0.493670118506166	0.838929135550123	-0.493670118506166	-2.28687840357031E-17	9.85991105446927E-18
58.3	4.92599478378834E-18	-3.20513714153737E-17	0.741399821103627	-0.620241262520898	0.741399821103627	-0.620241262520898	-1.31350804795363E-17	-3.69379138684038E-17
58.4	-1.57806604178196E-17	2.65099395994323E-17	0.645476815228382	-0.653016361884401	0.645476815228382	-0.653016361884401	-8.57057907289607E-18	1.76506490271181E-17
58.5	-2.50916096978009E-17	2.17851436627192E-17	0.586556979302873	-0.792727034655894	0.586556979302874	-0.792727034655894	-9.45268822801954E-18	1.52389395201224E-17
58.6	3.07998294382658E-17	9.38256151630554E-18	0.435939652480253	-0.859056890112593	0.435939652480253	-0.859056890112592	4.05501963668988E-18	1.09961140706843E-17
58.7	2.11142765104749E-17	-2.46978306559142E-18	0.305583387607648	-0.879286894626074	0.305583387607648	-0.879286894626074	4.78461251450045E-18	-4.84030106849284E-18
58.8	-3.35488095545745E-18	3.64741148975405E-18	0.199015076237893	-0.929397434857795	0.199015076237893	-0.929397434857794	-4.43539989456418E-18	-5.42631563559124E-18
58.9	-5.37292024456032E-18	1.14867451572812E-17	0.0857316414321469	-0.966662743483616	0.0857316414321471	-0.966662743483616	-4.02059872069419E-18	-7.18813756001656E-19
59	-7.99274812661299E-18	-8.76737491845846E-18	-0.0886424204600897	-0.942456196950345	-0.0886424204600897	-0.942456196950345	7.56901424100023E-18	-1.01386144380305E-17
59.1	-3.50317084602939E-18	-4.39051957292806E-18	-0.185134005035519	-0.924792550119198	-0.185134005035519	-0.924792550119198	-1.51915448482091E-17	4.66441050018974E-18
59.2	-1.53778881290979E-17	-7.09090475258935E-18	-0.314181073872569	-0.927648614850999	-0.314181073872569	-0.927648614851	3.5534890890086E-18	3.95965111548832E-18
59.3	4.42501861797961E-18	1.17405065088564E-19	-0.465328047469022	-0.820418184544998	-0.465328047469022	-0.820418184544999	5.29126651181531E-18	-1.33127613999493E-18
59.4	-5.12608650901817E-18	8.11705447956136E-18	-0.539928037364033	-0.782542547823656	-0.539928037364033	-0.782542547823655	1.22078847794459E-18	1.55585870036474E-17
59.5	-3.77668889180052E-17	-8.05395532589831E-18	-0.671964579768824	-0.693256879883945	-0.671964579768824	-0.693256879883945	-9.79187674955605E-18	2.72785791282907E-18
59.6	-8.06017502278403E-18	1.17203485798718E-17	-0.74760162231024	-0.574877955432444	-0.74760162231024	-0.574877955432444	3.48266441306072E-18	-4.91649954545875E-18
59.7	-5.74126455375936E-18	1.30262390150321E-18	-0.830802563994207	-0.492033271298851	-0.830802563994207	-0.492033271298851	-8.85083382440709E-18	-4.37037293975099E-18
59.8	-1.81953990299259E-17	-2.12015330158562E-17	-0.899693927126832	-0.366434733472668	-0.899693927126832	-0.366434733472667	2.20529635888671E-18	-9.28761992561931E-18
59.9	-2.3844672358755E-17	-1.33516980335553E-17	-0.929357706396565	-0.250709805420531	-0.929357706396565	-0.250709805420531	1.64566204186513E-19	-8.27258743843284E-18
60	1.47582019692238E-17	7.09930732579259E-18	-0.95207178679813	-0.0971548582617028	-0.95207178679813	-0.0971548582617027	7.06761943481748E-18	-2.24703566644406E-17
60.1	1.36615086316173E-17	8.7949663869394E-18	-0.94858264473349	0.0202433601376996	-0.94858264473349	0.0202433601376994	1.09214628344821E-17	-4.66354388037259E-19
60.2	-3.27743175564715E-18	1.11752575362865E-17	-0.964996689797329	0.13270504568398	-0.964996689797329	0.132705045683979	-9.50242937375016E-18	2.40315379460827E-17
60.3	2.49144593449257E-17	-2.03187632785384E-17	-0.914061146660843	0.299964630517697	-0.914061146660843	0.299964630517697	-8.1526396072332E-18	-1.24385385093532E-17
60.4	5.97908823668787E-18	-9.09576471114839E-18	-0.861944443852737	0.375258064965866	-0.861944443852737	0.375258064965866	3.72280684665045E-18	-9.62505955799996E-18
60.5	9.14889657766099E-18	1.57620880901923E-18	-0.817290575071772	0.520367701071242	-0.817290575071772	0.520367701071242	-2.21329005985877E-18	-1.03349969151218E-18
60.6	-4.55844228326011E-18	-1.61997779853216E-17	-0.733915771744766	0.619876005748968	-0.733915771744767	0.619876005748968	3.54422175541719E-18	3.03711149149574E-18
60.7	3.54920976285796E-18	2.81945317962841E-18	-0.639788177447955	0.717285103179967	-0.639788177447954	0.717285103179966	1.01252051394742E-17	1.09378277152213E-17
60.8	1.43940797487349E-17	2.74266789802422E-19	-0.540112483668325	0.803973736005515	-0.540112483668325	0.803973736005515	5.44251435222655E-18	4.14168585811293E-19
60.9	-1.18485515590913E-17	3.29458184159286E-18	-0.435321648658861	0.868651008283742	-0.435321648658861	0.868651008283741	4.8027326211505E-18	-2.91419839633001E-17
61	2.87043894964257E-17	1.99601768940842E-17	-0.300320831462892	0.920306011690801	-0.300320831462892	0.9203060116908	3.19491205961123E-18	8.37332291414987E-18
61.1	-2.02394168737723E-17	-1.10818698536232E-17	-0.172487992983896	0.937549980160304	-0.172487992983896	0.937549980160305	-1.87739917152671E-17	1.92898636212367E-20
61.2	-2.47312040716118E-17	1.65029755070162E-17	-0.0602355583252054	0.960094602287087	-0.0602355583252055	0.960094602287086	1.06579725793318E-18	-2.13044776206714E-17
61.3	-2.20834456829708E-17	-1.16916428670104E-18	0.0761131683306483	0.976522762399932	0.0761131683306484	0.976522762399932	-1.42335624052068E-17	8.60235045777442E-18
61.4	1.37144632312067E-17	8.11937847966265E-18	0.235624031840173	0.933106631084513	0.235624031840173	0.933106631084513	1.91225760156649E-17	-3.46935864324035E-18
61.5	2.32726292254551E-18	1.79861446266526E-17	0.310884475139663	0.894336327833392	0.310884475139663	0.894336327833392	-8.5529123427817E-18	9.241825822037E-18
61.6	2.67063933009766E-18	1.42009522898634E-17	0.462481374599808	0.876234421892015	0.462481374599808	0.876234421892015	4.98091282477222E-18	-2.23788716706952E-17
61.7	-2.33360417999835E-19	1.20688798508551E-17	0.581172965544368	0.786171998716758	0.581172965544367	0.786171998716758	-1.37124169010152E-17	2.2976089290968E-18
61.8	-1.29073597608649E-18	-6.01774587768952E-18	0.659202417016737	0.692540027921617	0.659202417016737	0.692540027921617	-9.75737941898557E-18	4.67858947733982E-18
61.9	-9.8791193867327E-18	6.90121837966693E-18	0.754700442034215	0.595074158557192	0.754700442034215	0.595074158557192	-1.10950385618816E-17	1.21362766651011E-17
62	2.56419241598564E-18	5.15253817983112E-18	0.827722658433104	0.512634792956285	0.827722658433104	0.512634792956285	9.89045646165889E-18	1.98740758364915E-17
