# GHZ S RI R 50
50	5.34884875250525E-18	2.75481264558174E-18	0.806940020850342	-0.574314085363957	0.806940020850343	-0.574314085363957	-9.44221120799497E-18	4.83165584462853E-18
50.1	1.31584274245169E-17	1.42031693694915E-18	0.677512814241966	-0.687709600931945	0.677512814241966	-0.687709600931945	-6.75444452926412E-19	8.90297068545166E-18
50.2	6.76750559793932E-18	8.89646975858551E-18	0.567766900317395	-0.783858064730214	0.567766900317395	-0.783858064730214	-1.13151771014631E-17	2.00260322287657E-18
50.3	-7.89227906395077E-18	3.85606154327402E-18	0.441923122636649	-0.893171252029658	0.441923122636649	-0.893171252029659	-5.67595698076618E-18	1.08114460293242E-18
50.4	5.81520913714006E-18	1.82623522236427E-17	0.244818829813145	-0.919234113494885	0.244818829813145	-0.919234113494885	-1.19661470590514E-17	-5.95574178835764E-18
50.5	1.05188908093306E-17	2.19017727322091E-17	0.129501410630583	-0.973078667018071	0.129501410630582	-0.97307866701807	-9.47793121066016E-18	-1.29599365295042E-17
50.6	8.56297890540436E-18	-1.24174860119413E-17	-0.0509233453719832	-0.969809573615977	-0.0509233453719827	-0.969809573615976	5.3952119735235E-18	4.36716041584228E-18
50.7	-3.49240288682063E-18	-8.12874953467839E-18	-0.194041878126462	-0.943204638898151	-0.194041878126462	-0.943204638898151	8.45174721563565E-18	3.37188847116928E-18
50.8	-2.49832935082564E-18	2.33254503170803E-18	-0.36404946449432	-0.923377723977538	-0.36404946449432	-0.923377723977538	1.5075759405528E-17	1.12193529505924E-18
50.9	3.31058222457196E-18	1.06312217314421E-17	-0.492819597795854	-0.815400080769508	-0.492819597795854	-0.815400080769508	-2.92825580274806E-18	5.57672158240563E-18
51	1.30270330350902E-17	2.92688420280529E-18	-0.63583833185753	-0.745609629791739	-0.63583833185753	-0.745609629791738	3.02658141104048E-18	2.17093884189756E-18
51.1	-3.02518191940578E-17	-1.50589494312439E-18	-0.743686674031782	-0.627585048543647	-0.743686674031783	-0.627585048543648	-4.02931021293128E-18	5.68638964469585E-18
51.2	-3.02237613940711E-18	-3.8803629722609E-18	-0.829580168190912	-0.494015529120747	-0.829580168190912	-0.494015529120747	5.32293316399983E-19	-5.80656484579898E-18
51.3	9.34742917724367E-18	2.55154565529548E-18	-0.903516133109651	-0.355120601356327	-0.903516133109651	-0.355120601356327	-5.38811777446548E-18	-5.00938653878281E-18
51.4	1.96755914467977E-18	8.54144434663737E-18	-0.964526109720771	-0.223758607802296	-0.964526109720771	-0.223758607802296	3.76972614580463E-18	1.84854958385922E-18
51.5	2.03144762870433E-18	3.51685376403165E-17	-0.955176677229919	-0.0316791651865028	-0.955176677229918	-0.0316791651865034	3.77885705842948E-17	1.68006772109418E-17
51.6	-6.52873813121367E-20	-7.09968035484153E-18	-0.96973148470733	0.0894031935797209	-0.96973148470733	0.089403193579721	2.6303095055623E-17	-1.82784976820564E-17
51.7	-1.50263576541296E-17	2.28187486007155E-17	-0.957739075795966	0.246584432411558	-0.957739075795966	0.246584432411557	5.10185659121688E-18	8.81191065149579E-18
51.8	-1.48228871603485E-17	8.27273871224682E-18	-0.845713606352458	0.394547801552173	-0.845713606352459	0.394547801552173	5.54765248477194E-18	2.04242382955138E-17
51.9	-1.27742865142837E-17	6.40949991245062E-18	-0.846351376298937	0.525657153745042	-0.846351376298938	0.525657153745042	1.39426742365538E-17	1.84203873906927E-17
52	-2.07880086032359E-18	-8.44299150852786E-18	-0.68987797967946	0.664889558116596	-0.689877979679461	0.664889558116595	-7.15400360093562E-18	-4.63195327335858E-19
52.1	-6.83759600134691E-18	-4.72965264148131E-18	-0.583696752293404	0.749008658257916	-0.583696752293404	0.749008658257915	-2.06628995648136E-18	1.10058788314961E-17
52.2	1.58670175995953E-17	1.14895572140357E-17	-0.485951604105126	0.835739342650054	-0.485951604105125	0.835739342650054	1.78775468666939E-17	1.17443569091652E-17
52.3	-1.07662552814947E-17	-9.91385125213488E-18	-0.352013640854793	0.901945184906967	-0.352013640854793	0.901945184906965	-2.88994372016213E-17	-3.10325159020551E-17
52.4	-9.71371494822146E-18	-8.15265867956E-18	-0.191861825856958	0.978486910004306	-0.191861825856957	0.978486910004306	-4.6921304641293E-17	2.37050293801147E-17
52.5	-1.6821357833394E-17	-8.12331385463861E-18	-0.059073494079777	0.920772997244215	-0.0590734940797771	0.920772997244215	-3.3239712429225E-19	-8.97682269648616E-18
52.6	-1.34700317928212E-18	7.99952190477426E-18	0.0768383411515247	0.989925508040193	0.0768383411515248	0.989925508040193	2.53712196597E-17	7.28846831142942E-18
52.7	4.41218273084741E-18	1.27438465688101E-17	0.292835677321448	0.956976195785112	0.292835677321448	0.956976195785111	2.7318850558689E-18	-2.70015674994578E-17
52.8	7.17699670199188E-18	1.43202650077272E-17	0.327335616893383	0.789206873132543	0.327335616893383	0.789206873132543	2.864390285508E-17	-1.07722407322391E-17
52.9	1.46027279398726E-17	2.29569686180109E-17	0.604263532873992	0.887688697275982	0.604263532873992	0.887688697275982	-3.27102239223758E-17	-4.29261770451614E-18
53	-1.68856962202858E-17	8.68335417691408E-18	0.617483235762924	0.676906411228767	0.617483235762923	0.676906411228766	6.36591010611883E-18	2.61782663214863E-17
53.1	-2.00013139030571E-18	3.39302906827084E-17	0.734188540659859	0.640470596106752	0.734188540659859	0.640470596106753	1.69845576466395E-18	-1.18669429657779E-17
53.2	-9.96098311248791E-18	-2.41150406371583E-17	0.87918645725776	0.504565586219259	0.879186457257759	0.504565586219259	-2.69425052071217E-17	3.35507104593961E-18
53.3	-1.91441347264965E-17	-1.04526436951585E-18	0.8901975440985	0.37385234170734	0.890197544098501	0.373852341707341	2.05594220888862E-17	2.48856486791723E-18
53.4	-2.69152276154529E-17	3.24073987276292E-17	0.924321042705205	0.168119788335793	0.924321042705204	0.168119788335793	-1.85446186382061E-17	-2.8870256470195E-18
53.5	-7.13339281531023E-18	9.3859997069811E-21	0.991265063299647	0.12136833136783	0.991265063299647	0.12136833136783	4.0689877534805E-17	-9.49481060682691E-18
53.6	-1.1326727268879E-17	3.87400885216516E-18	0.983538774187616	-0.0925544057620912	0.983538774187616	-0.092554405762091	-1.1792182506435E-18	-1.52848246461029E-17
53.7	-2.1569632618804E-17	-1.09890199442762E-17	0.88787105949458	-0.252405133765992	0.887871059494579	-0.252405133765992	-2.86386578628522E-17	9.89381934232806E-18
53.8	3.19339856619115E-17	1.18064973459868E-17	0.988806760780214	-0.323563327136306	0.988806760780213	-0.323563327136306	5.06838062726976E-17	-3.24916683479152E-17
53.9	-1.33353962058471E-19	5.58267202985484E-18	0.839447645944867	-0.505055067405884	0.839447645944868	-0.505055067405884	9.03774545897446E-18	1.13876006631405E-17
54	-4.7313092655383E-18	-7.83089220836616E-19	0.732113341036637	-0.620899785528309	0.732113341036636	-0.620899785528309	-2.12854293715026E-17	1.33792264191297E-18
54.1	4.99203691581764E-18	-8.96205628674911E-18	0.653478891548939	-0.692879883427831	0.653478891548939	-0.692879883427831	-5.91552421796301E-18	6.65171131756299E-18
54.2	-2.68104989854228E-18	7.98169510426343E-18	0.552966649109478	-0.797494359019775	0.552966649109477	-0.797494359019775	1.89254971760199E-17	8.61420980079668E-18
54.3	8.36719841481634E-19	-2.02001567963698E-17	0.377055805830531	-0.894023072138359	0.377055805830531	-0.894023072138359	-4.84092373541157E-17	-7.55077459676513E-18
54.4	-9.61294744991577E-19	1.14102759693464E-18	0.318053100376308	-0.871157506761488	0.318053100376308	-0.871157506761488	-8.41744797159058E-18	3.77791716693957E-17
54.5	1.35483017385863E-17	-3.57474428922503E-17	0.112081136107653	-1.01305931426042	0.112081136107653	-1.01305931426042	2.75598535839909E-17	6.33458888098591E-19
54.6	2.84799314468954E-17	-1.4130391462581E-17	-0.029244270408623	-0.942415035094903	-0.0292442704086229	-0.942415035094904	1.11662089387453E-17	-1.92354019764963E-17
54.7	-5.49795459531378E-18	1.59854685962839E-17	-0.144657524160721	-0.983966054676126	-0.144657524160721	-0.983966054676126	8.30244506662304E-20	1.76669866951558E-18
54.8	1.61422433699486E-17	2.89339245971362E-18	-0.315322558389938	-0.943518495713963	-0.315322558389938	-0.943518495713963	2.5425400212628E-17	1.09478069797835E-17
54.9	1.33641994473288E-17	-3.87683281646298E-18	-0.4486559120328	-0.858855220486395	-0.4486559120328	-0.858855220486395	1.88383616556076E-17	-1.5663205187507E-17
55	9.02238123479927E-19	-2.36058773669706E-18	-0.558775121514403	-0.811767340253442	-0.558775121514402	-0.811767340253442	1.12468271937481E-17	-1.11222297947441E-18
55.1	-1.52699475387753E-17	-4.56293761398312E-18	-0.691037197511897	-0.713772474314221	-0.691037197511897	-0.713772474314221	-3.04726820321429E-19	9.41204862905864E-18
55.2	-9.06809386330499E-19	1.48182325234572E-18	-0.763274013521322	-0.601336236386593	-0.763274013521323	-0.601336236386593	-2.3915852111634E-17	9.1266534670589E-18
55.3	-1.58001450622231E-17	7.88765266451035E-18	-0.865660982624485	-0.460381126521763	-0.865660982624485	-0.460381126521763	-1.5544835136308E-17	-9.631701459001E-18
55.4	1.23656889666578E-17	-1.15956921553308E-17	-0.91605924431705	-0.36990884674846	-0.91605924431705	-0.36990884674846	3.24940084644915E-18	-1.92160754182143E-17
55.5	4.46928333187489E-18	2.86292892502838E-18	-0.982545012737712	-0.20151282376467	-0.982545012737712	-0.201512823764671	-2.50040798688409E-17	5.19238024617734E-18
55.6	8.0190552562605E-18	9.49921688576627E-18	-0.973310801584258	-0.0697340643717561	-0.973310801584257	-0.0697340643717562	-7.92570830323143E-18	-1.44923025508488E-17
55.7	-5.50695048449602E-18	-1.87701168949511E-18	-0.997683984658449	0.0675226286420326	-0.997683984658449	0.0675226286420329	2.55292266331475E-17	-6.97264637169995E-18
55.8	-1.15042597063177E-18	1.54027713698658E-18	-0.968746481782408	0.229707820303852	-0.968746481782409	0.229707820303852	-1.30674898774235E-17	2.7174816474241E-18
55.9	3.83916339369357E-19	4.27835465369907E-18	-0.929136001518536	0.356639347548482	-0.929136001518535	0.356639347548482	-2.52459771876072E-19	1.64113142198042E-17
56	9.93073912341858E-18	9.30787651946095E-18	-0.840940341972313	0.494270756376711	-0.840940341972313	0.494270756376711	1.82555507789298E-17	2.14999196867534E-17
56.1	1.19415941174349E-17	-9.19610562939948E-18	-0.793361059564885	0.602951655348641	-0.793361059564885	0.602951655348641	3.98349706284775E-17	-2.11104584139192E-17
56.2	1.17124196945994E-17	-5.70113927083763E-18	-0.700441945165167	0.725233675322087	-0.700441945165167	0.725233675322087	2.25293376780582E-18	1.40380769762037E-17
56.3	1.71339941329725E-17	7.00534770570715E-18	-0.535432621169149	0.819347681837411	-0.535432621169149	0.819347681837411	4.22642108150222E-17	1.77635874255109E-17
56.4	-6.48974763072576E-18	1.06577795775606E-17	-0.471468562198735	0.884593054843141	-0.471468562198735	0.884593054843141	-2.58085253084346E-18	2.27301607883065E-17
56.5	6.0823407153171E-18	-6.62970254840864E-18	-0.320883222417687	0.963940438499581	-0.320883222417687	0.963940438499582	3.08113808553979E-17	1.85963437563652E-17
56.6	1.4215304067027E-18	1.33332078285628E-17	-0.167486804686169	0.965441199798696	-0.167486804686169	0.965441199798696	2.50917309298149E-17	8.97607886167022E-18
56.7	-7.58619392337263E-18	-2.26565182762563E-18	-0.0355909227922437	0.994387089447872	-0.0355909227922436	0.994387089447872	1.71310703448482E-18	1.22787731809068E-19
56.8	5.96953405872286E-18	1.33824224419222E-17	0.0882473897348246	1.00825629604477	0.0882473897348244	1.00825629604477	5.78963342256594E-18	9.80529373306736E-18
56.9	4.96819643988397E-18	1.46736228348584E-17	0.240742436332774	0.959591174108767	0.240742436332775	0.959591174108767	-1.60934545573914E-17	2.2099376673157E-17
57	1.80448617786372E-18	5.37036260858729E-18	0.400816280605542	0.882996213414086	0.400816280605542	0.882996213414086	-1.41186066608873E-17	-3.67913150023022E-18
57.1	-1.92631688955616E-18	-1.77890544359054E-17	0.505920149597087	0.846314564138287	0.505920149597087	0.846314564138286	-7.55725763035313E-18	-2.51238467190811E-17
57.2	-1.30513604488581E-17	-1.03496469736989E-17	0.627893591905177	0.792390231688042	0.627893591905177	0.792390231688042	1.2188271770614E-17	1.01470035885374E-17
57.3	-1.70090348794251E-17	1.42090841378992E-17	0.77303651006434	0.622403600548522	0.77303651006434	0.622403600548522	-1.99178121669748E-17	-2.71301589328962E-17
57.4	1.49871624951489E-17	-2.34977615556536E-18	0.781233458261774	0.538944015041755	0.781233458261774	0.538944015041754	7.27408608975476E-19	-3.32894195517542E-17
57.5	1.40757708022439E-17	-2.09996397867026E-18	0.907543469641259	0.440383387086638	0.907543469641259	0.440383387086638	6.63884599790418E-18	-2.98278130057912E-18
57.6	-3.44981639830793E-17	2.57027387892017E-17	0.963816123155736	0.280777290949672	0.963816123155736	0.280777290949672	-2.15257255104301E-17	2.56720315327564E-17
57.7	-6.38900956219053E-18	-1.35552726209712E-17	0.949492193310081	0.137876090129033	0.949492193310081	0.137876090129033	6.29996628577112E-18	-1.56206546851884E-17
57.8	4.09115808539062E-18	-1.27147755572703E-17	0.995649878616886	0.0252451084270446	0.995649878616886	0.0252451084270445	3.41967533270439E-17	5.18122748910203E-18
57.9	1.21038142449419E-17	-1.33142102000356E-17	1.00156265364418	-0.100111298495854	1.00156265364418	-0.100111298495853	1.71406654529551E-17	-3.90942681855169E-18
58	-3.61427648549922E-18	-2.23375829925789E-17	0.938418229529079	-0.302702932160324	0.938418229529079	-0.302702932160324	-1.22377328082093E-17	-3.43136757633127E-17
58.1	1.66553665928772E-17	-1.55135073070689E-17	0.871615654332581	-0.378196179055127	0.871615654332581	-0.378196179055127	-6.5621942345615E-18	-2.54370279213432E-17
58.2	1.30481576868519E-17	-1.65821332550126E-17	0.846760143530505	-0.524704336410453	0.846760143530505	-0.524704336410453	1.15610312784001E-18	5.74655037128246E-19
58.3	-7.41948648227868E-18	4.18069295225662E-18	0.744816806600987	-0.653534856749779	0.744816806600987	-0.653534856749779	1.21818428984088E-17	1.19042259927114E-17
58.4	2.87729019243898E-17	1.93888214168831E-17	0.639307729055835	-0.684383008023857	0.639307729055835	-0.684383008023858	-8.21098023269667E-18	-8.59043307627783E-18
58.5	-1.24683359788301E-18	2.27922223038534E-17	0.580733472417791	-0.821546317037649	0.580733472417791	-0.821546317037649	1.47066535854848E-17	-5.48170282060521E-19
58.6	3.13253159687739E-17	1.46920723176679E-17	0.424432164862143	-0.888450984810834	0.424432164862143	-0.888450984810834	3.24667384132258E-18	2.00777686335167E-17
58.7	4.239471360684E-17	-8.43057589263539E-18	0.287543471845123	-0.905855701335379	0.287543471845123	-0.905855701335379	2.17055389876495E-17	-2.89749486376332E-18
58.8	1.53035696065929E-18	-1.51250935900923E-17	0.179021263914494	-0.951921417700153	0.179021263914494	-0.951921417700153	1.46001254130355E-17	-2.40039118463337E-17
58.9	-6.13145465062788E-18	7.71879851182662E-18	0.0645505602591095	-0.985083173721721	0.0645505602591097	-0.985083173721721	-1.44233110425345E-17	-7.01391085270547E-18
59	-6.57892182852477E-18	3.52090376735205E-19	-0.115077432440828	-0.959152781026946	-0.115077432440828	-0.959152781026948	3.14585594343217E-18	-7.65893177761135E-19
59.1	7.4533727558616E-18	-1.85983330797209E-17	-0.212278685300601	-0.935072394606998	-0.212278685300601	-0.935072394606998	1.80591128375258E-17	-1.30657354180375E-17
59.2	-3.81906445961003E-18	1.2022727369569E-19	-0.33993014465543	-0.934956864212394	-0.33993014465543	-0.934956864212394	6.76084992165913E-19	6.15316060685333E-18
59.3	2.07929472779284E-18	-1.03562909860787E-17	-0.496014113576263	-0.823806104047995	-0.496014113576263	-0.823806104047995	1.84917039491294E-17	-1.60743098050127E-17
59.4	3.26359630545036E-18	-8.27148424529739E-18	-0.567191760858107	-0.780040614002476	-0.567191760858107	-0.780040614002476	5.68473750794834E-19	-8.29678717457011E-18
59.5	5.13162821014022E-18	7.22975715877377E-18	-0.69965578417194	-0.688416152622135	-0.69965578417194	-0.688416152622135	9.94863573975664E-18	-4.96672317098194E-18
59.6	5.44120423211432E-18	-1.43148499915885E-17	-0.774865462860907	-0.564549183477288	-0.774865462860907	-0.564549183477288	2.30240757014839E-18	-3.25390825920593E-18
59.7	-2.80292310514154E-18	-2.19132878364894E-18	-0.854640449301983	-0.479350688320728	-0.854640449301983	-0.479350688320728	1.73692038248609E-18	2.84267392708122E-18
59.8	-2.63421432373637E-17	-1.10205043140467E-17	-0.921852484841002	-0.350850165984722	-0.921852484841003	-0.350850165984722	-8.40899787868294E-18	-7.06567242303242E-19
59.9	1.23478076961499E-17	1.30454194110372E-18	-0.94764312565199	-0.231699629860959	-0.94764312565199	-0.231699629860959	5.63892870660578E-18	5.25889318547428E-18
60	-2.48040220274653E-18	-5.35669473621745E-18	-0.968599885588041	-0.0749013333430572	-0.96859988558804	-0.0749013333430574	6.03055649571076E-18	3.83790665627198E-18
60.1	5.32815923037769E-18	1.39959115626976E-17	-0.960330895225489	0.044594453769616	-0.960330895225488	0.0445944537696159	9.41152254417777E-18	5.9673949705369E-18
60.2	-8.83314371518248E-18	1.35416569363051E-17	-0.972645663485456	0.156001680511506	-0.972645663485456	0.156001680511506	2.700761107473E-18	-1.06364697420978E-17
60.3	4.64854346763073E-18	4.80696889295412E-19	-0.919693286141642	0.326549080306976	-0.919693286141642	0.326549080306976	8.13495106835378E-18	8.41219556266972E-19
60.4	1.07120786457598E-17	-1.20743918412411E-18	-0.860436180838917	0.400883348290592	-0.860436180838917	0.400883348290592	3.36278870139589E-19	-8.90461524437616E-18
60.5	-6.57504373378451E-18	2.25237173182064E-17	-0.814414150019079	0.545317032820974	-0.814414150019079	0.545317032820974	1.23437842818416E-18	4.11310345329206E-18
60.6	1.5746501194934E-17	6.02847359624221E-18	-0.726789449970922	0.643994878896116	-0.726789449970921	0.643994878896115	-5.16615280069105E-19	-2.53424503903494E-18
60.7	2.55576015886285E-18	4.13089158211635E-19	-0.629327182672555	0.740158074657687	-0.629327182672555	0.740158074657687	-2.68740942728564E-18	-1.22112612169165E-18
60.8	8.52584400391711E-18	7.03999231604139E-18	-0.526970514342383	0.82480165421019	-0.526970514342383	0.82480165421019	5.11116174592974E-18	3.12714649330632E-18
60.9	9.52261403450326E-18	-1.27293065545309E-17	-0.419548491826149	0.886489028147203	-0.419548491826149	0.886489028147203	1.58686048684572E-18	1.93556178782397E-18
61	1.49349824362259E-17	-4.53308077978943E-18	-0.281835862563072	0.936285085538681	-0.281835862563072	0.936285085538682	7.46507901403396E-18	-3.0140131729297E-18
61.1	-2.92393918328863E-17	1.19908454456874E-17	-0.151035367603517	0.950037254826787	-0.151035367603516	0.950037254826787	2.404499430464E-18	8.80487246179019E-18
61.2	2.02634054188843E-17	-8.20034886747073E-18	-0.0383230620733214	0.968389640139608	-0.0383230620733213	0.968389640139608	5.08062847658621E-18	1.83816529164468E-17
61.3	5.49674022457683E-18	-3.90456789649231E-17	0.0979823631731698	0.982290520264716	0.09798236317317	0.982290520264715	-4.33012243156036E-18	-1.40009172692897E-17
61.4	-1.74176602498542E-17	1.88192993061279E-18	0.260290907489501	0.936524604931908	0.260290907489501	0.936524604931909	-2.81468421712905E-17	1.83907015411582E-17
61.5	-2.60807249474822E-17	-1.22426903619447E-18	0.333987699008703	0.891072447624085	0.333987699008704	0.891072447624085	-8.17112283304003E-18	-1.89286727598991E-17
61.6	-6.40499719783906E-18	1.02532151847929E-17	0.483795038047268	0.872650558032557	0.483795038047268	0.872650558032557	-5.67635301910417E-18	-5.58224322500982E-18
61.7	-1.50908915678383E-17	-2.1739510816771E-18	0.602892848956984	0.779175819655832	0.602892848956985	0.779175819655832	-1.17493887437714E-17	1.84782877868354E-17
61.8	1.60763228718517E-17	-1.3803127088906E-17	0.679293364046034	0.680817239728427	0.679293364046034	0.680817239728427	-8.03344239946178E-18	4.79561633647275E-18
61.9	7.48917285304139E-18	-9.13610329673661E-18	0.773115237642615	0.581011210133103	0.773115237642615	0.581011210133104	1.74497852715832E-17	-1.26537008004355E-17
62	-2.40703706809735E-18	-4.35551556434347E-18	0.842243958176981	0.496844125844734	0.842243958176981	0.496844125844735	2.61523977102821E-17	1.30282016673356E-17
