# GHZ S RI R 50
50	-2.05556370492692E-17	-3.33106938216404E-17	0.754942595052502	-0.530280348209937	0.754942595052502	-0.530280348209936	7.74935359920254E-18	1.22507045520841E-18
50.1	5.55920427167712E-18	8.42200905019911E-18	0.636552382392963	-0.633647748777306	0.636552382392963	-0.633647748777306	-1.32751124321707E-17	-4.2590060497246E-18
50.2	-7.25021150264716E-18	-1.40798459215997E-17	0.537877931942036	-0.726114110663832	0.537877931942035	-0.726114110663831	7.07108361052193E-18	3.76915499062309E-18
50.3	1.84534991343406E-17	4.90002736857388E-17	0.41959850811234	-0.832921427357242	0.41959850811234	-0.832921427357241	-1.91299770680234E-17	-5.54726886829397E-18
50.4	1.39008864954219E-17	-3.21077333340425E-17	0.238238413138285	-0.852548582275323	0.238238413138285	-0.852548582275323	8.55839552650678E-18	1.47259033645753E-17
50.5	-3.23529209733518E-18	5.8436777563629E-19	0.130723972031093	-0.911300905802844	0.130723972031093	-0.911300905802844	2.23761301248637E-18	-2.40866947891014E-18
50.6	2.01721025592284E-17	4.84369543064119E-19	-0.0375855311911743	-0.908130149765931	-0.0375855311911741	-0.908130149765931	1.32088517124942E-17	3.2187397140372E-18
50.7	-5.40353010827282E-18	9.39682302039399E-18	-0.170344515441037	-0.887423183613702	-0.170344515441037	-0.887423183613702	4.72945759530909E-18	4.21423299500358E-18
50.8	-2.81422459414419E-17	-1.32339693428317E-17	-0.334040636965357	-0.870637973273341	-0.334040636965356	-0.87063797327334	-7.73724994921593E-18	4.93271087958379E-18
50.9	-2.19822396638569E-17	5.11720181855088E-18	-0.45100854212405	-0.771902323658714	-0.45100854212405	-0.771902323658715	-5.75330710119659E-18	1.58555078513349E-17
51	-1.2365756940161E-17	-1.42518289741829E-17	-0.589969349298096	-0.708018881360811	-0.589969349298095	-0.708018881360811	-1.67134191571441E-17	-1.50492478928514E-17
51.1	1.01306963497331E-17	-1.09845598701624E-18	-0.692363922291894	-0.599387851956933	-0.692363922291894	-0.599387851956933	-4.7360919917906E-18	-2.25457167720997E-18
51.2	-1.60378237908362E-17	-1.5209898073703E-18	-0.77456445262679	-0.475974514987074	-0.774564452626791	-0.475974514987074	-5.79689685219271E-18	-5.09997025850163E-18
51.3	-2.75081388142488E-17	-3.00419425131475E-17	-0.847103325915206	-0.346166481656179	-0.847103325915206	-0.346166481656179	-4.10862443933976E-18	3.9118902186155E-20
51.4	3.20064245657505E-17	-5.24719179787201E-19	-0.909977574691508	-0.222281172802101	-0.909977574691508	-0.2222811728021	4.07077811034871E-18	-7.31943466918823E-18
51.5	1.63757215168456E-17	-1.23402716070041E-17	-0.898803149277336	-0.0437237364794444	-0.898803149277336	-0.0437237364794442	9.08748715882571E-18	8.86248395151367E-19
51.6	-8.37033616162478E-18	-9.33577086897742E-19	-0.920066569958843	0.0715302321453145	-0.920066569958843	0.0715302321453143	1.50292518617019E-17	-3.09876065396384E-18
51.7	9.76620531140853E-18	-9.37440869835008E-18	-0.911723556297029	0.222573009250312	-0.911723556297029	0.222573009250312	1.48375798243111E-17	9.51213560698235E-18
51.8	-1.59101557116146E-17	-8.07578800012284E-18	-0.806564613033468	0.35689917474047	-0.806564613033468	0.35689917474047	-2.40087358251881E-17	7.35779843109862E-18
51.9	-4.88413252901474E-18	5.93107341403545E-18	-0.812525161940966	0.490801738466933	-0.812525161940966	0.490801738466932	-9.88324814918521E-18	3.8953741023202E-17
52	-5.01938223201217E-18	-9.99611265930168E-18	-0.662932276327597	0.618325109278376	-0.662932276327597	0.618325109278376	-2.49713701651008E-17	-2.10332489287038E-17
52.1	-2.18522007545091E-17	-1.80226862378808E-17	-0.566812653347098	0.700560897799178	-0.566812653347098	0.700560897799178	1.78060480878996E-18	-1.19035258448698E-17
52.2	5.8836300084853E-18	-2.26323641368261E-18	-0.476338881345447	0.788856120425465	-0.476338881345447	0.788856120425465	2.95104402515489E-17	-5.46432470127225E-17
52.3	-2.69774772093426E-18	2.28087759125382E-17	-0.350228086576481	0.855233079421357	-0.350228086576481	0.855233079421358	7.32487834690822E-18	-1.10657275034464E-18
52.4	-1.18500031052576E-17	-1.20253741597636E-17	-0.194549995991581	0.930469881746324	-0.19454999599158	0.930469881746324	-2.80039161765424E-17	1.44097029920132E-18
52.5	-1.11942456998159E-17	8.9932080522906E-18	-0.0771887253030177	0.879050272612362	-0.0771887253030179	0.879050272612362	2.16115117998608E-17	-2.90983284320261E-17
52.6	5.04220863153147E-18	-1.65344530393829E-17	0.0604252496864323	0.951346784463921	0.0604252496864321	0.951346784463921	1.14402880528274E-17	3.98583317312358E-17
52.7	1.58966614175857E-18	-1.50846194773695E-17	0.26814537854249	0.915680435422952	0.268145378542491	0.915680435422952	-7.12683617109929E-18	6.44101862045518E-18
52.8	-3.49005293449734E-17	-9.87582939872452E-18	0.287458867321229	0.768403594019445	0.287458867321229	0.768403594019445	1.12622074128513E-17	-1.28575565570499E-18
52.9	3.40798486933628E-17	4.54178607099567E-17	0.575061989645268	0.852473801288138	0.575061989645268	0.852473801288138	3.27087858340674E-17	-2.61485251066694E-18
53	2.09574302936827E-17	-5.1133666253578E-18	0.575073242021352	0.662594166281373	0.575073242021352	0.662594166281373	7.78798874909813E-18	-3.5813897003046E-17
53.1	2.04597549108616E-17	-1.05664328342336E-17	0.69738872599192	0.629406102959983	0.697388725991921	0.629406102959983	-5.3145825851443E-18	-2.176884176838E-17
53.2	-3.81372191725749E-18	-1.19807776003438E-17	0.838619190498506	0.494307353365492	0.838619190498506	0.494307353365492	-3.42855471925742E-18	-2.79938533396211E-18
53.3	-1.21796443722518E-18	-2.45151562406612E-18	0.851839557700668	0.376020866808237	0.851839557700668	0.376020866808236	6.66777984634527E-18	-6.08095802658497E-18
53.4	5.90034420361679E-18	4.03341180722285E-18	0.880778268739054	0.179565868425177	0.880778268739053	0.179565868425177	2.64017754090581E-17	3.10342812451509E-17
53.5	3.82970662336155E-18	4.44543584736903E-18	0.959643338549143	0.131158774740194	0.959643338549142	0.131158774740194	-2.61071113430819E-17	2.39804276578696E-17
53.6	-9.62637190749762E-18	9.47678400139302E-18	0.948492117196424	-0.0747618395086549	0.948492117196424	-0.0747618395086549	1.40547680223724E-17	1.84398838427972E-17
53.7	-1.04129725277772E-18	5.77029223478579E-19	0.857417001930266	-0.221685563912926	0.857417001930266	-0.221685563912926	-3.61749178223931E-18	1.52262892920795E-17
53.8	2.7546439126631E-18	-2.70217577854415E-17	0.966204360720947	-0.306390109333877	0.966204360720946	-0.306390109333877	-8.73963367903228E-18	6.16247594037776E-18
53.9	-2.47007579787531E-17	5.56263704503844E-18	0.819282931538422	-0.474739287894174	0.819282931538421	-0.474739287894174	-7.72609325452364E-18	7.22443126268431E-18
54	5.22608960198818E-18	-6.92351077974612E-18	0.718549939423647	-0.58620901498397	0.718549939423647	-0.58620901498397	4.34790846844176E-18	8.50516974011027E-18
54.1	1.70690400385203E-19	9.28783197189926E-18	0.648479968499124	-0.660507138646775	0.648479968499124	-0.660507138646774	-5.72572874952246E-18	1.19976667802776E-17
54.2	2.06572513735765E-17	4.49750393995059E-18	0.551498163153497	-0.766098619813355	0.551498163153496	-0.766098619813355	2.6142848698463E-17	-7.11798898438545E-18
54.3	-1.27223960084077E-17	-4.93648023113958E-18	0.379744455771045	-0.857506672691845	0.379744455771045	-0.857506672691845	-1.0462860361339E-17	-6.98731140970716E-18
54.4	4.45873650746188E-17	-1.44499648625461E-17	0.331259032994226	-0.846721363100269	0.331259032994225	-0.846721363100269	7.14333980903595E-18	-2.46383086085005E-17
54.5	-9.87726919496967E-18	-1.64254619261854E-17	0.120261581841727	-0.980876449240963	0.120261581841727	-0.980876449240962	5.75028617661856E-18	-2.06005525304143E-18
54.6	-1.03521059590646E-17	-8.53780148065192E-18	-0.00869277874374143	-0.915935698264046	-0.00869277874374147	-0.915935698264045	7.22072590831965E-18	-3.04850856639822E-18
54.7	-2.09323299721008E-18	-6.20900177848334E-18	-0.127169404087204	-0.962435745352086	-0.127169404087204	-0.962435745352086	-7.89395030762206E-19	2.12316935228622E-19
54.8	-1.17316216161992E-17	3.23794458832081E-19	-0.293448629761366	-0.923081445469244	-0.293448629761366	-0.923081445469244	5.50845280263688E-19	3.5972760950293E-18
54.9	-1.68998621944577E-17	-1.10378711590662E-18	-0.421560752405492	-0.843692866623982	-0.421560752405492	-0.843692866623983	-2.46919530222577E-17	4.61589300500462E-18
55	-1.55331363340164E-18	3.71024558583807E-18	-0.53352788092449	-0.801761646621566	-0.53352788092449	-0.801761646621566	-9.69814678791952E-18	-1.01649474470585E-17
55.1	-1.18807180986077E-17	-5.94489320883841E-18	-0.663872788596655	-0.706421929503937	-0.663872788596654	-0.706421929503937	7.11518265901952E-18	-9.35791739758896E-18
55.2	-1.48198923992441E-17	3.82659659763951E-18	-0.736409804871285	-0.601219289591416	-0.736409804871285	-0.601219289591416	2.81282797975048E-19	-6.45800254314137E-18
55.3	6.57443808353696E-18	-2.95277838274201E-18	-0.836757280377058	-0.462930502363954	-0.836757280377058	-0.462930502363954	1.66282162968701E-17	-1.23007093877171E-17
55.4	-4.60822903060319E-18	-5.72521162549333E-20	-0.89306744915722	-0.376436681002272	-0.89306744915722	-0.376436681002272	-1.55169904056264E-17	-3.07336903648739E-18
55.5	-2.91091317457839E-18	2.33089086545295E-18	-0.957718126492087	-0.21012312908283	-0.957718126492087	-0.21012312908283	1.69418387249148E-17	-1.2849440956895E-17
55.6	3.37889913580376E-18	7.05516961444713E-18	-0.953052786962402	-0.0843514775073446	-0.953052786962401	-0.0843514775073447	9.21118445775552E-18	-6.42204710880183E-18
55.7	-1.71148889131577E-17	1.27831635492652E-17	-0.980301713273896	0.0528933995201217	-0.980301713273894	0.0528933995201216	-2.2855266096972E-18	2.47356992473444E-19
55.8	2.7441805698542E-18	-5.84123239833711E-18	-0.952858399638457	0.211510025308062	-0.952858399638458	0.211510025308062	-9.28789884224218E-18	-1.20783024792063E-17
55.9	-1.28899458365032E-17	6.60471901747568E-18	-0.917770417787858	0.33740833489487	-0.917770417787858	0.33740833489487	-2.02187754125274E-17	1.71897711887842E-17
56	-1.05028770795914E-17	6.66497767349694E-18	-0.833255604413635	0.47108482635988	-0.833255604413635	0.47108482635988	-1.79814595480226E-17	-7.10992302714631E-18
56.1	1.12093552002536E-17	-1.22820572013312E-17	-0.78942597618806	0.582996416437958	-0.78942597618806	0.582996416437958	3.80773224910237E-17	1.2316500678602E-18
56.2	2.66450115025777E-18	1.02289386688906E-17	-0.698404132414961	0.705314062724835	-0.69840413241496	0.705314062724834	-1.33357148221078E-17	3.43152017244519E-17
56.3	-1.04657743520485E-18	1.6762615030849E-17	-0.5382313456814	0.79456909534945	-0.5382313456814	0.79456909534945	-5.63657816980281E-18	-1.18951164244209E-18
56.4	-2.47995464144012E-18	5.60096773485089E-18	-0.476544185874277	0.867323375049293	-0.476544185874277	0.867323375049294	2.93628894106106E-17	2.56261635521243E-17
56.5	4.16901195597815E-18	-1.9369292883101E-17	-0.327049161132168	0.945788843307508	-0.327049161132168	0.945788843307509	-1.9910570463847E-17	-4.2150307693651E-17
56.6	-8.840739776365E-18	4.78160231880629E-18	-0.180103145082636	0.948996148473338	-0.180103145082636	0.948996148473337	1.31399036999485E-17	-1.57001860042125E-17
56.7	-1.8251364012903E-18	9.9093250094656E-18	-0.0485998496939265	0.981001627057928	-0.0485998496939266	0.981001627057928	-1.99616082933674E-18	3.16526567205154E-18
56.8	-1.28246156004333E-17	-2.62116778609992E-17	0.0761307075699814	0.99884833681779	0.0761307075699813	0.99884833681779	-2.24260452899222E-17	-1.41727453534137E-17
56.9	-7.43002434142723E-18	-1.11483012434787E-17	0.224803573374982	0.952571131399322	0.224803573374981	0.952571131399321	2.08081867401456E-17	7.45965805664816E-19
57	-6.87276417617458E-18	-4.26491379967661E-18	0.38029987282728	0.87738649758682	0.38029987282728	0.87738649758682	-1.43912164190694E-17	6.08080119355909E-18
57.1	-1.8130733394113E-17	3.15243446787194E-17	0.488785336866508	0.844977152299201	0.488785336866508	0.844977152299202	-2.65872995782328E-17	4.95435660213896E-17
57.2	2.44375715517747E-17	9.91441213028381E-18	0.613710352421006	0.792445474833536	0.613710352421006	0.792445474833537	2.96694163823794E-17	-1.03332244218832E-17
57.3	2.07037828263836E-17	-1.06100033964849E-17	0.751049937167489	0.623209603921527	0.751049937167489	0.623209603921527	1.44060324974188E-17	-3.96880841737087E-17
57.4	-2.78350839686321E-19	-8.04062503209712E-18	0.765846655963676	0.549486872648159	0.765846655963676	0.549486872648159	-5.26129145028369E-21	-5.77549013557017E-17
57.5	-2.70400265072982E-17	1.16341846970473E-17	0.894339562921282	0.446806234523604	0.894339562921283	0.446806234523604	-6.56124335076723E-17	1.946146686946E-17
57.6	-3.81676517397068E-18	5.67444421360204E-18	0.94955928157929	0.289636382666557	0.94955928157929	0.289636382666557	-2.14566282167466E-17	2.8836640827918E-17
57.7	-1.98661767064149E-17	1.48356705713889E-17	0.938338021447591	0.153265214015168	0.938338021447591	0.153265214015169	-1.81402948645375E-17	1.9550177745574E-17
57.8	-3.09862762151023E-17	4.45242869273785E-18	0.988565500532363	0.037561528608114	0.988565500532362	0.0375615286081145	-1.80323852545046E-17	2.0329729269963E-18
57.9	5.92032303966425E-18	-4.60115579701327E-18	0.998037107995163	-0.0888316410482834	0.998037107995164	-0.088831641048284	1.34831558360553E-17	-3.74640707770329E-18
58	-3.61998294713016E-18	1.4515345318174E-18	0.93210001833172	-0.285417972566875	0.93210001833172	-0.285417972566875	-4.57766886908164E-18	-8.85648603712302E-19
58.1	1.69877516484758E-17	7.17620547087531E-18	0.874246185545999	-0.360785718040808	0.874246185545999	-0.360785718040808	3.56629008752826E-17	-1.55250357152276E-18
58.2	-9.49897679500853E-18	1.61476736766501E-17	0.848280761238058	-0.511070797876048	0.848280761238058	-0.511070797876048	6.30625280907137E-18	7.18289537477812E-18
58.3	-1.18161163591795E-17	4.91228247863799E-18	0.747757742692936	-0.638267352529889	0.747757742692936	-0.638267352529889	2.09272430730062E-17	3.38859520520564E-17
58.4	-8.65135947359765E-18	1.54661577447247E-17	0.651672942926323	-0.671796661530813	0.651672942926323	-0.671796661530813	1.42649287370654E-18	-3.0839913258091E-18
58.5	-2.55103965745649E-17	2.87021616896915E-17	0.588080012555511	-0.813907284981925	0.588080012555511	-0.813907284981925	-5.75122568645349E-19	9.40157673668992E-18
58.6	2.22128792522362E-17	2.08288235026021E-17	0.434714640934471	-0.879181366540832	0.434714640934471	-0.879181366540831	1.41536589565824E-17	-3.46339860494639E-18
58.7	7.36256540768867E-18	2.12729905766346E-17	0.302704436457214	-0.898968821962405	0.302704436457214	-0.898968821962405	5.58140317906218E-18	6.1995450418769E-18
58.8	-5.13253340826356E-18	-4.0581301455534E-19	0.192777960554983	-0.949410888622123	0.192777960554983	-0.949410888622123	9.431903674996E-18	-6.61383265666761E-18
58.9	-5.29463365007022E-18	8.97850425914457E-19	0.0759972336713032	-0.986497684665656	0.0759972336713031	-0.986497684665656	-1.17525714216402E-19	-1.03291590629078E-17
59	4.90991999078037E-18	7.62432299835229E-18	-0.100214108820735	-0.959407836377933	-0.100214108820735	-0.959407836377934	1.01899615700415E-17	9.19000834282919E-18
59.1	-1.51035103593046E-17	1.54747072447939E-17	-0.199189325534171	-0.941389769163725	-0.199189325534171	-0.941389769163726	-1.40068494170214E-17	1.89414976312779E-17
59.2	-8.45734130473307E-18	-2.91665279149948E-18	-0.331991892073384	-0.942214227639911	-0.331991892073384	-0.942214227639911	-9.34103046940346E-19	4.36239086092956E-18
59.3	3.95202353963448E-18	-2.07488289142587E-18	-0.483123395781941	-0.831431749046086	-0.48312339578194	-0.831431749046086	9.74081673680797E-18	-7.37251614988355E-18
59.4	-6.60191756199811E-19	1.53661812214791E-17	-0.56053603941636	-0.792420466714303	-0.56053603941636	-0.792420466714302	5.66301629352751E-18	1.58659989993703E-17
59.5	-1.69079290381124E-18	1.03856580846952E-18	-0.693707009716843	-0.699117683042671	-0.693707009716843	-0.699117683042671	8.4343548941618E-18	-2.66889570218975E-18
59.6	-2.75164629467751E-18	2.05157240649964E-18	-0.769406122628686	-0.578196582655052	-0.769406122628686	-0.578196582655053	3.93881361467689E-18	-9.50520544418922E-18
59.7	-7.23214607020034E-18	-1.91823141010777E-17	-0.854068751443612	-0.491906558065737	-0.854068751443613	-0.491906558065737	-1.16815152083064E-19	-1.88039640266765E-18
59.8	-1.33619635446395E-18	-3.5708306882301E-18	-0.922685849585784	-0.362704460630186	-0.922685849585785	-0.362704460630186	5.84924085951242E-18	-5.03835455524257E-18
59.9	1.4144977714215E-17	-1.37702984416644E-18	-0.952247476589225	-0.244266925727111	-0.952247476589226	-0.244266925727112	2.04473824695961E-18	1.02081327870187E-17
60	-1.92769017863783E-18	-7.92402394617437E-18	-0.973126205376164	-0.0876166076882671	-0.973126205376164	-0.0876166076882673	-2.73871735863318E-18	5.81452116878341E-18
60.1	0	0	-0.968842431546985	0.0323802470649945	-0.968842431546985	0.0323802470649945	1.68397467011015E-18	1.29574928162584E-17
60.2	-1.01030195979972E-17	-1.66673389119957E-17	-0.984266259621686	0.148734920081773	-0.984266259621686	0.148734920081773	-6.06085051345299E-18	3.67382530836262E-18
60.3	1.08468652572604E-17	8.54231306290139E-18	-0.929626446053351	0.317756669200178	-0.929626446053351	0.317756669200178	1.30239986475616E-17	1.95609056791254E-17
60.4	-8.14706557318536E-18	-7.8003062862947E-19	-0.876885819192508	0.395041253862361	-0.876885819192509	0.395041253862361	-1.51847397320227E-17	2.63480941358676E-18
60.5	2.44076976531719E-18	2.91766402297952E-18	-0.828260598296019	0.542816446554779	-0.82826059829602	0.542816446554779	-1.148768604165E-18	1.06320036195774E-17
60.6	3.73089024078847E-18	3.89981277381617E-17	-0.742049835650444	0.643620896202056	-0.742049835650444	0.643620896202056	-6.8646136388856E-18	7.1060719505252E-19
60.7	1.54193094164637E-18	-1.06414871724775E-18	-0.644503076424087	0.742018276969944	-0.644503076424087	0.742018276969944	-7.03639791418953E-19	-4.97761272064859E-18
60.8	-2.49261646274254E-18	-3.55071436824821E-18	-0.541161691827567	0.829492802758647	-0.541161691827566	0.829492802758646	5.28694209930158E-18	-4.88369082306426E-18
60.9	-4.31418926173937E-19	5.66810026666061E-18	-0.432914898759612	0.89466657857654	-0.432914898759611	0.89466657857654	-4.70318478436402E-18	3.72192800952216E-18
61	1.7235976051153E-17	-1.0292453904193E-18	-0.294300978206264	0.945432818049671	-0.294300978206265	0.945432818049672	2.11584040566446E-17	-2.97328636776883E-18
61.1	-2.8151508962093E-18	5.44461542471915E-19	-0.163628337208863	0.961795414763637	-0.163628337208863	0.961795414763636	-7.53824152588899E-18	-2.20398752290596E-18
61.2	-3.30689148536143E-18	7.92066070551208E-18	-0.0477518945345872	0.983765260796888	-0.047751894534587	0.983765260796889	1.2353435603811E-18	3.94303631833166E-17
61.3	1.82512281517398E-18	-9.20947055806038E-18	0.0925306284379779	0.998222740882186	0.092530628437978	0.998222740882185	4.47235863367583E-18	-2.1665464888337E-18
61.4	-1.06204127120382E-17	2.86339537231326E-19	0.254027644565752	0.951352761974859	0.254027644565752	0.951352761974859	-1.03616677604993E-17	6.44336854162704E-18
61.5	-9.89539023876821E-18	1.36286193823484E-17	0.331786354274329	0.912038098340238	0.331786354274329	0.912038098340238	-1.15802363594282E-17	1.44764882202929E-18
61.6	-6.80207674382862E-18	-1.91783080390411E-17	0.487119451809662	0.889680417233303	0.487119451809663	0.889680417233303	-6.28542841371206E-18	-5.07838062795718E-18
61.7	6.37112802900968E-18	1.61693901511464E-17	0.606796654663768	0.796019401918219	0.606796654663767	0.796019401918218	-1.39179797988791E-17	4.73682757846732E-18
61.8	1.34549785172814E-17	-6.39021228914281E-18	0.68577191629586	0.699804125979001	0.685771916295859	0.699804125979001	-3.3890404020327E-18	2.84630942192466E-18
61.9	2.64566008958029E-18	-2.88218040392583E-17	0.7821213451792	0.598353490821604	0.7821213451792	0.598353490821604	5.34865562270542E-18	-2.36720452485028E-17
62	1.63786877706498E-17	4.93126282600921E-18	0.856562771028111	0.512194559464779	0.85656277102811	0.512194559464779	-8.97871532257385E-18	-3.02228277458813E-18
