# GHZ S RI R 50
50	-5.0211810341405E-18	-2.91639082713235E-17	0.800354403304136	-0.563787816118827	0.800354403304135	-0.563787816118827	4.32263852244525E-19	2.80312654992811E-18
50.1	4.99654548858295E-18	2.44047352636282E-17	0.670744292224075	-0.678001602338327	0.670744292224075	-0.678001602338327	-1.50144320478118E-17	-2.20536883208644E-18
50.2	-1.08427868669554E-19	-1.62223100804836E-18	0.561423128414204	-0.770752550363191	0.561423128414203	-0.770752550363191	1.6897897141365E-17	6.15529195297131E-18
50.3	-1.56714203000939E-17	-8.11594048648775E-18	0.440417557877145	-0.876862474976662	0.440417557877146	-0.876862474976663	-2.95927456666887E-18	1.00110772056795E-17
50.4	1.77533703678552E-17	-1.09520890909974E-17	0.24204945024194	-0.906931356469304	0.24204945024194	-0.906931356469303	-2.58189652194434E-18	9.09374312420044E-18
50.5	-2.66763731107297E-18	-2.42455205256513E-18	0.131681271750739	-0.954980136892656	0.13168127175074	-0.954980136892657	3.39374282033986E-18	-9.09364533024757E-18
50.6	-8.7972213359024E-18	-8.66533698637334E-18	-0.0468614486966957	-0.953523061297074	-0.0468614486966958	-0.953523061297075	3.10053871591728E-19	3.14682388845089E-18
50.7	-1.7386490353659E-17	6.51616739264577E-18	-0.187651531627632	-0.925183512154947	-0.187651531627633	-0.925183512154947	-2.24521557855523E-18	2.62845274401901E-18
50.8	1.23940225834685E-17	8.72582231566447E-18	-0.351449197440106	-0.907868141478312	-0.351449197440106	-0.907868141478312	1.0950610075777E-17	2.25746139487053E-18
50.9	-7.69764852349028E-18	1.13134685022186E-17	-0.481461622756033	-0.799563858923623	-0.481461622756033	-0.799563858923622	-1.56387106705618E-19	6.75617312917339E-18
51	9.4102483746993E-18	1.13207808476126E-17	-0.618844355690222	-0.733134899490346	-0.618844355690223	-0.733134899490346	1.28606513571019E-17	5.7029860908433E-19
51.1	3.84849113844171E-17	1.74366243586849E-18	-0.724673568105478	-0.617027772037555	-0.724673568105479	-0.617027772037555	3.60376986311679E-18	2.60159576354113E-18
51.2	-8.22155179066691E-18	2.62831189856484E-18	-0.808826516093802	-0.485673334868555	-0.808826516093802	-0.485673334868555	-1.18056855636636E-17	-2.46040036332399E-18
51.3	-1.89473145345319E-18	-8.76722962141364E-18	-0.880589780981354	-0.350649271314485	-0.880589780981354	-0.350649271314485	-2.26375671990925E-18	-2.1425789269731E-18
51.4	5.70124643947273E-19	-4.2367537100117E-18	-0.938008152259562	-0.224798434132809	-0.938008152259562	-0.22479843413281	-5.97326065538564E-18	-3.94283665634438E-18
51.5	5.07085581851273E-18	-7.39545262455806E-18	-0.932378502611242	-0.0333259614318296	-0.932378502611241	-0.0333259614318295	-1.43097083003919E-17	9.572603103701E-18
51.6	2.79371931644347E-18	1.60678944140455E-17	-0.942741303667329	0.0813468396501812	-0.942741303667329	0.0813468396501812	-5.00722707399494E-18	1.42711685021423E-17
51.7	-1.05088338584102E-17	-5.28862002838377E-18	-0.931916129554969	0.232134647362908	-0.93191612955497	0.232134647362908	-2.60340943428032E-18	-2.21695869788137E-17
51.8	-4.41191003417336E-18	7.46560150933628E-18	-0.821755145629372	0.382807272439031	-0.821755145629372	0.382807272439031	3.90345848790685E-17	6.73366742808685E-18
51.9	1.41901178896794E-17	6.62441628899714E-19	-0.823926172663669	0.500762315025986	-0.823926172663669	0.500762315025986	2.63041111099893E-17	-2.26883018805382E-17
52	-1.58550319811177E-17	1.81030539348395E-17	-0.672752191754455	0.643426967999206	-0.672752191754455	0.643426967999206	2.28511940850696E-17	1.06118418952984E-17
52.1	1.35631435543516E-17	9.14206934245958E-18	-0.56777813136763	0.723397121010864	-0.56777813136763	0.723397121010864	3.95822764563512E-17	-1.72332650140437E-17
52.2	-1.73694053408271E-17	5.27092386108585E-18	-0.474434193539553	0.803703353384051	-0.474434193539552	0.80370335338405	-5.46267064385578E-19	1.1519191303888E-17
52.3	-2.16680064098299E-18	8.87936455406874E-18	-0.345588041656344	0.867134389891467	-0.345588041656344	0.867134389891468	1.57679138539799E-17	-1.00472821264641E-17
52.4	1.17162138524157E-17	9.44529066166751E-18	-0.195024868284388	0.943784146649448	-0.195024868284388	0.943784146649448	5.91675192325089E-18	2.55436475983809E-18
52.5	-2.78634165562732E-18	3.14995389281798E-19	-0.058579630146422	0.883550143592877	-0.0585796301464224	0.883550143592877	-2.72805530640844E-17	-6.37777718150998E-18
52.6	-9.41588263344936E-18	-5.11222142849973E-18	0.062562651042567	0.950929943859748	0.062562651042567	0.950929943859747	-1.13320521431305E-17	-1.35992736393173E-17
52.7	1.49060864901148E-17	-3.81746773173827E-18	0.273007491963094	0.927607925355713	0.273007491963094	0.927607925355713	-1.05433958741318E-17	-1.63603166954424E-17
52.8	4.41953474877659E-20	3.24563035866661E-18	0.316367439738577	0.749308858666046	0.316367439738577	0.749308858666045	-2.21044627356871E-17	-4.39289194597262E-17
52.9	-2.53583468452997E-17	-2.33864256532371E-17	0.566495395577878	0.868319188802932	0.566495395577878	0.868319188802932	0	0
53	-8.92050720826395E-18	-4.87420016116756E-18	0.590047506356818	0.649065378724845	0.590047506356817	0.649065378724844	1.21706361391486E-17	4.10519404232025E-17
53.1	8.08901875348457E-18	-8.46700447424734E-18	0.693600712409475	0.619037240462108	0.693600712409475	0.619037240462108	1.87248243294432E-17	5.41086028727847E-18
53.2	-1.00916955137251E-17	-1.50593583230739E-17	0.836503997625539	0.496356802546616	0.836503997625539	0.496356802546616	1.16566479026932E-17	-2.62422764065766E-18
53.3	1.41526638236589E-17	2.14836976029995E-17	0.844770404089964	0.365204091003386	0.844770404089964	0.365204091003386	2.71919041388408E-17	-5.40181782985909E-18
53.4	1.4386342372456E-17	-2.15909173417171E-17	0.885325363070727	0.165262681581328	0.885325363070727	0.165262681581328	-4.65735645257963E-17	-5.1205832655703E-17
53.5	1.00432805933098E-17	-1.82212492260236E-17	0.939063037653615	0.130876141151554	0.939063037653616	0.130876141151553	-3.61188796833721E-17	-1.83733278622616E-17
53.6	-7.64759814039707E-18	1.06362169279402E-17	0.940294260253167	-0.0763422999338266	0.940294260253168	-0.0763422999338266	2.75137481882755E-17	-3.26558054807064E-17
53.7	-4.81909176564773E-18	2.18668941089735E-17	0.848476046717381	-0.238118619250627	0.848476046717381	-0.238118619250627	-1.18810779129065E-17	-1.0114387237563E-17
53.8	3.15717703653043E-17	1.71692663647506E-17	0.942923343045194	-0.284211311990965	0.942923343045194	-0.284211311990965	6.52355351242134E-18	3.74935416437654E-18
53.9	-1.03379496337207E-17	4.53166041155813E-18	0.804445233629175	-0.469517177226403	0.804445233629175	-0.469517177226404	-1.82250236129943E-17	1.39046923696606E-17
54	1.30773307438841E-18	-3.0576832657395E-18	0.701829692593408	-0.582391102039083	0.701829692593407	-0.582391102039082	-3.38590048597495E-17	8.32720331143326E-18
54.1	1.03457229621175E-17	-5.26338346176531E-18	0.624899399558024	-0.646512743780197	0.624899399558024	-0.646512743780197	-2.37331431015089E-17	3.61372852252854E-18
54.2	-1.78846792442652E-17	1.07049984391006E-17	0.533218309928215	-0.744903580055323	0.533218309928215	-0.744903580055322	-2.31674334422557E-18	-2.28675643443617E-18
54.3	-8.11913156876968E-18	-1.95804779012026E-17	0.368510560022413	-0.844384876883538	0.368510560022413	-0.844384876883538	-3.05943129918103E-17	-3.75613372457775E-18
54.4	2.09844327971547E-17	-1.18510177575734E-17	0.307864405885983	-0.810040446177749	0.307864405885983	-0.810040446177749	1.08133449692306E-17	-2.00162915933E-17
54.5	2.19470230831118E-17	5.83060712630499E-18	0.125193828281344	-0.958832115584503	0.125193828281344	-0.958832115584503	2.51805553394212E-17	-2.34989598480173E-20
54.6	3.53403518657926E-18	2.60304769259996E-18	-0.0177313747638798	-0.88881470729661	-0.0177313747638799	-0.888814707296611	-2.67412930081032E-17	1.75320217612634E-17
54.7	1.39197239036189E-17	-1.14265826117901E-17	-0.117592264798466	-0.928338295546762	-0.117592264798466	-0.928338295546762	-9.00345626005924E-19	-2.32961842021052E-17
54.8	1.08696114406755E-17	3.60177687559819E-18	-0.280520770394794	-0.895228708844348	-0.280520770394794	-0.895228708844349	2.3377061460825E-18	1.13901583514308E-17
54.9	-5.51664474800642E-18	1.21628092695002E-18	-0.409934504805983	-0.815376866834338	-0.409934504805983	-0.815376866834338	4.57505673165467E-18	-1.10009294515058E-17
55	5.39486546226813E-19	6.28726823576177E-18	-0.509498499289608	-0.772228158808216	-0.509498499289608	-0.772228158808215	-1.44253898049285E-17	3.5169925798742E-18
55.1	2.43596855931605E-18	-2.19536683995649E-18	-0.636280575272799	-0.684037142694363	-0.636280575272799	-0.684037142694362	3.82833430591962E-19	-5.28514181487082E-18
55.2	3.3732018306168E-18	-5.07768838369138E-18	-0.704289071709935	-0.576421283799707	-0.704289071709935	-0.576421283799706	-1.4084817023847E-18	2.84081092179097E-19
55.3	2.67839432362086E-18	-2.35658038366712E-17	-0.80544402622208	-0.447404167633396	-0.80544402622208	-0.447404167633397	6.58335315658247E-18	-1.45047766869912E-17
55.4	-3.30292772790559E-18	6.18646838553364E-18	-0.848113656602534	-0.364663421224733	-0.848113656602534	-0.364663421224733	-1.48824391078745E-17	9.01409076712468E-18
55.5	-1.49767013517374E-17	9.83419606509283E-18	-0.917436119063824	-0.209666132346868	-0.917436119063824	-0.209666132346867	9.63776975604227E-18	1.23651974439849E-18
55.6	4.24572853233169E-18	-2.13985409847044E-18	-0.907462090726998	-0.083829446787317	-0.907462090726998	-0.0838294467873172	-5.13747395258669E-18	-3.8883766003638E-18
55.7	3.27339403717246E-18	2.7528786651649E-18	-0.932788421312606	0.0402096386593674	-0.932788421312605	0.0402096386593673	8.86627169301883E-19	-1.82902774768902E-17
55.8	-7.7768097815645E-18	9.98707375628544E-19	-0.91014486163817	0.193599919099769	-0.91014486163817	0.193599919099769	1.31082982346168E-17	-7.48526617795502E-18
55.9	-2.87540819020454E-18	-8.2538689314951E-18	-0.87412982890457	0.311177327615468	-0.87412982890457	0.311177327615468	6.49175069620017E-18	-1.68542729051852E-17
56	1.44770941839094E-17	3.83843964469017E-18	-0.793619585098029	0.444003524368313	-0.793619585098028	0.444003524368313	1.99469576523732E-17	2.23472230954379E-17
56.1	6.23215615812251E-18	3.65994882257199E-18	-0.752047805236027	0.541041163790967	-0.752047805236027	0.541041163790968	1.31867131070816E-17	-1.86015729663067E-18
56.2	9.50100321560401E-19	-9.14229949725521E-18	-0.670076047684086	0.656537088210458	-0.670076047684086	0.656537088210458	-2.42948001859109E-18	-3.05885750964883E-17
56.3	-6.73736189110035E-18	2.61435552970342E-18	-0.515645581062335	0.753196545635601	-0.515645581062335	0.753196545635601	-1.21272514039806E-17	4.70583995346615E-18
56.4	3.75093088706357E-18	-3.95719427076504E-18	-0.460486021409162	0.807112179995277	-0.460486021409162	0.807112179995277	9.38143656400827E-18	1.88147609296181E-17
56.5	-1.15951727621511E-18	-2.02151032327982E-17	-0.324324222177355	0.887000727013564	-0.324324222177355	0.887000727013563	-2.33862580664803E-17	-2.98656235929633E-17
56.6	-2.08009510192269E-18	-1.3646413337009E-17	-0.177587584773094	0.890695366677297	-0.177587584773094	0.890695366677297	8.53445963289039E-18	-4.29381250102161E-17
56.7	-3.10983028547852E-18	1.08640603385393E-18	-0.05873386919137	0.919663959100192	-0.05873386919137	0.919663959100192	9.51689449998968E-18	-4.720431422524E-18
56.8	-1.54201076642172E-17	-1.34486355710226E-18	0.0516076958592988	0.9339657978788	0.0516076958592988	0.9339657978788	-2.14543693471548E-17	-6.75956643355647E-19
56.9	-1.87380189103496E-17	-2.32245274494186E-17	0.196629937791967	0.892057964328324	0.196629937791968	0.892057964328324	-4.43536164797117E-18	-2.50657429988272E-17
57	-3.81612626813637E-18	-6.10076162857516E-18	0.350995651427293	0.825633672172519	0.350995651427293	0.825633672172519	1.18856465768953E-18	1.08398990580042E-17
57.1	1.1300775376162E-18	9.11056137392239E-18	0.443597623357401	0.793544540160741	0.443597623357401	0.793544540160741	1.59751522902564E-17	2.32887408950626E-17
57.2	8.19885751230119E-18	4.09015072334539E-18	0.55394608246866	0.749310138817116	0.553946082468659	0.749310138817115	4.07456149924448E-17	-9.56100046739533E-18
57.3	-3.86554514961872E-18	-5.33337004067322E-18	0.702593189497331	0.596169462083999	0.702593189497331	0.596169462083999	-3.80091172584078E-17	-4.17829901526507E-18
57.4	-3.03710370651889E-18	1.20034065866725E-17	0.702830476365012	0.512452739736499	0.702830476365012	0.5124527397365	1.10464193066172E-17	4.2976083544259E-17
57.5	-8.66300632318535E-18	-1.13170743795708E-17	0.822132234812214	0.433272431567907	0.822132234812214	0.433272431567908	-1.11468021619776E-17	-2.68684041669027E-17
57.6	-2.2161635606666E-19	5.36448730816495E-18	0.881020370521059	0.286734493520896	0.881020370521059	0.286734493520896	9.72229980966038E-19	2.64950207309915E-17
57.7	3.13564841411924E-18	-1.88972328140557E-17	0.868384683179809	0.149574782366455	0.86838468317981	0.149574782366455	-3.84567055244762E-18	-2.13757587922037E-17
57.8	-2.19956038541986E-18	-6.09800329525947E-18	0.912538955852462	0.0536601255114245	0.912538955852462	0.0536601255114243	-2.3582797257857E-17	-4.24271286288646E-18
57.9	6.67617347547692E-18	-6.69895420356656E-18	0.920166311742281	-0.0580741819810274	0.920166311742281	-0.0580741819810274	3.67911088667982E-17	-3.81075811822373E-17
58	3.2180807631798E-18	3.89341435124784E-18	0.872396506286392	-0.253869390306585	0.872396506286392	-0.253869390306586	-3.54699699857901E-18	-2.42608502192527E-17
58.1	1.26124777871094E-17	-6.62369128702904E-18	0.805029996319735	-0.3224168566258	0.805029996319735	-0.3224168566258	-7.26038718652629E-18	-7.61018481895147E-18
58.2	-4.36216134164431E-18	-2.55677485970032E-18	0.791797547471443	-0.453690072797641	0.791797547471444	-0.453690072797642	-2.59379765512602E-19	-2.52695411034193E-17
58.3	-1.39934839488004E-17	-2.90744706191675E-17	0.702429558937123	-0.57730579697808	0.702429558937123	-0.577305796978079	-2.16593241508504E-17	-1.35275975367442E-18
58.4	-5.01177925219398E-18	4.51481555202595E-20	0.598245886224341	-0.603659403396011	0.598245886224342	-0.603659403396011	2.64133409265777E-18	1.50127636788218E-17
58.5	-5.74527816137983E-18	-4.50996937261478E-18	0.558641655783052	-0.728018158059201	0.558641655783052	-0.728018158059201	-3.38912922962839E-18	-1.36044635626192E-18
58.6	1.09038596812697E-17	9.23291287366398E-19	0.415216379564959	-0.797038285966864	0.415216379564959	-0.797038285966864	-8.95272582542377E-18	-5.78044339131971E-19
58.7	-3.63854335171105E-18	3.9713815200566E-19	0.286680499006241	-0.814732291880501	0.28668049900624	-0.814732291880501	-6.17691928744903E-18	6.65726698154107E-18
58.8	1.39620374974743E-18	9.56364144267755E-18	0.193124208025555	-0.85751488220272	0.193124208025555	-0.85751488220272	-1.78546167167847E-18	6.36333084285181E-19
58.9	-3.35179344847746E-18	1.56099348472918E-17	0.0944325982183188	-0.889605003453501	0.0944325982183188	-0.8896050034535	2.32339511747919E-18	9.01869473297245E-18
59	-1.76162863131629E-17	-7.80964852800566E-18	-0.0748218833990748	-0.874426373008154	-0.0748218833990752	-0.874426373008154	-5.30664188200987E-18	8.541375243966E-18
59.1	2.52196137158318E-18	2.3450838922942E-17	-0.160207065654014	-0.850966046637832	-0.160207065654014	-0.850966046637831	8.6160045875063E-18	9.55242133977242E-18
59.2	9.29825614047851E-18	-6.29171473860996E-18	-0.270296333166937	-0.85780208977478	-0.270296333166938	-0.85780208977478	1.26459151034609E-17	-4.56668254610981E-18
59.3	5.51259342598742E-18	-6.9928678389848E-18	-0.42324400031488	-0.761668002334058	-0.42324400031488	-0.761668002334058	7.03129473263873E-18	-8.81120063328185E-18
59.4	2.24488477459437E-19	4.34092908529419E-18	-0.481280305205672	-0.722220073927883	-0.481280305205672	-0.722220073927883	6.8326102811411E-18	5.68152011541412E-18
59.5	-1.24798345186935E-17	-1.80821912775745E-17	-0.606088446217271	-0.64733632517945	-0.606088446217271	-0.64733632517945	1.7984382423434E-18	-6.54622848106415E-18
59.6	6.60297020550442E-18	-2.53666938019653E-19	-0.678806709331833	-0.535032131413007	-0.678806709331834	-0.535032131413007	8.51757629734287E-18	-3.37924301379697E-18
59.7	3.31874516525862E-18	2.87417881162702E-18	-0.750339781938045	-0.464449892639842	-0.750339781938045	-0.464449892639842	5.98302300806809E-19	4.22971982538273E-18
59.8	1.73322916317386E-17	4.38393010138425E-18	-0.816357313094393	-0.352132792084162	-0.816357313094393	-0.352132792084161	2.90750267450145E-18	8.45433114526092E-20
59.9	-1.06873663796971E-17	-1.04778015559733E-17	-0.840976793143622	-0.24560385998913	-0.840976793143622	-0.24560385998913	-6.47647512215614E-18	-5.32044870814725E-18
60	-1.87550070834658E-18	7.72415640817675E-18	-0.867694436674185	-0.103833840537907	-0.867694436674185	-0.103833840537907	2.72691585717016E-18	1.1227369166126E-17
60.1	5.18850727604229E-18	5.11353564786047E-18	-0.861597501859705	0.00313503412917749	-0.861597501859704	0.00313503412917714	-1.20809801054466E-18	1.09552920601694E-17
60.2	2.15509893895653E-17	2.83494026277739E-17	-0.876455017032982	0.0969027624176013	-0.876455017032982	0.096902762417601	-1.05108215430723E-17	1.47931450238259E-17
60.3	-7.66239330413683E-18	1.4841361133011E-17	-0.838113333533127	0.256899685224523	-0.838113333533127	0.256899685224523	-2.58158785099549E-18	9.41999864361874E-19
60.4	9.41753912818538E-18	1.12672768735529E-17	-0.781468322687257	0.321530273237454	-0.781468322687258	0.321530273237454	4.38363921819355E-18	-8.55170612118008E-19
60.5	-2.80426377063348E-18	-7.51959803674817E-18	-0.75104195622771	0.452033675927437	-0.75104195622771	0.452033675927438	-4.85185386375222E-18	3.46339432534366E-18
60.6	9.16307484487163E-19	-1.13247576694358E-18	-0.6754793143234	0.54298360530582	-0.6754793143234	0.54298360530582	2.76117549715589E-18	2.60889461305534E-18
60.7	3.81737944441997E-18	-1.55492423210535E-18	-0.592683198783769	0.632552186992541	-0.592683198783768	0.632552186992541	6.67300993306185E-18	2.177715887125E-18
60.8	-2.58812233815457E-18	2.12353932698502E-18	-0.506177487641873	0.71152189815146	-0.506177487641874	0.71152189815146	1.63783791298099E-17	-3.23534558187727E-18
60.9	-7.15610401767275E-18	1.85921880166588E-17	-0.414005835036249	0.769064060279745	-0.414005835036249	0.769064060279745	-3.17252868872709E-18	1.08120953615608E-17
61	-1.11086319965559E-18	-1.75996256519957E-18	-0.29296134875306	0.820339955264379	-0.292961348753061	0.820339955264379	2.99488992725605E-19	5.34849477126852E-18
61.1	-1.98736942590525E-17	-4.37945453549649E-19	-0.175785372678397	0.836265243512318	-0.175785372678397	0.836265243512318	-1.87885273431812E-18	-3.59416334881985E-18
61.2	1.30375946055633E-17	-2.78437001278019E-17	-0.079512937567984	0.855444829046164	-0.0795129375679839	0.855444829046163	-7.5514317440139E-18	2.98495054461499E-17
61.3	2.07625186968665E-18	1.21936938549208E-17	0.0384464219421131	0.87569955869355	0.0384464219421132	0.875699558693551	5.04509906202885E-18	7.91855052035619E-18
61.4	-6.94479597632857E-18	1.33193912678913E-17	0.189300741712396	0.843467530456213	0.189300741712396	0.843467530456215	-4.2884774198799E-18	3.8193235513816E-18
61.5	-1.42902679910807E-17	-3.42547626672108E-18	0.251423238744019	0.800172745347802	0.251423238744019	0.800172745347803	-8.75228632254376E-18	2.38332163226805E-18
61.6	1.04960247353423E-18	9.54736347279399E-18	0.382860770067824	0.79777499278288	0.382860770067824	0.79777499278288	-4.77115820612235E-18	-1.64959560644989E-18
61.7	5.17955118323921E-18	1.27541954864102E-18	0.494955821755327	0.719605310627117	0.494955821755327	0.719605310627117	1.70110364329009E-17	3.68171749557631E-18
61.8	-1.1011595158499E-18	-1.38123347597759E-18	0.565382505427239	0.632758405966358	0.565382505427239	0.632758405966358	-1.27874984919826E-17	-3.64248215851945E-18
61.9	1.25245858365407E-18	1.47026505543613E-17	0.653042808305193	0.550053338670816	0.653042808305193	0.550053338670816	8.81988228590632E-18	-1.21086148232643E-17
62	8.38108295148966E-18	3.55477525740569E-18	0.714280669242733	0.481642168041692	0.714280669242733	0.481642168041692	9.33847004766735E-18	-1.21084803117733E-17
