# GHZ S RI R 50
50	-3.4466705302224E-17	-2.41708602589259E-17	0.807143359319274	-0.581552918978779	0.807143359319274	-0.581552918978779	-4.59665167935941E-18	-3.34380515910396E-18
50.1	9.54444732209455E-18	8.81471395912811E-18	0.679989956846357	-0.692000783105514	0.679989956846357	-0.692000783105514	-1.31891228200969E-17	-7.11783462815953E-18
50.2	2.33062223709335E-18	3.32574318810107E-17	0.571619723260993	-0.792424941417517	0.571619723260992	-0.792424941417516	-1.28376694926027E-17	8.63115524612206E-18
50.3	-4.26363186199266E-17	-7.60635085422302E-18	0.440096110527181	-0.905915009282596	0.440096110527182	-0.905915009282596	1.12668318957565E-17	9.45949719875552E-20
50.4	-3.03445332132355E-18	1.799375925747E-17	0.247714194611878	-0.925058856014165	0.247714194611879	-0.925058856014165	-5.24712048672832E-18	4.31952326520756E-18
50.5	1.39081610065993E-19	-1.41983100400935E-17	0.126571600923426	-0.988218710081559	0.126571600923426	-0.988218710081558	1.99594746982302E-18	9.4163936456598E-18
50.6	6.11855429455178E-18	9.45752549249209E-18	-0.0543702091332276	-0.982352032180118	-0.0543702091332277	-0.982352032180118	7.23154469386521E-18	4.2654988968108E-18
50.7	-3.46196906799147E-18	8.76171891155889E-18	-0.199026915180277	-0.959385875986778	-0.199026915180277	-0.959385875986777	-1.06851580354981E-18	5.90882045322324E-18
50.8	2.31553314716495E-17	-1.41281587003737E-18	-0.376961573451447	-0.936396601852961	-0.376961573451447	-0.936396601852961	1.32582074257933E-17	-6.61089614004187E-18
50.9	-7.45350694026968E-18	7.15611736542684E-18	-0.501772964853499	-0.830670332303129	-0.501772964853499	-0.830670332303129	-1.62044120449454E-17	6.24720240523631E-18
51	9.01405961409363E-18	-1.7185670110313E-18	-0.652320967175503	-0.757001171115965	-0.652320967175503	-0.757001171115964	-7.36479999636905E-18	2.40279745573333E-18
51.1	2.46712054800378E-17	1.6789737251028E-18	-0.762155808529399	-0.63790513250711	-0.762155808529398	-0.63790513250711	7.83039255574818E-18	-4.88242259140573E-18
51.2	-2.26810888070741E-18	9.93174766709397E-18	-0.849953351211224	-0.502966107102081	-0.849953351211223	-0.502966107102082	-8.08472550188476E-18	6.36933253119746E-18
51.3	3.03662393107443E-18	-2.04680171180965E-17	-0.926841403326329	-0.360039431115706	-0.92684140332633	-0.360039431115706	6.73138287382218E-18	-1.24380550408621E-17
51.4	-6.77629987838415E-18	1.0718706836705E-17	-0.993489548892455	-0.221850974971945	-0.993489548892455	-0.221850974971945	6.58674635403531E-18	1.16684200501229E-19
51.5	-8.89164853464471E-19	7.33386209408908E-18	-0.978356967847903	-0.0315010607723264	-0.978356967847903	-0.0315010607723265	-1.87257703945715E-18	3.21052475370771E-18
51.6	-1.48734502887573E-17	-4.12768013673704E-17	-1.00037431953317	0.0980892027855219	-1.00037431953317	0.0980892027855215	-1.19735088655152E-17	-7.45622405332403E-18
51.7	2.08452656318337E-17	-1.82561619850143E-17	-0.987274878502711	0.263632491719695	-0.987274878502712	0.263632491719695	-1.45768387584489E-17	-4.38569654788237E-17
51.8	-1.05397882970911E-17	3.72447453803148E-18	-0.873924613917059	0.404906699951775	-0.87392461391706	0.404906699951775	1.46711056300247E-18	-2.9756216991862E-18
51.9	6.47473570547099E-19	-1.23896230701103E-17	-0.873061197907906	0.556284694699782	-0.873061197907905	0.556284694699781	-2.23482586512908E-17	3.9405218839716E-18
52	-4.18447162318685E-18	-1.82969680028693E-18	-0.710194564654557	0.688029770056955	-0.710194564654557	0.688029770056955	-3.15712501504318E-17	5.57467475398906E-18
52.1	-5.6982608713555E-19	7.96391550955687E-18	-0.604133789084299	0.778036080054711	-0.604133789084299	0.778036080054711	2.21913680741578E-18	-4.91085373572105E-18
52.2	-5.23309958868225E-18	-1.32805310115671E-17	-0.501092276944296	0.874730378342855	-0.501092276944295	0.874730378342854	-2.8074101456028E-17	-2.69650074554591E-17
52.3	1.10893286816879E-17	-9.73522577433122E-18	-0.360996496424917	0.945129783339093	-0.360996496424917	0.945129783339092	8.14637387115771E-18	-1.17718192421206E-17
52.4	-2.34060600879074E-17	-2.78829161859024E-17	-0.187314035816377	1.02104346879155	-0.187314035816377	1.02104346879155	-1.0794340140009E-17	1.78968858779566E-17
52.5	-6.38652527919786E-18	1.72997984022953E-17	-0.0631379099414427	0.968706526590627	-0.0631379099414428	0.968706526590627	5.87191987921627E-17	-2.03411554842454E-17
52.6	-6.77001662077638E-20	4.83106421661338E-18	0.095701676086714	1.04080906373153	0.095701676086714	1.04080906373153	2.2780074855357E-17	1.89038939335039E-17
52.7	1.9693962521504E-18	1.24902396106719E-17	0.318009720828441	0.992704687133706	0.318009720828441	0.992704687133705	4.59177858560705E-18	4.53587418488488E-17
52.8	7.41484405096243E-18	2.46010128663651E-17	0.335991791732231	0.845640135538887	0.335991791732231	0.845640135538887	2.14611233998453E-17	-5.67857374476931E-17
52.9	-1.06815676060519E-17	-2.65138557088494E-17	0.655272553445915	0.908919521046126	0.655272553445915	0.908919521046126	8.27187160721669E-18	3.0302463631912E-17
53	-1.23145318708327E-17	-7.70378472224278E-18	0.650782084956068	0.716008422038667	0.650782084956068	0.716008422038666	-1.06906871446649E-17	-2.46785301657946E-17
53.1	4.23665901297259E-18	1.43677275383195E-17	0.788734902742875	0.670028339618477	0.788734902742876	0.670028339618477	-1.67085572717067E-17	-3.30344283027427E-17
53.2	-1.88533581938034E-17	-2.78404256880835E-17	0.935594295923255	0.514124895767597	0.935594295923254	0.514124895767596	-6.11947439120523E-17	1.42752296548939E-17
53.3	-7.81708871313279E-18	-3.77697555876349E-18	0.951623730889096	0.386640188350902	0.951623730889097	0.386640188350902	-5.03596741168465E-18	1.04227849508437E-17
53.4	1.94910150692602E-17	-3.6755301683242E-18	0.974700466606646	0.174362927170715	0.974700466606645	0.174362927170715	1.24153572399379E-17	1.54682932171946E-17
53.5	1.44024961779522E-17	-1.11030931047682E-18	1.06407759807069	0.107494992125714	1.06407759807069	0.107494992125714	-2.3389550348467E-17	1.04139811996734E-17
53.6	-4.01949755346133E-17	1.67405453261091E-17	1.04175711955009	-0.114369966852242	1.04175711955009	-0.114369966852242	1.13669708765644E-17	2.47989291116674E-17
53.7	3.5906531522623E-18	-1.98360695146666E-17	0.941488104803953	-0.268320101134099	0.941488104803954	-0.2683201011341	-4.33053095078818E-17	1.21920151591911E-17
53.8	1.24292128894223E-17	1.30938227634713E-18	1.05267229243772	-0.381764962951472	1.05267229243771	-0.381764962951471	1.3942784382691E-18	1.66945358289055E-18
53.9	7.60735505742442E-18	-4.73471683929204E-18	0.887905958147126	-0.553780374222808	0.887905958147126	-0.553780374222808	-2.16546444999668E-17	-2.48851020835237E-17
54	-8.91487059841711E-18	1.04892071247258E-18	0.774830880486615	-0.673158397291244	0.774830880486614	-0.673158397291244	-2.29922283571294E-17	5.98339286217785E-18
54.1	-3.03662236787898E-17	3.26470181940577E-19	0.695227028748933	-0.758020051369949	0.695227028748933	-0.758020051369949	-2.32941017150143E-17	7.54305518456756E-18
54.2	-1.25399916684496E-17	1.45165400099714E-17	0.581552823942541	-0.872218144915806	0.581552823942541	-0.872218144915807	1.17080230226156E-18	2.01640463421747E-17
54.3	-1.07078468898104E-17	-7.76391303194498E-18	0.389617408137375	-0.962528642737667	0.389617408137374	-0.962528642737666	-7.15607619247678E-18	7.39101167164006E-18
54.4	4.08546036373858E-17	-2.8368762500979E-17	0.33492031714563	-0.961053852573468	0.33492031714563	-0.961053852573468	1.67509996029277E-17	-2.11146956354003E-17
54.5	1.04398973962967E-18	-6.1249391688778E-18	0.0921253845021143	-1.08876815721759	0.0921253845021145	-1.08876815721759	-2.01148004060162E-17	7.07626272924064E-18
54.6	-2.42456616123968E-17	1.29619436406986E-17	-0.0438784308849408	-1.01911133708861	-0.0438784308849407	-1.01911133708861	-2.18267655365375E-17	2.00000921595589E-17
54.7	-9.85604403363162E-19	2.50146766658895E-18	-0.18457918962915	-1.06411625622389	-0.18457918962915	-1.06411625622389	3.81040313716867E-18	-1.36289393829626E-18
54.8	9.26354805523885E-18	1.40637221974201E-19	-0.365767032319482	-1.01231033234399	-0.365767032319482	-1.01231033234398	-1.10600027774969E-17	-3.87418388846458E-18
54.9	-1.87265049515528E-18	-1.35867090372952E-17	-0.503833241480378	-0.921522757524759	-0.503833241480377	-0.92152275752476	-1.37961701193756E-17	2.46699951579287E-19
55	4.3923299384473E-20	6.32524226722284E-18	-0.630890305907982	-0.86893725447416	-0.630890305907982	-0.868937254474159	-7.82968706010572E-18	1.11240780918706E-17
55.1	-1.01317992720535E-17	-9.75598903027659E-19	-0.770726850493693	-0.756130417083302	-0.770726850493693	-0.756130417083302	1.93306052010537E-20	1.01094482597898E-18
55.2	8.38005917204188E-18	1.64170892775539E-18	-0.849732365010328	-0.637819363688547	-0.849732365010329	-0.637819363688547	9.40178067961823E-19	-2.73419786334439E-19
55.3	-1.2717496657989E-17	-2.22411741558257E-18	-0.952905534892686	-0.478967491568743	-0.952905534892686	-0.478967491568743	-1.99551873750265E-17	6.22993946057521E-18
55.4	-2.42983210335147E-18	-3.4307396778462E-18	-1.01670536377857	-0.37665167674133	-1.01670536377857	-0.37665167674133	3.9501675772539E-18	3.29609727411968E-17
55.5	2.09329019904224E-17	3.13035028987716E-18	-1.07749931083778	-0.188199449700756	-1.07749931083778	-0.188199449700756	-4.15117695503146E-18	5.39826145201301E-18
55.6	-1.78548894957449E-18	-1.61678462998474E-17	-1.07065225906176	-0.0484316610618201	-1.07065225906176	-0.04843166106182	-7.58345299703686E-18	-2.66972085337911E-17
55.7	-4.1462458182222E-18	-1.51906714620226E-17	-1.09342797633965	0.109647023715343	-1.09342797633965	0.109647023715343	-8.0092212733775E-18	-1.97516152463665E-17
55.8	3.94262736000667E-18	3.69359025579621E-18	-1.05469601874919	0.284269392098048	-1.05469601874919	0.284269392098048	-3.28808617426019E-18	6.69959918436691E-18
55.9	9.66012713237339E-18	6.51515714850276E-18	-1.0101359782171	0.425638227497083	-1.0101359782171	0.425638227497083	1.06573151468586E-17	2.78754765221154E-17
56	3.59884088097669E-18	1.75377821429906E-18	-0.910878751368286	0.569392610858407	-0.910878751368286	0.569392610858407	1.36097588691358E-17	1.7765993273937E-17
56.1	-9.03145792197162E-18	9.98812766642652E-18	-0.853872259119518	0.697130261001618	-0.853872259119519	0.697130261001619	-2.56261315099776E-17	-9.302386042508E-19
56.2	-3.29736400283781E-18	1.44380015501954E-17	-0.743807061328724	0.829406719527537	-0.743807061328724	0.829406719527536	-3.02366200577833E-17	2.06270688444628E-17
56.3	-4.54461261368618E-18	-8.98127812815385E-18	-0.564149669813202	0.917727089712938	-0.564149669813203	0.917727089712938	2.87185005902486E-17	-1.90441941377946E-17
56.4	-1.46940908763909E-17	-2.10572441616822E-18	-0.48556099242484	1.00250145624224	-0.485560992424839	1.00250145624224	2.17883921738774E-18	1.02163305211291E-18
56.5	-3.69770777954738E-18	-1.46577472712997E-17	-0.312765217245303	1.07970167550395	-0.312765217245304	1.07970167550395	2.34321679489717E-18	-3.70513906697127E-18
56.6	1.49734398360585E-17	3.73798461189857E-18	-0.15083926175698	1.07832691371532	-0.15083926175698	1.07832691371532	-6.21257417852065E-18	6.78195287677424E-18
56.7	-1.48622396050546E-17	7.48973223046516E-18	0.00174381580863871	1.10718653839488	0.00174381580863895	1.10718653839488	-1.26787754498821E-17	2.55585077955512E-17
56.8	1.86252644215729E-17	-5.88868139658943E-17	0.147488239045063	1.1204051323733	0.147488239045063	1.1204051323733	1.76521199049533E-17	-3.68380434484232E-17
56.9	-3.77528400497929E-17	3.97834093366785E-18	0.310249137285289	1.06163652952997	0.310249137285289	1.06163652952997	-1.95695247767845E-17	2.25796975636227E-17
57	5.49339501287539E-18	6.14429992720277E-18	0.477195806629509	0.969397077960079	0.477195806629508	0.969397077960078	-3.8895874194319E-17	7.32036723050595E-19
57.1	-7.51962863459309E-18	1.30873957163503E-18	0.603131395810947	0.925502267517691	0.603131395810947	0.925502267517691	2.16358869119511E-18	5.58298516943545E-18
57.2	3.33015236319877E-18	8.34505355118873E-18	0.74373168438077	0.855415599090438	0.74373168438077	0.855415599090438	-1.73097469585229E-17	1.10748268378508E-17
57.3	1.78031877581923E-17	-1.39201765308833E-17	0.87961629235086	0.660192507238874	0.879616292350859	0.660192507238873	5.44169451008935E-17	-4.20535856886674E-17
57.4	5.35713159730991E-18	-1.34544295798375E-17	0.903432189991181	0.57903297424681	0.903432189991181	0.579032974246811	7.98694362269262E-19	-6.52197951289565E-17
57.5	-1.20186316304272E-17	8.3096413915213E-18	1.03944194700386	0.447589762590463	1.03944194700387	0.447589762590463	-1.79623954768962E-17	1.01088072049426E-17
57.6	5.85949501908892E-18	6.01713424804892E-19	1.0904066877955	0.26848124732563	1.0904066877955	0.26848124732563	1.43809341488044E-18	-2.39458268750523E-17
57.7	-9.11750586152754E-18	-1.03451050712962E-17	1.07462770893225	0.118466888943012	1.07462770893225	0.118466888943012	-9.21496964285201E-18	-2.38708488134008E-17
57.8	-2.58287181744852E-17	-1.71473377263927E-18	1.12353717768998	-0.0223011998250149	1.12353717768998	-0.0223011998250146	6.95450006207777E-19	1.75115262032444E-17
57.9	3.32553576763535E-18	-7.3594763199191E-18	1.12657821696945	-0.169884838039777	1.12657821696945	-0.169884838039777	1.0917611219504E-17	-1.04388989768436E-17
58	-1.39254981808534E-18	5.33551076015453E-18	1.03829977991857	-0.379498630145181	1.03829977991857	-0.379498630145181	-9.81659790477092E-18	-1.77240360811866E-18
58.1	1.18372619180422E-17	1.27727012881085E-17	0.974883767783712	-0.466971893610729	0.974883767783712	-0.466971893610729	1.81779632376016E-18	1.96709963095977E-17
58.2	-1.11606539447734E-17	7.50812169378803E-18	0.929349342460697	-0.637792886714806	0.929349342460698	-0.637792886714805	-6.85658600183656E-19	1.86313153998148E-17
58.3	6.28976083468502E-18	1.7643696118846E-17	0.807708101750266	-0.77336195034444	0.807708101750266	-0.773361950344439	2.0164695460783E-17	3.56170987252788E-17
58.4	2.91668857637511E-17	-8.32758101756867E-18	0.702804987218974	-0.813348797805259	0.702804987218974	-0.813348797805258	2.46189522071797E-17	-1.17125461246025E-17
58.5	6.90677819343922E-18	1.43801622790621E-17	0.610309724061561	-0.970186452505139	0.610309724061561	-0.970186452505139	1.23258533820532E-17	-5.92009559437647E-18
58.6	1.67623099285123E-17	1.40638563408804E-17	0.435106353303576	-1.03235742965035	0.435106353303576	-1.03235742965035	8.40017293649911E-18	5.49252165419484E-18
58.7	-8.79210690326348E-18	1.39015102884322E-17	0.286487458597925	-1.05004091390039	0.286487458597925	-1.05004091390039	1.62035880298034E-17	-1.18237480427291E-18
58.8	1.77699235219751E-17	-1.94922169089432E-17	0.152715875487087	-1.10137134916336	0.152715875487087	-1.10137134916336	-6.39418888798943E-18	4.87839651693885E-18
58.9	-4.65766190767432E-18	8.85997688397176E-18	0.0115549457549366	-1.13583239673983	0.0115549457549368	-1.13583239673983	-9.97885766775266E-18	-4.68042925424316E-18
59	5.97478444956275E-18	-8.78936681442137E-18	-0.181965821103491	-1.09187689734999	-0.181965821103491	-1.09187689734999	-4.73790952289229E-19	-6.29772581504416E-18
59.1	5.48480595896307E-18	-1.45800243684314E-17	-0.299509130533968	-1.06777851328231	-0.299509130533968	-1.06777851328231	7.64743144222274E-18	8.45715624454383E-18
59.2	1.14064182299615E-17	2.06500909108549E-18	-0.456601364658414	-1.05430737041901	-0.456601364658415	-1.05430737041901	2.03831704721055E-18	-9.07674662950588E-18
59.3	4.00412916757188E-18	2.81108980486788E-18	-0.614215936988408	-0.919966770126645	-0.614215936988408	-0.919966770126646	2.66336908451162E-18	7.42550896921625E-18
59.4	9.34784477279217E-18	6.36657604154925E-18	-0.709200805497207	-0.868918432570054	-0.709200805497207	-0.868918432570053	1.05445498887454E-17	1.1066162939103E-17
59.5	9.89481583524533E-18	6.88290606003803E-18	-0.852075326923677	-0.749071374231929	-0.852075326923678	-0.749071374231929	3.18000912754738E-18	7.18759410415794E-18
59.6	-8.84654165315355E-19	3.31518738088746E-18	-0.93076166853381	-0.607697978492029	-0.93076166853381	-0.607697978492028	3.56777686573352E-18	5.45608988766924E-18
59.7	4.32279582813405E-18	3.09221339669376E-17	-1.02397079821569	-0.497052367748909	-1.02397079821569	-0.497052367748909	8.84920412196915E-18	1.30559922357372E-17
59.8	7.85563387990638E-18	-1.52827998941868E-17	-1.09183511139832	-0.342145964894126	-1.09183511139831	-0.342145964894126	-4.86744721954602E-18	-8.91407767033936E-18
59.9	-9.41834311110445E-18	1.23706904773511E-17	-1.11990759143619	-0.202363110631661	-1.11990759143619	-0.20236311063166	-4.13683563987342E-18	3.85088133642179E-18
60	-1.05465566251006E-17	-1.3726176480103E-17	-1.13009888116423	-0.0223754850953263	-1.13009888116423	-0.0223754850953262	-3.97985791612321E-18	1.64778114929679E-17
60.1	-5.40650561106741E-18	3.25704936306997E-17	-1.11868101950153	0.117804333134532	-1.11868101950153	0.117804333134532	-7.05145430217333E-18	3.01155541990692E-17
60.2	1.67145226791722E-17	-1.587780734973E-17	-1.12536796192957	0.259851475809315	-1.12536796192957	0.259851475809315	2.53890093200114E-17	-3.3735915615819E-18
60.3	1.56497995974602E-17	3.23045828681822E-17	-1.047651007912	0.444528281826962	-1.047651007912	0.444528281826962	1.90221669290097E-18	1.824019326679E-17
60.4	4.51196060130919E-18	8.1149670959695E-18	-0.985545038918301	0.536742700980848	-0.985545038918301	0.536742700980847	-2.67532854468817E-19	2.42786929552842E-18
60.5	-7.18947720978441E-18	-4.26580465168457E-18	-0.911229585993519	0.702540220255937	-0.911229585993519	0.702540220255938	6.28160400257223E-18	-1.25960604133351E-17
60.6	-7.0483078521808E-19	3.57418121728896E-17	-0.803758050493939	0.813476018832068	-0.803758050493939	0.813476018832068	-1.56502536819699E-18	1.136272701331E-17
60.7	-1.32106241549042E-18	-4.34957159826096E-18	-0.681710064808708	0.919510157311047	-0.681710064808707	0.919510157311047	-2.21251549853379E-19	1.49134736600559E-17
60.8	6.69442442655591E-19	-1.17515130436024E-17	-0.552408835133787	1.01249471539974	-0.552408835133788	1.01249471539974	8.90512879249349E-18	-6.41779709957988E-18
60.9	-4.72374234754991E-19	-3.58614608628916E-18	-0.419050206368454	1.08051073892152	-0.419050206368454	1.08051073892152	3.21672364980504E-18	-1.79554691266775E-18
61	-1.34269546981878E-17	-1.21542791708286E-17	-0.254373686964405	1.12633329524877	-0.254373686964405	1.12633329524877	-2.02672036951787E-17	-3.14198993625783E-17
61.1	1.01410428124408E-17	-5.34249580598205E-18	-0.101596936936476	1.13639885202461	-0.101596936936476	1.13639885202461	2.11963770634279E-17	-2.37136854987986E-17
61.2	4.53307062400879E-19	2.33830935765818E-17	0.0396207073901074	1.15254587808083	0.0396207073901072	1.15254587808083	-1.76800360625369E-18	1.6309362041205E-17
61.3	-1.13820488037822E-17	-2.56315597773705E-17	0.206421176459662	1.15347410317356	0.206421176459662	1.15347410317356	-4.04360852429416E-18	-1.86628099600302E-17
61.4	-9.97649745691324E-18	3.65700496410938E-18	0.384677718201953	1.08462174269633	0.384677718201954	1.08462174269633	-3.00096655917228E-17	5.85855945375125E-18
61.5	-9.40265858019336E-18	-2.03427716325059E-18	0.480225151265307	1.0364588596751	0.480225151265307	1.0364588596751	9.82734531746681E-18	-3.17275450363647E-17
61.6	6.38513509601485E-18	-2.64005968325999E-18	0.658969275739776	0.986895513130156	0.658969275739776	0.986895513130156	-5.03448534426556E-18	-5.39511271479235E-18
61.7	-1.7184510085571E-17	4.31389529744253E-18	0.787686948107811	0.868116518069353	0.787686948107811	0.868116518069353	-8.85437489607026E-18	-7.4482512551037E-18
61.8	2.56923633458123E-17	-1.49841938222007E-17	0.874196701773539	0.751183432270657	0.87419670177354	0.751183432270657	1.38790982741095E-17	-2.36758414844374E-17
61.9	8.95703377681299E-18	5.44406657522717E-18	0.976640446241826	0.621963528933238	0.976640446241826	0.621963528933239	1.37693063783062E-17	1.02560214575725E-17
62	-1.3448801937917E-17	-1.68334465814903E-17	1.0586468781601	0.509236076123595	1.0586468781601	0.509236076123595	-9.15889136305299E-18	-1.87537054440871E-18
62.1	2.01330850910754E-17	-2.32265471049666E-17	1.13428387643377	0.347612640388111	1.13428387643377	0.347612640388111	5.61321004273692E-18	-3.94051328988539E-18
