# GHZ S RI R 50
50	-1.46537850540928E-17	-3.09558924053977E-17	0.775831624397847	-0.546597419939659	0.775831624397846	-0.546597419939659	-9.28172090295596E-18	9.49739439330959E-22
50.1	1.14827445021341E-17	-6.67765427092509E-18	0.653402961077405	-0.653839311687221	0.653402961077405	-0.653839311687221	4.44566751118494E-18	-1.48518755026802E-18
50.2	-1.88015132127983E-17	-3.02057546878299E-17	0.550712571672631	-0.74805085971349	0.55071257167263	-0.74805085971349	1.97234659999506E-17	7.97286708040832E-18
50.3	-2.09746349017685E-17	-1.51347037739171E-17	0.429461948246461	-0.856264866627661	0.429461948246461	-0.856264866627661	1.75179720397844E-17	-3.14017525510651E-18
50.4	6.61259688330979E-18	-2.37206965854403E-17	0.242180091807396	-0.878272874639821	0.242180091807396	-0.878272874639821	4.09736554416516E-18	9.99132490200506E-18
50.5	-3.40537645165445E-18	6.34682165922151E-19	0.131580757052425	-0.935795766112208	0.131580757052426	-0.935795766112207	4.14959483920243E-19	9.78892693100132E-18
50.6	1.69335080774112E-17	-1.441336549531E-17	-0.0414770981033709	-0.932730084859221	-0.041477098103371	-0.93273008485922	-7.50124418358037E-18	-1.6031308535893E-17
50.7	5.47552708141618E-18	-1.02872096188191E-17	-0.178310264688369	-0.910133203398112	-0.178310264688368	-0.910133203398113	1.44325806310777E-17	3.78639811555552E-18
50.8	-3.1075277283089E-17	-2.00319465003671E-17	-0.344887364096028	-0.892365997204868	-0.344887364096028	-0.892365997204869	-8.65196099500547E-18	4.64408791013114E-18
50.9	1.25767542111296E-17	-1.97538485994276E-17	-0.466377210740619	-0.790291883905888	-0.466377210740619	-0.790291883905888	-2.29049203149143E-18	-7.93949495067109E-18
51	-1.46133030631757E-17	2.53155775495765E-18	-0.607414936921962	-0.724235876414051	-0.607414936921962	-0.724235876414051	-1.97305359619472E-18	-6.6447245478245E-18
51.1	1.72294832887795E-17	-8.80984502661743E-18	-0.712208792680952	-0.612090389529399	-0.712208792680951	-0.612090389529399	-4.63492380808553E-18	-1.01271990167137E-17
51.2	1.61834559247286E-18	-5.07746050188671E-18	-0.796150623210976	-0.484816478930208	-0.796150623210976	-0.484816478930209	1.33916121887191E-18	-6.9182298188277E-19
51.3	2.83465262657124E-18	8.58623117559992E-20	-0.869628745264024	-0.35142928367643	-0.869628745264024	-0.35142928367643	-7.64620258256543E-18	-5.26419961612476E-18
51.4	2.09992173956449E-17	5.35901879004041E-18	-0.93232031582696	-0.224466228125894	-0.93232031582696	-0.224466228125894	-5.28710459992383E-18	-7.1814680180442E-18
51.5	3.24996264809885E-20	-3.6783623572861E-19	-0.921859358439275	-0.040645590803632	-0.921859358439275	-0.0406455908036327	-1.22021164388383E-17	-1.29407460966311E-17
51.6	5.42070587482802E-20	6.26231639413201E-18	-0.941144020365317	0.077182668579949	-0.941144020365317	0.0771826685799494	-6.86086544004382E-18	-3.57052001184388E-18
51.7	3.00286130963573E-17	-1.58701832642918E-17	-0.931658347280827	0.23105005519088	-0.931658347280827	0.231050055190881	-3.62886380920995E-18	5.53348896591871E-18
51.8	1.02081982047751E-17	7.16037228729838E-18	-0.823919868697122	0.37057029546055	-0.823919868697122	0.37057029546055	1.89766404033435E-19	1.152240036718E-17
51.9	-1.3042432414403E-17	-6.73574513414368E-18	-0.828143994485464	0.504370848248749	-0.828143994485463	0.504370848248749	-2.49694173357824E-17	1.28040669400229E-17
52	-7.27266640164458E-18	8.922672237241E-18	-0.675702677772484	0.636429400145552	-0.675702677772485	0.636429400145552	-2.96525273812417E-17	7.58177277860392E-18
52.1	-2.19517165752704E-17	-1.69693831015698E-17	-0.575847531459969	0.719857722341406	-0.575847531459969	0.719857722341406	-2.01345748885366E-17	4.53166437181697E-18
52.2	7.28820646565085E-18	2.18290344162876E-18	-0.482508419934951	0.808235065623289	-0.482508419934951	0.808235065623289	-6.04901474151977E-19	-1.40796955473064E-17
52.3	-1.09995804239197E-17	-4.16989259615239E-18	-0.353179985209256	0.8750284772469	-0.353179985209257	0.8750284772469	-1.38197530272461E-17	2.10062436413477E-17
52.4	-1.82574458970051E-18	-1.23478256963788E-17	-0.195212628567549	0.951140354277206	-0.195212628567549	0.951140354277206	-3.39307858608956E-17	-2.87748291819076E-17
52.5	3.22708287222569E-18	-2.32805736570775E-18	-0.0721674422886075	0.897657072552771	-0.0721674422886072	0.897657072552771	-1.85037185265426E-17	-1.44262777216591E-19
52.6	-3.76029453568179E-18	-9.40232230165438E-18	0.0657557248189275	0.969297272394074	0.0657557248189276	0.969297272394075	-1.8290080610617E-17	3.55425747694512E-17
52.7	-1.62433455015114E-17	-1.89209721184612E-17	0.277229816616952	0.934387637014273	0.277229816616951	0.934387637014272	4.42735092020134E-18	1.28472779860744E-17
52.8	4.02406803356026E-17	2.75145016494945E-18	0.301811064708882	0.779984805971416	0.301811064708882	0.779984805971416	7.99552632369394E-18	-5.63653696145462E-18
52.9	-3.91681110885119E-18	1.48768986294708E-17	0.587423650918731	0.868848722525402	0.587423650918731	0.868848722525402	-3.12021532327216E-17	1.62590867842068E-17
53	-1.0336191336784E-17	-6.91016553112261E-18	0.59199105623205	0.671473678577366	0.59199105623205	0.671473678577366	1.61938338636524E-17	2.70908002657651E-17
53.1	4.8289959194633E-18	-1.37190398543137E-17	0.713287318416995	0.636916458661466	0.713287318416996	0.636916458661467	1.27883591719163E-17	1.45160063315762E-19
53.2	-1.59993738062643E-17	1.16651130425413E-18	0.856503723781341	0.500789483107128	0.856503723781341	0.500789483107128	-3.84149886197096E-17	1.18226876994544E-17
53.3	-3.55104177879522E-17	-1.50371348178668E-18	0.869306808731564	0.377810707319031	0.869306808731564	0.37781070731903	-2.051068192064E-17	1.913948365864E-17
53.4	1.90494638341246E-18	-7.97279520033012E-19	0.900172807514417	0.177334415135358	0.900172807514415	0.177334415135357	-4.22069199267606E-18	1.79965787599136E-17
53.5	-1.24755612921057E-17	1.40439834407973E-17	0.975675578658189	0.128885825854893	0.975675578658189	0.128885825854893	-2.5803815816299E-17	-4.32861457849469E-18
53.6	1.20462650917609E-17	-2.02833894833976E-18	0.965613771640257	-0.080726396027547	0.965613771640257	-0.0807263960275471	-7.94512823726234E-18	-2.75670614945515E-17
53.7	1.25005811082083E-17	1.89331397135568E-17	0.872736865553873	-0.232693673035013	0.872736865553873	-0.232693673035014	3.3810021512253E-18	-1.01000290718894E-17
53.8	-1.97296212917889E-18	-5.91872839135698E-18	0.97937107222411	-0.313858527235367	0.97937107222411	-0.313858527235367	8.10493675185313E-18	-1.279793380263E-18
53.9	-4.38189275158308E-18	1.23840798822618E-18	0.830986563057852	-0.487354870805591	0.830986563057852	-0.487354870805592	2.45827475320776E-17	2.22047676579718E-18
54	4.90122102888611E-18	7.23546333386259E-18	0.72758785804581	-0.600986028770667	0.72758785804581	-0.600986028770667	4.02588016451993E-18	1.17867199698933E-17
54.1	-1.42833725782768E-17	9.26997635027895E-18	0.654293175629431	-0.675163878607799	0.654293175629431	-0.675163878607799	-2.34152794490817E-17	3.60209825339589E-17
54.2	-8.38923004970768E-18	-1.56450270572101E-17	0.555515182190409	-0.781133753630233	0.555515182190409	-0.781133753630233	-1.41366048122282E-17	-1.8368478411435E-18
54.3	8.76471789833977E-18	4.79580439021639E-18	0.381442099568295	-0.874726131997606	0.381442099568295	-0.874726131997606	-1.21548688112192E-17	1.12866333850215E-17
54.4	2.93222451331966E-17	2.56357452072332E-18	0.329081375344527	-0.860282214301157	0.329081375344527	-0.860282214301157	6.94750479954799E-18	-2.53934037938973E-17
54.5	-3.21613079086795E-18	2.08296916291764E-17	0.118420015567553	-0.997477514461106	0.118420015567553	-0.997477514461106	-1.17244124722214E-17	1.87806136595353E-17
54.6	-1.90269856476159E-17	1.56611309200748E-17	-0.0153430448094488	-0.930546535924025	-0.0153430448094484	-0.930546535924025	-1.59244803085485E-17	1.85654972928253E-17
54.7	1.60589187714886E-17	-9.72802119828543E-18	-0.133763099257046	-0.975643475621833	-0.133763099257045	-0.975643475621832	5.40886716043917E-18	3.72867951628555E-18
54.8	0	0	-0.302487760220531	-0.935690716257464	-0.302487760220531	-0.935690716257465	-1.2466308946887E-17	2.79365945664402E-18
54.9	-4.9546748792187E-18	-1.81865692400554E-18	-0.433143089044422	-0.854177824025196	-0.433143089044422	-0.854177824025197	-1.21012049180388E-18	-2.25820200102482E-17
55	-3.82051470659128E-18	-3.78494379503394E-18	-0.545357800602913	-0.810235759853791	-0.545357800602913	-0.81023575985379	8.62368259992577E-18	-3.64062896537886E-18
55.1	8.67519100623893E-18	-5.21942424936665E-18	-0.677153875855581	-0.713398618931583	-0.677153875855582	-0.713398618931583	-2.82746265968983E-18	-1.02309968030307E-17
55.2	-7.48180970467683E-18	1.61936873524045E-18	-0.750181728657919	-0.605182435161762	-0.750181728657919	-0.605182435161762	4.25495292784519E-18	-1.08143859303206E-17
55.3	8.03791374214755E-18	4.18510141284837E-19	-0.851796829999475	-0.465126968199703	-0.851796829999475	-0.465126968199703	2.14006844946111E-17	7.61185486063428E-18
55.4	2.98548450702778E-19	-1.47733981507718E-18	-0.906671333635791	-0.376620443041961	-0.906671333635791	-0.376620443041961	-4.16309106844551E-18	1.24063369983697E-17
55.5	-1.51342737508726E-17	-3.98470187875183E-18	-0.972251769958823	-0.20854773399637	-0.972251769958823	-0.208547733996371	1.32410379002542E-17	-2.10804693956566E-17
55.6	8.64519404796364E-18	1.13582676162523E-17	-0.96619071086533	-0.0799413722935137	-0.966190710865329	-0.079941372293514	1.12582461882712E-17	1.8758268524139E-18
55.7	-6.36331424374744E-18	-2.70353251012787E-18	-0.992617433618234	0.0583297148646239	-0.992617433618233	0.0583297148646243	-3.8324305209284E-18	4.51975112591168E-19
55.8	4.01727019359809E-18	-1.32156869263873E-17	-0.96449065696235	0.219147793924824	-0.96449065696235	0.219147793924824	4.71871562839849E-18	-9.78822211562505E-18
55.9	-1.42503905782115E-18	-2.24077914126648E-17	-0.927679652983179	0.346317629751712	-0.927679652983179	0.346317629751712	-8.91708425404605E-18	-1.02786340256143E-17
56	-1.6112137330693E-17	1.13590450715285E-17	-0.84143873911109	0.482167279036958	-0.84143873911109	0.482167279036958	-7.28025548165121E-18	-4.84471070132632E-19
56.1	6.12201480720445E-18	2.14510608079706E-17	-0.795957087204876	0.593907091723014	-0.795957087204876	0.593907091723014	-1.59948415712662E-17	2.38057414513353E-17
56.2	2.08313987310081E-17	1.36143665636534E-17	-0.703610281094177	0.71702962729586	-0.703610281094177	0.717029627295861	2.1004423934094E-17	-3.96850443311615E-19
56.3	-4.63506754209016E-18	8.12742627775479E-18	-0.540886521964552	0.808407966961485	-0.540886521964552	0.808407966961485	8.57285880173889E-18	3.5634601918728E-18
56.4	5.82007366518238E-18	6.57916849381365E-18	-0.477783494536754	0.879343574793833	-0.477783494536753	0.879343574793832	-4.61694204228472E-17	-7.33012498042669E-18
56.5	-5.76795533071773E-18	1.18418925111953E-17	-0.326860199668196	0.95852258065759	-0.326860199668197	0.958522580657589	-2.66413347210695E-18	3.83963212361336E-17
56.6	-3.32050435007677E-18	-1.45641689585005E-17	-0.176831393652151	0.961273992201528	-0.176831393652152	0.961273992201528	-2.16821297864361E-17	-8.2564784041474E-18
56.7	8.5261147307182E-19	7.60300821249302E-20	-0.0441620625248075	0.992443645828551	-0.0441620625248074	0.992443645828551	2.33843796138662E-17	-1.16650014339009E-17
56.8	7.1613566341504E-18	-2.61218293954293E-19	0.0813095972953292	1.00903932702708	0.0813095972953292	1.00903932702708	5.35799809436393E-18	-2.24803425316896E-17
56.9	-2.06677584671652E-17	-1.61130755622092E-17	0.232245739433857	0.96166285026017	0.232245739433857	0.961662850260169	-2.8318868044074E-17	-2.17293751259978E-17
57	1.50744922151934E-18	7.98062904999004E-18	0.390236655870781	0.885488293695377	0.390236655870782	0.885488293695378	-1.09600674141609E-17	1.1988673614419E-17
57.1	-1.22650597190463E-17	1.15105885172582E-17	0.498545668810783	0.851315489701254	0.498545668810783	0.851315489701254	-2.17647319654987E-17	2.84443553265032E-17
57.2	-1.33682055885808E-17	2.16844870592702E-18	0.623446744022379	0.797759118188113	0.623446744022379	0.797759118188113	-2.41447798180721E-17	8.64752710365059E-18
57.3	-1.31075822886819E-17	-1.81333520282842E-17	0.764041113914344	0.627171948170116	0.764041113914343	0.627171948170116	-4.87824434399355E-18	-8.54375851105791E-17
57.4	1.45959892931049E-17	-3.18265344466645E-17	0.7771195171598	0.549682458976061	0.7771195171598	0.549682458976061	1.69074402921895E-17	-2.76421527278686E-17
57.5	1.33955800712578E-17	-5.79436494171272E-18	0.905641004179787	0.447325033434404	0.905641004179788	0.447325033434405	1.10110411928208E-17	-2.34711240136121E-17
57.6	-4.47728966018633E-18	1.23657819482849E-18	0.961497621728704	0.288229974020195	0.961497621728704	0.288229974020194	2.48366218671089E-17	-2.34056352491718E-17
57.7	-1.41035957562548E-17	7.2446085558841E-18	0.949292765468212	0.148754986922707	0.949292765468213	0.148754986922707	-1.23888489561621E-17	1.90755747784938E-18
57.8	-2.9086402401936E-17	-1.92717136880949E-17	0.998412072195696	0.0329662814719603	0.998412072195697	0.0329662814719605	-1.03141216954289E-17	-1.45609223562181E-17
57.9	-1.88993472731355E-17	6.83795511821698E-18	1.00668485188308	-0.0941669934747199	1.00668485188308	-0.0941669934747204	-1.92350146716209E-17	-6.29544785809055E-18
58	-1.30623559412068E-18	-1.14662536193123E-18	0.941092551964659	-0.293899916948807	0.941092551964659	-0.293899916948807	3.88522057431291E-21	-2.66612787470485E-17
58.1	1.2234888109716E-17	-5.72198770591801E-18	0.879962505462522	-0.370087445881318	0.879962505462522	-0.370087445881318	1.61188188705953E-17	-1.92128325660418E-18
58.2	-1.34197269027483E-17	1.84458146925954E-17	0.853853137694682	-0.520268696920387	0.853853137694683	-0.520268696920388	-9.68937359469345E-18	3.01278917203345E-17
58.3	-1.10202095678183E-17	-1.02829670912359E-17	0.752044475069289	-0.648853582557789	0.75204447506929	-0.648853582557789	-7.9326524196159E-18	-3.40473066034121E-17
58.4	0	0	0.652205207145903	-0.681999556803744	0.652205207145903	-0.681999556803744	-3.46404827914987E-17	-1.39151441286671E-17
58.5	2.14515455789841E-18	-1.5764133136287E-17	0.589345335112467	-0.823430862520508	0.589345335112467	-0.823430862520508	-2.47935821064795E-17	-6.58507391989485E-18
58.6	-9.31167983866579E-18	1.88357537555278E-18	0.433888205733899	-0.889614285382869	0.433888205733899	-0.889614285382868	-1.41452575916442E-17	6.73839253635077E-18
58.7	-7.7224623983691E-18	-1.3602327796003E-17	0.299267038499307	-0.908819867853182	0.299267038499307	-0.908819867853183	-2.30162026379681E-17	1.75584417559394E-18
58.8	-3.62613683019217E-18	1.10285123380925E-17	0.188725836909632	-0.958123460423248	0.188725836909632	-0.958123460423247	-7.89813551777177E-18	-1.44924362345803E-18
58.9	-6.39581039730039E-18	3.21543458511032E-17	0.071579099732895	-0.994071257462895	0.0715790997328947	-0.994071257462895	-8.79624845263502E-18	1.26551459827505E-17
59	2.0215002839215E-17	9.9851392122795E-20	-0.106968458946716	-0.967020297467783	-0.106968458946716	-0.967020297467784	1.7401436560489E-17	-4.94916350020862E-18
59.1	-8.45442555869186E-18	2.07733981091366E-18	-0.206344396306505	-0.946818017926773	-0.206344396306505	-0.946818017926773	4.58026359582179E-19	7.85185396640573E-18
59.2	-3.2908034598558E-19	-4.55225801802252E-18	-0.338637039114506	-0.947018965153719	-0.338637039114506	-0.94701896515372	4.75581151894252E-18	2.34053733584291E-18
59.3	-1.07560339309124E-18	-1.00305151253089E-18	-0.492334245765366	-0.835230184129806	-0.492334245765365	-0.835230184129806	-8.62324971250162E-18	5.47771428459301E-18
59.4	-7.38045105528304E-18	-6.88263468363358E-18	-0.568551717657633	-0.79414577561317	-0.568551717657632	-0.79414577561317	-3.62466775042866E-18	1.44984637997922E-17
59.5	9.38752288750041E-18	-2.61249506975553E-20	-0.70237386252021	-0.700421915237922	-0.702373862520211	-0.700421915237922	-3.41720717964072E-18	-1.27061677531458E-18
59.6	1.65432886791856E-17	-1.60689028029498E-18	-0.778460288394521	-0.577526545090271	-0.778460288394521	-0.577526545090271	9.61880935745411E-18	-7.59798945447334E-18
59.7	4.08309706202791E-18	3.53057492303484E-18	-0.862144725368037	-0.490605497185062	-0.862144725368037	-0.490605497185062	4.75210584664959E-20	5.92822189537328E-18
59.8	-5.1240967133082E-18	8.18828689785972E-18	-0.93067731883651	-0.360448875761803	-0.93067731883651	-0.360448875761802	-4.82541660448056E-18	1.44711919458299E-18
59.9	6.56389753315651E-18	-1.58496379104246E-17	-0.959185070695701	-0.240677377214346	-0.959185070695701	-0.240677377214345	-8.94820986969697E-19	-1.92257857917462E-18
60	-2.10901380735847E-18	1.240730951887E-17	-0.980042409483188	-0.0827014337504903	-0.980042409483188	-0.0827014337504903	-3.44921679218922E-18	2.64750285962404E-19
60.1	2.69076017333081E-17	1.60830670608195E-17	-0.974321228708658	0.0382393189178968	-0.974321228708658	0.0382393189178969	1.39979805799391E-17	3.07467752524249E-17
60.2	-1.02230517574128E-17	5.09083191195936E-18	-0.988584115382815	0.154154410733848	-0.988584115382815	0.154154410733848	2.84004288699659E-18	1.45887407287639E-17
60.3	-2.049128815552E-18	-1.35177493043726E-17	-0.933828650031829	0.32487020876989	-0.933828650031829	0.32487020876989	1.08444482897994E-17	2.77055363236435E-18
60.4	6.16150886159892E-18	-1.09636289607132E-18	-0.878456941646792	0.402034349968698	-0.878456941646792	0.402034349968697	1.32284586881028E-18	-1.53163014177141E-18
60.5	-2.92374995059479E-18	2.49593705593063E-18	-0.829895348899275	0.549833977024532	-0.829895348899275	0.549833977024532	-1.97890601561401E-18	-8.37890711314739E-19
60.6	2.38727354142332E-18	-1.16209791967476E-17	-0.742325491969053	0.650738029162463	-0.742325491969053	0.650738029162463	5.40717901367723E-18	-8.66439874791314E-18
60.7	6.49245871195635E-18	3.29214883991039E-18	-0.643778605003248	0.749114053343818	-0.643778605003247	0.749114053343818	-6.69275191170232E-18	1.01808126274692E-18
60.8	-4.81928986736681E-18	-1.69148626487006E-17	-0.539653985743981	0.836256598868019	-0.539653985743981	0.836256598868019	6.50123540340597E-18	-6.47542418846978E-18
60.9	8.15772457398307E-19	-6.55975531076716E-18	-0.4305402302204	0.900714781342256	-0.4305402302204	0.900714781342255	-5.25190786519604E-18	3.12759166983961E-18
61	1.47489021729842E-18	-8.3252070696013E-18	-0.290940037570607	0.951362202879542	-0.290940037570607	0.951362202879542	-4.41128784109925E-18	1.16595123927375E-18
61.1	-1.11235091612681E-17	1.47000430043916E-17	-0.159022654609016	0.966870462157349	-0.159022654609016	0.966870462157349	1.02971761863439E-17	9.19540766349886E-18
61.2	2.37568931207851E-17	-8.98961645321124E-18	-0.04297658580714	0.987629651986764	-0.0429765858071399	0.987629651986764	-5.14254478834465E-18	1.01872653343477E-17
61.3	-6.72560833995504E-18	2.50426883962732E-17	0.097315275945602	1.00167376569067	0.0973152759456018	1.00167376569067	-7.9358621997499E-18	2.8995079985504E-18
61.4	-3.74914042769294E-18	-9.61638206791994E-18	0.260298653835955	0.954521314564856	0.260298653835955	0.954521314564857	5.49302605343826E-19	-1.41200148353811E-17
61.5	5.52417980760461E-18	1.14940875785895E-17	0.337639928911338	0.912738577463246	0.337639928911338	0.912738577463247	2.89597662838041E-18	-2.43914090498174E-17
61.6	5.91314673268493E-18	-2.6537507726241E-18	0.492429694743045	0.890931049901789	0.492429694743045	0.89093104990179	-6.63037396265454E-18	3.79533995242653E-18
61.7	-1.1279542986144E-17	1.54070601420192E-18	0.612785368964072	0.796318748155049	0.612785368964072	0.796318748155049	-1.40433499712003E-17	1.71425818949096E-18
61.8	-3.35356526116451E-18	1.76495906244403E-19	0.691573669374664	0.698411050409587	0.691573669374664	0.698411050409586	-9.20839393264417E-18	-9.28552193909279E-19
61.9	-2.8723464810913E-19	-1.01864588694724E-18	0.787749814898749	0.596340983611269	0.787749814898749	0.596340983611269	-3.86493382694068E-18	-9.02686058218365E-18
62	9.10103185881977E-18	9.36869320399084E-18	0.86100104158674	0.509726439576334	0.861001041586741	0.509726439576334	-3.57386167416822E-18	-2.00121654245426E-18
62.1	-1.67248000965034E-18	1.1994459038793E-17	0.939521746162698	0.379261327587146	0.939521746162699	0.379261327587145	-5.1336283396521E-18	3.39862288910548E-18
