# GHZ S RI R 50
50	-6.3543757060263E-18	-2.17547634491927E-18	0.800456924063865	-0.572024566499699	0.800456924063866	-0.572024566499699	3.01941686837589E-18	-6.06544525396671E-18
50.1	-2.51625335266864E-17	-1.30912679216099E-17	0.671655710222124	-0.684193999299077	0.671655710222124	-0.684193999299076	6.22998575335233E-18	-8.08975839043117E-18
50.2	-1.28678044826323E-18	1.39409400993245E-17	0.562663452665087	-0.779518045576647	0.562663452665086	-0.779518045576647	-9.8806816032062E-18	-4.32321838463186E-18
50.3	3.50236057820621E-17	6.85105511815605E-18	0.43745279415451	-0.888110993791936	0.43745279415451	-0.888110993791936	-8.09109853839851E-18	2.01604780730424E-17
50.4	1.97031696679167E-17	-3.77649962848261E-17	0.241579176032157	-0.913210650184708	0.241579176032157	-0.913210650184708	9.14002568893127E-18	1.05422529716619E-17
50.5	1.16731221596296E-18	2.02014135054262E-18	0.12711420567806	-0.966891390863101	0.12711420567806	-0.966891390863101	1.48179529734625E-18	7.22773626759081E-18
50.6	6.09647825345301E-19	5.61643040229475E-18	-0.0521234155116798	-0.96320308962526	-0.0521234155116798	-0.963203089625259	-1.17554160834569E-17	-3.59478755127632E-18
50.7	1.07807192068952E-17	-1.50459181086274E-17	-0.194085067035481	-0.936631513320147	-0.194085067035482	-0.936631513320147	-1.16519235718069E-17	5.04558034381779E-18
50.8	-3.74625285270681E-18	-1.38388412838279E-17	-0.363151119043934	-0.916753592962929	-0.363151119043934	-0.916753592962928	1.44534177420832E-17	-4.32377715395672E-18
50.9	1.79643817994631E-17	5.86648725614623E-18	-0.49057887948642	-0.809203513363826	-0.49057887948642	-0.809203513363826	7.18423045085682E-18	-1.37729464244098E-17
51	9.87099314636794E-18	7.16616262678469E-19	-0.632741378972664	-0.739745284699535	-0.632741378972664	-0.739745284699535	6.08156415283597E-18	1.42653014267923E-17
51.1	-2.00003293447135E-17	7.99367822009312E-18	-0.739635449850716	-0.622375500776702	-0.739635449850715	-0.622375500776702	-6.60021197658856E-18	9.37072729910882E-18
51.2	-1.57603208368915E-17	8.59493927646473E-18	-0.824703315494569	-0.48961480304409	-0.824703315494568	-0.48961480304409	-8.7867198372856E-18	-6.11352063928489E-18
51.3	-8.96010038084226E-18	-2.47655174430713E-17	-0.897997181997333	-0.351560878111372	-0.897997181997333	-0.351560878111372	-4.73790373501309E-18	-4.38122701790944E-18
51.4	4.26123219149019E-18	-5.39436539176605E-18	-0.958626417007277	-0.221030684691128	-0.958626417007276	-0.221030684691127	-1.08844320219825E-17	3.0122227336607E-19
51.5	2.96619066380022E-18	-2.19322106517368E-17	-0.948716209253682	-0.0302502925409243	-0.948716209253682	-0.0302502925409245	-2.28987333501892E-17	-9.29240211437154E-18
51.6	2.37632885039961E-18	8.22793145685417E-18	-0.963348877903281	0.0899526290053005	-0.963348877903281	0.0899526290053007	-1.02690642627335E-17	6.89210746514153E-18
51.7	1.71370618447007E-17	-2.00414096427171E-17	-0.9513220389989	0.246181611477909	-0.951322038998899	0.246181611477909	2.15153895345748E-18	6.46866229524453E-18
51.8	1.21208988992373E-18	2.52828412497221E-17	-0.839566394992077	0.392662410675578	-0.839566394992077	0.392662410675578	2.00157872226131E-17	1.67175983989108E-17
51.9	-1.50569517882013E-17	2.29161965513468E-17	-0.840477862154116	0.523338018745564	-0.840477862154116	0.523338018745564	-1.8083608401336E-17	2.52179937101444E-17
52	-2.46405406574681E-18	3.05876074623567E-18	-0.684486839887791	0.661185156856468	-0.68448683988779	0.661185156856468	9.19035210070529E-18	-3.83936205991886E-17
52.1	5.15279689012696E-18	1.47807379901596E-18	-0.579100621379203	0.744570378606682	-0.579100621379203	0.744570378606682	-2.22971238422899E-17	-6.28032311305077E-18
52.2	-3.2739367481043E-18	1.20111456759698E-17	-0.482066183851439	0.83082236879183	-0.48206618385144	0.830822368791831	8.14332039176218E-18	2.71469552297037E-17
52.3	1.31301291817585E-19	-1.67660496042138E-17	-0.348972005259254	0.896503104724452	-0.348972005259254	0.896503104724452	-1.75619906214788E-17	1.43907300032267E-17
52.4	-1.96972712322876E-17	-1.48712098804432E-17	-0.189535580314851	0.972479608753693	-0.189535580314851	0.972479608753693	-6.01369042699825E-17	1.23801799460635E-17
52.5	8.81704478597828E-18	-1.72406571487106E-17	-0.0582493719724241	0.914791733790847	-0.0582493719724237	0.914791733790848	-2.05446867827486E-17	-2.31992660908186E-17
52.6	5.18142004083051E-18	-5.09426210037893E-18	0.0772237081499603	0.983815757003539	0.0772237081499603	0.98381575700354	-1.87955238882454E-17	-1.0713585440991E-17
52.7	1.24694342187135E-17	1.22656142508384E-17	0.292060962644895	0.950475033357636	0.292060962644895	0.950475033357636	-3.59765248959677E-18	2.52420793967164E-17
52.8	4.24048073396169E-17	-1.96483934610037E-20	0.324946461366475	0.783976380713807	0.324946461366475	0.783976380713806	-3.58005466231498E-17	-4.63636796957233E-17
52.9	-1.2080787485978E-17	3.76582836388493E-18	0.601888638350943	0.881451205902963	0.601888638350943	0.881451205902963	-2.60661759702046E-17	4.49798168420298E-17
53	-2.36744304035778E-17	-9.37404898508678E-18	0.613635484853112	0.672156536032235	0.613635484853112	0.672156536032235	1.21985920652211E-17	-7.18403195682255E-18
53.1	1.44420228910576E-18	-1.43116694816157E-18	0.73008540807738	0.636105136722491	0.73008540807738	0.636105136722491	-2.56139210260535E-18	-1.85293704016703E-17
53.2	3.56460685863286E-18	6.07300365729619E-18	0.874229088708097	0.5005621956311	0.874229088708096	0.5005621956311	3.87484304030784E-17	-1.04958322365365E-17
53.3	-2.291501335168E-17	5.16500416263266E-18	0.884875518402074	0.371049896691616	0.884875518402073	0.371049896691616	2.39629075543118E-18	-1.57905093412586E-17
53.4	-2.1247170862532E-18	-2.01547657486528E-17	0.918197901961105	0.166427436947196	0.918197901961105	0.166427436947196	-1.00813890837601E-17	-2.47503070166674E-17
53.5	8.38761741011818E-19	3.73021824177965E-18	0.985519578820254	0.120068438099906	0.985519578820254	0.120068438099906	-2.40853586883657E-17	-1.30027123349005E-17
53.6	-5.74671001635569E-18	1.10000791798505E-18	0.977288442504908	-0.0926925335100924	0.977288442504908	-0.0926925335100922	-3.31145325802662E-17	-3.9617443334808E-17
53.7	-2.18232700215739E-18	4.78284664508623E-18	0.881764013677218	-0.25104041031525	0.881764013677217	-0.25104041031525	-6.22472287256317E-18	-9.00777692313313E-18
53.8	-1.46123441166659E-17	-1.06869795647607E-18	0.983042947297695	-0.322446575837094	0.983042947297694	-0.322446575837095	-7.87642900079386E-18	8.09447583447967E-18
53.9	1.84616636778428E-17	-3.25752840530262E-18	0.833927691006875	-0.502380218763772	0.833927691006875	-0.502380218763772	-6.41541816411304E-18	-8.97197197227823E-18
54	1.47303269285446E-17	2.82431061949868E-18	0.727172208478566	-0.617271730379583	0.727172208478566	-0.617271730379583	-1.08351980384472E-18	-2.25712240954904E-17
54.1	-5.81746629897638E-18	6.96106516760413E-18	0.64932368815524	-0.688784023150104	0.64932368815524	-0.688784023150105	2.46438228765368E-17	-4.56893201358436E-18
54.2	1.17125918649633E-17	2.50150735201859E-18	0.549370933987091	-0.792852226178231	0.549370933987091	-0.792852226178231	-1.91355229979159E-19	-1.88907296298569E-17
54.3	1.77306891517568E-17	-4.92090239153115E-18	0.374197794816636	-0.888488767796607	0.374197794816636	-0.888488767796608	1.4887436562589E-17	-5.52462660109926E-18
54.4	9.15070026915462E-18	-1.54296442157538E-17	0.316337747235753	-0.866006948018472	0.316337747235753	-0.866006948018471	2.78059742992121E-17	-4.2133229651152E-17
54.5	2.51091664748735E-18	-3.0885612256535E-18	0.110678306125693	-1.00693217171434	0.110678306125693	-1.00693217171434	4.24852446724622E-18	-2.70190681178927E-18
54.6	5.70920913366635E-19	-1.52918960917172E-17	-0.0292031921762896	-0.936430066535912	-0.0292031921762897	-0.936430066535912	-3.98818448754045E-18	-1.50072618256365E-17
54.7	-1.24983450566762E-17	5.53689420917506E-18	-0.144157625536168	-0.978075329155055	-0.144157625536168	-0.978075329155055	-1.44658188344707E-17	-9.80784586603032E-18
54.8	9.12584270492231E-18	-1.32502812970942E-17	-0.313806877106235	-0.937631417661486	-0.313806877106235	-0.937631417661486	1.05212081193082E-17	2.68796807712881E-18
54.9	-2.28092260347911E-18	-1.91459390961734E-18	-0.44608945841079	-0.853372769427641	-0.44608945841079	-0.85337276942764	2.33448225104092E-19	1.09365358378544E-17
55	8.18596377319716E-19	-6.81429233069146E-18	-0.555639208535895	-0.806744387991086	-0.555639208535895	-0.806744387991086	1.0958052291979E-17	8.63563853431635E-18
55.1	5.98889847601276E-18	-2.08433733282882E-18	-0.68708554741678	-0.709185853023577	-0.687085547416781	-0.709185853023578	3.32759406057593E-18	1.79762237978686E-18
55.2	-1.03095948883629E-17	1.2471823937035E-17	-0.758737306137872	-0.597583089198133	-0.758737306137873	-0.597583089198133	-8.62372557977771E-18	-1.25030294627712E-18
55.3	-2.18849943934381E-18	-3.24194156584201E-18	-0.860404020087475	-0.457276503482881	-0.860404020087476	-0.457276503482881	6.36440341454238E-18	-5.28988125458529E-18
55.4	-2.38939517644669E-17	-1.25814200662804E-17	-0.91070165923407	-0.367562521637063	-0.91070165923407	-0.367562521637062	-9.87158069430791E-18	-2.23024528208863E-17
55.5	6.77500194835387E-19	-1.58527365936769E-18	-0.976640549196462	-0.199946783042059	-0.976640549196461	-0.199946783042058	-5.7958605737225E-18	4.78793504037902E-18
55.6	1.4728033882516E-17	1.365883507192E-17	-0.967424285452394	-0.0692151939608865	-0.967424285452393	-0.0692151939608863	-6.49386500567888E-18	3.36875981729055E-17
55.7	1.66052930281373E-18	1.53432432485313E-17	-0.991754441687557	0.0673324589536472	-0.991754441687556	0.0673324589536472	1.31254498110041E-18	3.28089840004229E-18
55.8	-4.20325841649197E-18	-1.02459403681986E-17	-0.962832972869122	0.228526339412136	-0.962832972869122	0.228526339412136	-4.55272822482672E-18	2.2901752864445E-18
55.9	1.92388898562608E-17	-1.16192974968487E-17	-0.923535000816299	0.354653714357056	-0.923535000816299	0.354653714357056	1.13524446191351E-17	-1.02272914630366E-17
56	2.12203982055967E-17	-1.24897503993315E-18	-0.835746434780944	0.491282873818866	-0.835746434780943	0.491282873818865	1.74169900200624E-17	2.23159881079259E-18
56.1	8.01804432546492E-18	-6.60683573610869E-18	-0.788621916480718	0.599469218534943	-0.788621916480718	0.599469218534943	2.13225594538448E-17	5.92112362851742E-18
56.2	-7.65381546388484E-18	5.50018143952087E-18	-0.696181082067323	0.721063875037636	-0.696181082067323	0.721063875037635	-4.93774253070474E-17	-1.57034111674236E-17
56.3	-1.44227471277113E-17	1.84557162218013E-18	-0.532005399671771	0.814254774775198	-0.532005399671771	0.814254774775198	-1.31832424478495E-18	-3.00584513452473E-18
56.4	-2.97181469602093E-18	4.07184978001209E-18	-0.468664436930502	0.879452831883782	-0.468664436930502	0.879452831883782	2.01080651156281E-17	1.13959064682934E-17
56.5	-1.04567666163722E-17	-1.55573111283399E-17	-0.318801864239047	0.958266205498773	-0.318801864239047	0.958266205498772	-1.38406225625421E-17	-3.46613854121316E-17
56.6	2.14269295317558E-17	-1.59244504957857E-17	-0.166525068603113	0.959569614921376	-0.166525068603112	0.959569614921376	6.65269489306581E-18	-1.85901970360756E-17
56.7	-1.10025935085303E-17	-7.88659453440058E-19	-0.0353803228053595	0.988448653838462	-0.0353803228053597	0.988448653838461	-1.35416535489604E-17	-9.70657788849302E-19
56.8	-1.32279641137238E-18	1.27186596537071E-17	0.0877678550862831	1.00241224735437	0.0877678550862834	1.00241224735437	5.85042023042301E-18	3.82068962450035E-17
56.9	-2.84390583441289E-18	-2.13138281861625E-17	0.239219682836319	0.953918792475241	0.239219682836319	0.95391879247524	-6.54205441856954E-18	-1.93345420849344E-17
57	1.553673986283E-18	-6.66805626548345E-18	0.398185755675055	0.877562190043782	0.398185755675055	0.877562190043782	-2.78845634991932E-17	-7.27558950801247E-18
57.1	5.8703291874679E-18	3.15762887627334E-18	0.50277453930208	0.841334961087618	0.502774539302081	0.841334961087619	2.39046808545894E-17	-5.14766125316138E-17
57.2	-1.02880542539945E-17	-6.01670941041711E-18	0.6242016460878	0.787792554915033	0.624201646087799	0.787792554915032	-4.42006637684026E-18	-1.18392354479931E-17
57.3	7.83098864318684E-18	-1.55249831589191E-17	0.768126908345163	0.618396723422089	0.768126908345163	0.618396723422089	5.92657367953063E-18	-2.02889514757423E-17
57.4	9.39496184983376E-18	-2.56886345029071E-19	0.776262196317042	0.536054932633646	0.776262196317042	0.536054932633646	1.30158940601893E-17	-5.2804071072372E-17
57.5	-1.84954735671745E-18	1.03376278836124E-17	0.902111593669332	0.437820419852356	0.902111593669332	0.437820419852356	-3.90500147973862E-18	1.19564335132422E-17
57.6	1.12613312737985E-17	-1.12541839254211E-17	0.957897660110237	0.279105395017068	0.957897660110237	0.279105395017068	-2.25369572443517E-18	6.75393982492812E-18
57.7	5.12813560205954E-18	-3.41053057585397E-18	0.943531583597718	0.13737763408367	0.943531583597718	0.13737763408367	9.99371194405566E-18	-2.25304108605855E-17
57.8	-3.49739743707642E-17	-6.89690927506009E-18	0.98969766029298	0.025301963421467	0.98969766029298	0.0253019634214669	-8.66402700135498E-18	2.96171004194183E-18
57.9	-9.00585653379199E-18	3.75026060778993E-19	0.995734094921904	-0.0993266011769378	0.995734094921904	-0.0993266011769381	-5.86773095055166E-18	6.05536411870579E-18
58	-6.09523101896885E-18	-2.02327370191189E-17	0.932518767189285	-0.30061711514972	0.932518767189285	-0.30061711514972	2.493972941991E-19	2.31567056588047E-17
58.1	1.5763608674532E-17	-3.24429601463324E-18	0.866480915776685	-0.375383650398479	0.866480915776685	-0.375383650398479	-7.3351324999098E-18	-6.87678369235287E-18
58.2	2.2732632164044E-18	-4.56744706206866E-18	0.841772665016803	-0.521311370422798	0.841772665016802	-0.521311370422798	-1.85667263197409E-17	3.63501378951823E-17
58.3	-8.75568241648304E-18	-1.1525321432792E-18	0.740349765752415	-0.649282208184669	0.740349765752415	-0.649282208184669	1.56240858692018E-17	3.75328338621627E-18
58.4	-2.679651329022E-17	4.79903965051339E-18	0.635951237125842	-0.679751370971361	0.635951237125841	-0.67975137097136	-2.7696504740684E-17	1.38978250111193E-17
58.5	2.09781242267561E-17	-2.39726743349369E-17	0.577568315903736	-0.816538080813451	0.577568315903736	-0.816538080813451	-1.18400094642992E-17	-2.25921712266986E-18
58.6	2.16083605897112E-17	1.88553731007437E-17	0.422192998277525	-0.882848800628737	0.422192998277525	-0.882848800628737	1.32237215243754E-17	-2.12740395011042E-18
58.7	5.36559140684521E-18	-7.57845068741663E-18	0.286372173148971	-0.900067915389997	0.286372173148971	-0.900067915389998	-2.6827957034226E-18	3.78922534370832E-18
58.8	-7.74777037252475E-18	2.14857921037213E-18	0.178513650421442	-0.946097986450298	0.178513650421442	-0.946097986450299	7.37340218131259E-18	-2.29506915313299E-18
58.9	-8.83930793385265E-18	-9.60073262301186E-18	0.0646925086442572	-0.97929888538693	0.0646925086442568	-0.979298885386929	4.80036631150593E-18	-4.41965396692633E-18
59	5.50879207204265E-18	2.3674721183654E-18	-0.113788913543697	-0.953294565308178	-0.113788913543697	-0.953294565308178	2.96429052954276E-17	-3.27164051795034E-18
59.1	-1.43901890165762E-18	1.55925216106606E-18	-0.210320112851671	-0.929670718665694	-0.210320112851671	-0.929670718665693	-1.44661200780172E-17	7.87213739401003E-19
59.2	-9.5965180346366E-18	-5.52529156050326E-18	-0.337454809253074	-0.929730413908575	-0.337454809253074	-0.929730413908575	-4.31002788584514E-18	-3.17083748917802E-18
59.3	4.63222555500415E-18	-9.14331643028996E-18	-0.492366800536156	-0.819029624937087	-0.492366800536156	-0.819029624937087	-4.25234448013492E-18	-7.19160243336548E-18
59.4	4.74330234578185E-18	2.08343429155891E-17	-0.563265116260331	-0.775927189671511	-0.563265116260331	-0.775927189671511	-3.06686980459235E-18	-6.03111753182559E-18
59.5	1.62962959432568E-18	-1.46937503722269E-18	-0.695025718289124	-0.684744472940153	-0.695025718289124	-0.684744472940153	-8.29272210846542E-18	-2.35370105028229E-18
59.6	-4.8604256159703E-18	3.15874390806069E-19	-0.769692399110992	-0.561736460433592	-0.769692399110992	-0.561736460433591	-4.74034869088805E-18	6.90890627533032E-19
59.7	4.3446391498513E-18	1.66267695932424E-17	-0.849246954650836	-0.477126746915681	-0.849246954650837	-0.477126746915681	1.75726810186777E-18	-1.07026032429174E-18
59.8	1.39942565638364E-17	-3.15676962987027E-18	-0.916123681122884	-0.349380483200795	-0.916123681122883	-0.349380483200794	-1.244171219301E-18	-1.11048578104735E-18
59.9	-3.97082663845802E-18	2.87569634745212E-17	-0.94188863852286	-0.231086807217349	-0.94188863852286	-0.231086807217349	2.66874974683374E-18	1.42776590635325E-17
60	-2.31636296339503E-18	-6.09491856522527E-18	-0.96267942192083	-0.0752208072397063	-0.96267942192083	-0.0752208072397068	2.41435586894919E-18	-4.94175330356537E-18
60.1	1.91502872200084E-17	9.38851905701498E-18	-0.954640083617304	0.0434507170856557	-0.954640083617304	0.0434507170856557	6.16666319631681E-18	-2.15329159705793E-18
60.2	9.58279834907213E-18	3.86582919586472E-18	-0.967167215730856	0.154318696267728	-0.967167215730857	0.154318696267728	-8.72544425211777E-18	8.1099541647509E-18
60.3	5.25274005268508E-18	-1.6856175042315E-17	-0.914375081724191	0.323813323638595	-0.914375081724192	0.323813323638595	-3.29179969787867E-18	3.71601077400172E-18
60.4	-7.86066362785295E-18	7.51726675366907E-18	-0.855867760349587	0.397609925167812	-0.855867760349587	0.397609925167812	-1.0203123012353E-17	2.50780784186184E-18
60.5	-1.76873575925782E-17	2.1196379063142E-17	-0.810092908227828	0.541395717649422	-0.810092908227828	0.541395717649422	-7.19117896250192E-18	1.30647467992631E-17
60.6	1.74486828231085E-19	-1.46375173882964E-17	-0.723126561845432	0.639507894311106	-0.723126561845432	0.639507894311106	-7.21993004267032E-18	-8.89457863301134E-19
60.7	3.70921437304024E-18	2.68087280277463E-18	-0.626321587808075	0.735172340447787	-0.626321587808076	0.735172340447788	-3.23181021677138E-18	-4.80631774149998E-18
60.8	-1.36912671836993E-17	-2.73204870821202E-18	-0.524636279173665	0.819443270440986	-0.524636279173665	0.819443270440986	-1.6054954341887E-17	-6.38959908375404E-18
60.9	3.39690524602511E-18	4.81151588554862E-18	-0.417953208347831	0.880922918628543	-0.417953208347831	0.880922918628543	-4.95027442905737E-18	2.00120674271242E-17
61	1.38675932878939E-17	2.82358239844074E-18	-0.281085736353276	0.930468769244081	-0.281085736353276	0.930468769244081	5.88699950484942E-18	-1.77351906214243E-17
61.1	3.07579351426422E-17	-7.21461422743144E-18	-0.151198138911514	0.944238275137506	-0.151198138911514	0.944238275137506	1.87323245793029E-18	-1.88900450785354E-18
61.2	1.14489431214368E-17	-1.69259607134883E-18	-0.0391699531527875	0.962737732265272	-0.0391699531527877	0.962737732265272	-6.71761334416592E-19	-1.67060817916991E-18
61.3	-1.94240222435414E-17	1.36706904703124E-17	0.0964361045782573	0.976700125309291	0.0964361045782574	0.976700125309292	-1.79578068982051E-17	-7.81347251089277E-18
61.4	8.07920885388644E-19	3.29147173193722E-18	0.257710654381973	0.931136044528226	0.257710654381973	0.931136044528226	-7.87976554334581E-18	2.39855597917294E-19
61.5	3.98496570830374E-18	-9.62490339536439E-18	0.33091471947421	0.886389680514321	0.33091471947421	0.886389680514321	1.2337799013466E-17	-7.10617392139164E-18
61.6	5.66985170421151E-19	-1.37519306110719E-17	0.480142000159464	0.868088688029817	0.480142000159464	0.868088688029817	-1.22491854268381E-17	-6.17409644463108E-18
61.7	-7.8990896794942E-18	-1.58257530688008E-17	0.598503364999167	0.775222871806737	0.598503364999167	0.775222871806737	-1.9437308659395E-17	-7.8799235448611E-18
61.8	-3.17347191322056E-17	3.9118432268798E-18	0.674451446060474	0.677684709631613	0.674451446060474	0.677684709631614	-1.42832542699166E-17	2.31039143367827E-18
61.9	7.09810060738562E-18	-4.32971820032097E-18	0.767833144141053	0.578538484429689	0.767833144141053	0.57853848442969	1.73431607820312E-17	-5.96536186737989E-19
62	-2.45273171419197E-17	-1.73956901811132E-17	0.8368186396769	0.495011922158098	0.8368186396769	0.495011922158097	-2.23752969915578E-17	-9.2227351183338E-18
