# GHZ S RI R 50
50	1.47749536039461E-18	8.69502852815212E-18	0.81113248107075	-0.574199231539891	0.81113248107075	-0.574199231539891	9.50734064858859E-18	1.53353930691926E-18
50.1	2.22444592083667E-17	6.29762046003486E-18	0.681708277438687	-0.68832886183025	0.681708277438687	-0.68832886183025	-1.0534805555207E-17	4.98628013619827E-18
50.2	7.42278785335873E-18	2.16847559196024E-17	0.571837365056929	-0.785238953267508	0.571837365056929	-0.785238953267508	-1.10548797729049E-17	-7.61433529670345E-18
50.3	-7.29551257903723E-18	1.01322518377848E-17	0.445703281263042	-0.895294543873472	0.445703281263042	-0.895294543873472	-1.76590653332703E-17	1.11659630023537E-17
50.4	-1.80437020808727E-17	-4.17484877636506E-19	0.248216108489532	-0.921969327863784	0.248216108489532	-0.921969327863784	-5.82418037026383E-18	-8.86690075448883E-18
50.5	2.32759144778689E-18	-1.15892335935326E-17	0.132384192565635	-0.976447723244997	0.132384192565635	-0.976447723244998	8.65151366969707E-18	-2.85254034724405E-18
50.6	-7.54764437818865E-18	-9.18502397214112E-18	-0.0486502687252064	-0.973648907347982	-0.0486502687252063	-0.973648907347983	-3.93816392718216E-18	-6.23291047348597E-18
50.7	-1.81550773366726E-17	4.02704663966936E-17	-0.192447706105213	-0.947435746238773	-0.192447706105213	-0.947435746238773	2.07492465813252E-18	1.3208382883111E-17
50.8	6.02400781800354E-18	-1.37806580538799E-17	-0.363239734686431	-0.927860391956298	-0.363239734686431	-0.927860391956298	-1.22779408421545E-17	-1.32781093795723E-17
50.9	-5.0393869791065E-18	2.71517305666042E-18	-0.492758023723761	-0.819999114956953	-0.492758023723761	-0.819999114956953	4.11704175882921E-18	5.78460350402947E-18
51	-3.05654730442515E-18	2.88552333334462E-17	-0.636607878750075	-0.750189669406668	-0.636607878750075	-0.750189669406668	2.07028570412379E-17	-1.69184204672456E-18
51.1	4.76705761021433E-18	-1.62864656026037E-18	-0.745241955285141	-0.632008799482961	-0.745241955285141	-0.632008799482961	-1.30728615012092E-17	2.16424724382612E-18
51.2	-1.72530010932983E-17	9.24016526514935E-18	-0.831886403497169	-0.49814884319561	-0.831886403497169	-0.498148843195611	-6.52101413652854E-18	1.64230499727492E-18
51.3	-2.53293045050586E-17	-1.24692806494503E-17	-0.906528667363587	-0.358829702712175	-0.906528667363587	-0.358829702712175	-1.0549238212786E-18	3.53302415591905E-18
51.4	-7.22923991220357E-18	1.84352806290584E-17	-0.968189613421716	-0.22692594206021	-0.968189613421717	-0.226925942060211	2.95094666493844E-18	8.16576846049018E-18
51.5	1.00010225145598E-17	3.38666091881055E-17	-0.959312051907415	-0.0342113071098203	-0.959312051907415	-0.0342113071098205	3.14325465555719E-17	8.65489896154243E-18
51.6	-1.41731344825836E-17	-1.30369800743679E-17	-0.974322553799904	0.0875913018931431	-0.974322553799904	0.0875913018931432	-1.25828937098874E-17	-1.93702498988109E-18
51.7	-2.5636983828575E-18	-7.37795473872292E-18	-0.962623026649507	0.245581439194854	-0.962623026649507	0.245581439194854	-6.75429114020883E-18	-3.33726999288592E-17
51.8	-2.10786931254512E-18	7.20856971846255E-18	-0.85070070189018	0.394322627465758	-0.850700701890181	0.394322627465758	7.14321544002014E-18	-1.94471275206908E-18
51.9	1.73900026179995E-17	-7.58308965936305E-18	-0.851406214945528	0.526349319764618	-0.851406214945528	0.526349319764617	4.12013777341895E-17	1.86444578231997E-17
52	-5.92270105307635E-18	-1.23142285777193E-17	-0.694730834172514	0.666378813462419	-0.694730834172514	0.666378813462419	-2.85935116381007E-17	-8.83440177882603E-18
52.1	-2.61942098008394E-17	-1.7121195536543E-17	-0.588294432065984	0.75130220089675	-0.588294432065984	0.751302200896751	7.91487044204071E-18	1.22812815523988E-17
52.2	-1.61045708952971E-17	-6.90038760523388E-18	-0.490160492505778	0.838822191917158	-0.490160492505778	0.838822191917158	-2.33050126081602E-17	2.53483947514024E-17
52.3	3.6754600809273E-18	-2.75098618965808E-18	-0.355688994395754	0.905720334190703	-0.355688994395754	0.905720334190703	-1.20357658393899E-18	-1.11769883234829E-18
52.4	1.25217489345835E-17	-2.12104198888462E-17	-0.194843022009349	0.982870791987067	-0.194843022009349	0.982870791987068	-3.27611584883019E-17	-2.10569885099728E-17
52.5	-3.35860613215337E-17	9.07682633516209E-18	-0.0614054960570725	0.92558141821167	-0.0614054960570724	0.92558141821167	-3.54124465719895E-17	-1.67665047135406E-17
52.6	1.28610414370921E-17	-3.60421867430379E-17	0.0753753395775241	0.995179220914183	0.075375339577524	0.995179220914183	-3.46510380633961E-17	-2.09382383255163E-17
52.7	-9.23842733757352E-18	5.12651669161401E-18	0.29229897017361	0.962368905437597	0.292298970173611	0.962368905437597	-9.69327331331981E-18	2.33787092761027E-17
52.8	-1.81482457442639E-17	7.18379192626161E-18	0.327481099499676	0.794642765378278	0.327481099499675	0.794642765378279	2.80796602949782E-17	2.81922349392537E-18
52.9	-2.53659925944246E-17	-3.18437887368045E-17	0.605627064710354	0.893082086603879	0.605627064710354	0.893082086603879	4.64987856709108E-17	-7.57165674892076E-18
53	1.2363096800655E-18	1.78742928496671E-17	0.619490635905856	0.682073589233997	0.619490635905855	0.682073589233997	1.17983495094984E-17	3.10990027020084E-17
53.1	-1.85394796835994E-17	-4.67150414062E-19	0.737117605038154	0.645342315280966	0.737117605038154	0.645342315280965	-1.01224477449417E-17	-3.29827146756677E-19
53.2	8.78427047465061E-18	1.15671389324041E-17	0.882941599763483	0.508856723668619	0.882941599763483	0.50885672366862	-2.99517318593473E-17	-1.38452445073442E-18
53.3	-7.68576636124024E-18	-9.06688647386059E-18	0.894579872942223	0.377588469172294	0.894579872942223	0.377588469172294	-1.88746959086143E-17	2.75062373895937E-17
53.4	2.06927430842657E-18	-1.41263886934487E-17	0.929208603950344	0.171064710419115	0.929208603950344	0.171064710419114	-6.98658211888582E-17	-6.8885829327711E-17
53.5	1.29231650007542E-17	1.31798779907163E-17	0.99677362668246	0.123570845835077	0.99677362668246	0.123570845835077	2.61276391927014E-17	-1.41744375760641E-17
53.6	-2.56789470488621E-17	1.17476510318339E-17	0.989285632770516	-0.0913116842132484	0.989285632770516	-0.0913116842132485	2.01640803867811E-17	2.41119134401508E-17
53.7	1.49715300136299E-18	-7.93409695106971E-18	0.893696084458103	-0.25203539770706	0.893696084458103	-0.25203539770706	-1.54978069082423E-17	-4.53689620651525E-18
53.8	1.20149944341143E-17	3.58122031516235E-18	0.994933858991115	-0.324221317125697	0.994933858991115	-0.324221317125697	-3.49177722971877E-17	-2.74967826535222E-18
53.9	1.91841883008659E-19	6.78847331306826E-18	0.845272502920031	-0.506625445548446	0.845272502920032	-0.506625445548446	-9.3182607137447E-18	3.1376736243101E-18
54	6.01176580303484E-19	-1.12902961355487E-18	0.737637936354098	-0.623362322258147	0.737637936354098	-0.623362322258147	-7.03223066363834E-18	-6.93257184406648E-18
54.1	1.93997221617142E-17	4.50945800272078E-18	0.658652801052945	-0.696191889322221	0.658652801052945	-0.696191889322221	1.32594658697641E-17	-1.98849728716882E-17
54.2	-1.68736009710163E-18	1.20943887283607E-17	0.557591304639419	-0.801646828597658	0.557591304639419	-0.801646828597658	2.90167799136518E-17	6.87623985266926E-18
54.3	-1.90492109123274E-17	-1.49243347465532E-17	0.380903446158627	-0.89886398448708	0.380903446158627	-0.898863984487079	-1.01728523540271E-17	1.444963305962E-17
54.4	-2.17220098077109E-18	-6.7932581241056E-18	0.321318989785976	-0.876563573568541	0.321318989785977	-0.876563573568541	-5.75722683843339E-18	-3.06344189099076E-17
54.5	-6.71109217719538E-18	-3.39429989166702E-18	0.114238731545803	-1.0190325268265	0.114238731545804	-1.0190325268265	-4.13925361473027E-17	9.30579004856228E-18
54.6	8.99014724464061E-18	-6.79003434575095E-18	-0.027928322096832	-0.948603376562726	-0.0279283220968316	-0.948603376562726	-6.88195005913447E-18	-1.05497822610031E-17
54.7	-3.93753801713388E-18	-7.89402034042073E-18	-0.144348080217262	-0.990451601346978	-0.144348080217262	-0.990451601346978	-1.03304300302563E-17	4.88977823506335E-18
54.8	-6.60073933185934E-18	-5.91940747094809E-18	-0.316060943864478	-0.949976823737898	-0.316060943864478	-0.949976823737898	-1.1819109302942E-17	-4.18651936023863E-18
54.9	5.47543925962053E-18	-1.3753753525926E-17	-0.450361110691009	-0.865130145526175	-0.450361110691009	-0.865130145526174	3.31277997284779E-18	-4.7311925429826E-18
55	-2.45739292506017E-18	1.82607041435603E-17	-0.561467843272326	-0.8178104565824	-0.561467843272326	-0.8178104565824	-6.37232313114961E-18	-2.45336947886807E-18
55.1	9.30672190447171E-18	6.88820259976944E-18	-0.694680046580612	-0.719334663937163	-0.694680046580612	-0.719334663937163	-3.62855491740406E-19	1.04022506827225E-17
55.2	-6.61421143209677E-18	-2.69119380543084E-18	-0.76771758357564	-0.606336972816626	-0.767717583575639	-0.606336972816625	1.72952485121003E-18	-1.06517417734367E-17
55.3	-3.49343488033981E-18	8.44663546456764E-18	-0.870868582095407	-0.464605175498616	-0.870868582095406	-0.464605175498615	1.24266589128701E-17	1.84236801893054E-18
55.4	1.2287805437104E-17	9.51643736384029E-18	-0.921938923284039	-0.373391959786962	-0.921938923284039	-0.373391959786962	-6.33524844162696E-18	-1.68929475405642E-17
55.5	1.15221180630847E-17	-1.33316669261365E-17	-0.9889330711171	-0.203990117459063	-0.988933071117099	-0.203990117459063	3.37760655811916E-17	-6.87253708289356E-18
55.6	3.69369710596878E-18	2.23290570674437E-18	-0.980022027491189	-0.0712809550038448	-0.980022027491189	-0.0712809550038446	1.6088162701418E-17	5.73822676966874E-18
55.7	1.15895827289661E-18	-4.59146677986612E-18	-1.00465649164744	0.0670371866857958	-1.00465649164744	0.0670371866857961	7.6892527073001E-18	6.0670310878555E-18
55.8	1.94905513005473E-18	5.84807947065567E-18	-0.975722557642188	0.230312699220595	-0.975722557642188	0.230312699220595	-1.24762745967986E-17	1.20852569845389E-17
55.9	-4.87396297411328E-18	1.02240713044614E-17	-0.936013589239095	0.358293160914446	-0.936013589239095	0.358293160914446	5.58932855778406E-18	-1.20361777765183E-17
56	1.20031929896146E-18	6.42722279976602E-18	-0.847476431730712	0.496941813593205	-0.847476431730712	0.496941813593205	1.97604988078941E-17	2.64044273455191E-17
56.1	-1.53165356586579E-17	-1.33546088201909E-17	-0.799536678869759	0.606638520190887	-0.79953667886976	0.606638520190888	-5.39129662043646E-18	-1.96510977529088E-17
56.2	3.63505947547365E-18	1.66895261589702E-18	-0.706015051607852	0.729874513097409	-0.706015051607851	0.729874513097408	-2.94989361705863E-17	9.80609004142762E-19
56.3	-2.07378085769281E-17	-1.48717240958933E-17	-0.540175688870623	0.824737692984583	-0.540175688870623	0.824737692984583	-1.11765507515124E-17	-1.72002569477758E-17
56.4	1.57379826014091E-18	-9.56875738913218E-18	-0.475497302069725	0.890759753816797	-0.475497302069725	0.890759753816797	8.70804073702746E-18	-5.69204420949813E-17
56.5	-2.17063669604783E-18	-1.52603343721322E-17	-0.323893394121364	0.970702231394355	-0.323893394121364	0.970702231394354	-6.73396991685419E-18	2.10679131657007E-17
56.6	1.25298607979903E-17	-9.86790914888557E-18	-0.169493895716253	0.972540814794902	-0.169493895716253	0.972540814794903	-1.20307396861949E-17	-1.151083566831E-17
56.7	-1.10665839982423E-17	7.93183670244741E-18	-0.036515368705394	1.00180170878168	-0.0365153687053938	1.00180170878168	3.47733401644888E-18	2.53832779558266E-19
56.8	-1.85449784900455E-17	-1.3247573548456E-18	0.0884310507978051	1.01584889781149	0.0884310507978051	1.01584889781149	-1.06748390517843E-18	-3.47524365558563E-18
56.9	1.33914631076553E-17	1.04377155445395E-17	0.242042149878358	0.96705365479223	0.242042149878358	0.96705365479223	6.84302902568706E-18	-3.65438532018895E-18
57	3.34252316511707E-18	6.23750597914568E-18	0.403233035004176	0.89012397162972	0.403233035004176	0.89012397162972	2.30265632419989E-17	2.90138448346687E-17
57.1	4.17950660516351E-18	-1.13669632613174E-17	0.509400462902656	0.853138915140837	0.509400462902656	0.853138915140837	1.17184302275693E-17	-7.30461231157121E-18
57.2	1.39696831780264E-17	-4.08983827509961E-19	0.632435494915075	0.798714711185969	0.632435494915076	0.798714711185969	-5.46020010378862E-18	-1.60843928658985E-17
57.3	2.01219021565317E-17	2.73962041499483E-18	0.778466914096351	0.62780839723911	0.778466914096351	0.62780839723911	1.84804420724122E-17	-2.53090653241454E-17
57.4	1.04650207182431E-18	-2.07754561226154E-17	0.787334859990431	0.543696653053022	0.787334859990431	0.543696653053022	-1.03903089318572E-17	-3.63979130730181E-17
57.5	2.02492485085361E-17	1.48674089340289E-17	0.914484710270871	0.444158220422651	0.914484710270871	0.444158220422651	2.69518322597038E-17	2.55632228589536E-17
57.6	1.17188734173072E-17	-5.16176478522091E-18	0.971249218862736	0.283443493703501	0.971249218862737	0.283443493703501	-4.90431783628901E-18	1.08384234683056E-18
57.7	-9.27642328930029E-18	-1.29236781677912E-17	0.95718214519323	0.139492531072554	0.95718214519323	0.139492531072554	-1.21473965515274E-17	-1.03915377236333E-17
57.8	-7.38820400497878E-18	7.50027581247724E-18	1.00366600990875	0.0257137995160494	1.00366600990875	0.0257137995160494	-9.06751519540335E-18	-1.09703813601407E-17
57.9	-2.72566865183354E-18	-6.73835806037334E-18	1.00966947578786	-0.100811314265755	1.00966947578786	-0.100811314265755	2.01565966954923E-18	9.59961161402096E-19
58	-9.00219573361983E-18	-8.30648370228377E-18	0.946190522778499	-0.304671991936376	0.946190522778498	-0.304671991936376	-3.00049309696466E-18	-4.17609427624829E-18
58.1	2.45140702209515E-17	8.7734011693761E-18	0.879113691158313	-0.381149893708797	0.879113691158312	-0.381149893708797	1.93559854818002E-17	5.0340710637115E-18
58.2	-7.01513963034596E-18	1.41003434493034E-17	0.853836080750855	-0.528874255828677	0.853836080750855	-0.528874255828677	-2.06420653193442E-17	4.83651997591342E-17
58.3	-1.18602941661418E-17	7.1705077335058E-18	0.751177864206658	-0.658725294316773	0.751177864206658	-0.658725294316773	-1.79885795607353E-17	5.70128240393884E-17
58.4	1.31975183207459E-17	1.15175887694119E-17	0.644974569113272	-0.690302857892116	0.644974569113272	-0.690302857892116	0	0
58.5	1.4269842191536E-17	8.20556307641998E-18	0.585529754827549	-0.82848373438728	0.58552975482755	-0.828483734387281	9.08303796908873E-18	-2.78389305848981E-17
58.6	1.21022332345156E-17	1.77099225572947E-17	0.428117434773796	-0.89597705303238	0.428117434773796	-0.895977053032379	1.12588000087329E-17	8.49728911844749E-18
58.7	3.51339732467857E-17	1.38813138952588E-18	0.290150416528826	-0.913785556515583	0.290150416528826	-0.913785556515583	5.4418867288343E-18	-4.94119499864854E-18
58.8	9.17907845139729E-18	-5.3101912308864E-18	0.180493412287989	-0.960269154143665	0.180493412287989	-0.960269154143665	8.66841935530683E-18	-1.08415022279651E-17
58.9	9.56320813709848E-18	6.4578013976044E-18	0.0648264389691912	-0.993691245609773	0.0648264389691916	-0.993691245609773	-6.8224580458137E-18	-8.93971908829419E-19
59	4.7257449301642E-18	-4.96617036161943E-18	-0.116116484725636	-0.967618773535276	-0.116116484725636	-0.967618773535277	-8.02481489011432E-18	5.34559809899372E-18
59.1	5.20392365675046E-18	1.46116769146432E-17	-0.214445004539648	-0.943415412847452	-0.214445004539648	-0.943415412847451	1.91895310165336E-18	2.6540280188122E-17
59.2	6.41847922390311E-18	1.17221825684232E-17	-0.343364576236034	-0.943057759935906	-0.343364576236035	-0.943057759935907	-6.55507608157329E-18	8.49718054491121E-18
59.3	-6.19192254994476E-18	1.21398594630047E-17	-0.500580967445808	-0.831168474888041	-0.500580967445808	-0.831168474888041	1.40072390006179E-17	-5.52228627011677E-18
59.4	5.28668694684625E-19	1.13945444487568E-17	-0.572751534147445	-0.786874385973318	-0.572751534147446	-0.786874385973319	-6.5798247258575E-18	-9.03212657592917E-18
59.5	8.51760009777553E-18	4.93410709349751E-19	-0.706248743050355	-0.694346102115055	-0.706248743050355	-0.694346102115055	3.36655317428947E-18	-2.18452722877569E-18
59.6	6.55588303750975E-18	-8.36171032593837E-19	-0.782204916239573	-0.569471861972127	-0.782204916239573	-0.569471861972127	4.93473959131202E-18	-5.85886160440844E-18
59.7	2.22441815431877E-18	1.25620518364977E-17	-0.862731701859367	-0.48325913971498	-0.862731701859366	-0.48325913971498	3.38136248145598E-18	3.89645708690426E-18
59.8	-2.48392472989984E-17	-8.26822445496783E-18	-0.930482158954479	-0.353546318961392	-0.930482158954479	-0.353546318961392	6.13793792541204E-18	8.53843308527064E-19
59.9	2.71551766952372E-18	-8.89260431430917E-18	-0.956601993279323	-0.233209568754359	-0.956601993279322	-0.233209568754359	-3.6764740801394E-18	7.09211888052031E-18
60	1.64902744330171E-17	-8.42312368573967E-18	-0.977680734620274	-0.0750568448149417	-0.977680734620273	-0.0750568448149417	-7.55148399992937E-18	1.06475786590742E-17
60.1	-2.683793330178E-17	2.53461598973418E-18	-0.969393310240128	0.0456738852306072	-0.969393310240128	0.045673885230607	-3.58539156320752E-17	-6.04993167914848E-18
60.2	3.3985943937436E-18	-4.73939536495745E-18	-0.981639144167176	0.158362584420573	-0.981639144167176	0.158362584420573	1.40833504523611E-17	9.7887577690641E-18
60.3	-2.85225207851801E-18	4.49566287969711E-18	-0.928162495123995	0.330249728386075	-0.928162495123996	0.330249728386075	-1.25922160928599E-17	-2.6116696642275E-17
60.4	-6.55210951327481E-18	-1.32764894982851E-18	-0.868421390483313	0.405607605495974	-0.868421390483314	0.405607605495974	-7.34583017804034E-18	8.62093177881905E-20
60.5	-6.32050672558388E-19	-1.86140206908487E-17	-0.821683352110869	0.551285045838951	-0.821683352110869	0.551285045838951	-1.73559006056408E-18	4.79529004659379E-18
60.6	5.06611062834517E-18	-2.35448904680974E-19	-0.733179132276584	0.650930880723423	-0.733179132276584	0.650930880723423	-1.39753375192982E-18	-9.4030673249473E-18
60.7	4.93274303760105E-18	4.26189750784818E-18	-0.634691493425234	0.747970560411335	-0.634691493425234	0.747970560411335	3.99141572822863E-19	7.54758807872482E-18
60.8	1.86386637496275E-17	-1.26514542881328E-17	-0.531208469540511	0.833365019915351	-0.531208469540511	0.833365019915351	2.20276903380631E-17	5.16095602875557E-18
60.9	1.2872598644428E-17	3.58569927623678E-18	-0.422595715001787	0.89562592022376	-0.422595715001787	0.89562592022376	1.27818023623473E-17	-2.59583787637638E-17
61	7.52651173993541E-18	3.94578178623419E-18	-0.283536724950636	0.945784269022683	-0.283536724950636	0.945784269022683	-3.61175774844129E-18	-6.42976135514979E-18
61.1	-6.3575518980065E-18	-1.62721309689391E-18	-0.151422785511569	0.959679106275435	-0.151422785511568	0.959679106275436	1.10765493258651E-17	8.31752745653386E-18
61.2	-1.27496585530924E-17	-7.64390540266738E-18	-0.0373974942647285	0.978103737666877	-0.0373974942647287	0.978103737666877	-3.18373355753057E-18	8.92402477101617E-18
61.3	-1.31653434085389E-17	-1.49069021090185E-17	0.100323879861961	0.991879456402494	0.100323879861961	0.991879456402495	-1.28447542257082E-17	-9.03321669667017E-18
61.4	-1.76785260408788E-17	1.5593267234509E-17	0.264013289419183	0.945595966908888	0.264013289419183	0.945595966908888	1.26599798474709E-17	1.04142844673623E-17
61.5	-1.18783051799524E-17	2.53553407773325E-17	0.338787425138304	0.899689381743276	0.338787425138304	0.899689381743276	9.40675210741484E-19	-1.35876191232064E-18
61.6	2.48058589540865E-18	1.60512254766013E-17	0.489973272732154	0.880601130786872	0.489973272732154	0.880601130786872	-1.0115287045141E-17	4.608466016463E-18
61.7	1.30997082838536E-17	4.24283528377388E-18	0.610124963583372	0.786145713608344	0.610124963583372	0.786145713608344	-2.33289773991846E-18	1.60273811643576E-17
61.8	2.12770929914705E-17	-1.61915195403408E-17	0.687362264674393	0.68676654704863	0.687362264674394	0.686766547048631	-3.26597106172579E-18	1.10578425029666E-17
61.9	1.08350226120691E-18	-8.08296318527689E-18	0.782001151013237	0.585782161264118	0.782001151013238	0.585782161264118	2.88334585191092E-18	-1.96114233417052E-17
62	-9.00671716074499E-18	-2.24933799342486E-18	0.851807416891843	0.500450490791803	0.851807416891843	0.500450490791803	-5.67326118664818E-18	2.54159932134655E-19
