# GHZ S RI R 50
50	-2.37455207441099E-17	-1.34881307721628E-17	0.865627061508664	-0.614112868445662	0.865627061508664	-0.614112868445663	2.98567153936022E-18	-2.06035032236454E-18
50.1	1.6632957134132E-17	-1.4266892393536E-17	0.726262686620289	-0.739187055556913	0.726262686620289	-0.739187055556913	7.14884729930156E-18	9.18954967610058E-18
50.2	-3.81504874207291E-18	1.20743379007093E-17	0.605350550051047	-0.840772681381743	0.605350550051047	-0.840772681381743	-5.6105631017004E-18	-1.67752650272612E-17
50.3	3.33971046282758E-17	2.89412616937238E-18	0.471505501081113	-0.953544248333779	0.471505501081112	-0.953544248333779	-1.01778296120669E-18	1.80688696582632E-17
50.4	7.72144895546145E-18	-4.47832589564737E-18	0.259410565792393	-0.988063951959717	0.259410565792394	-0.988063951959717	-3.59828016662648E-18	-9.90125775654826E-19
50.5	-4.33581183563339E-19	-2.07988821528337E-18	0.134708052545045	-1.03793179629324	0.134708052545045	-1.03793179629324	-3.82072027864001E-19	-5.99711947621878E-18
50.6	2.09340670229331E-17	2.33738694577953E-18	-0.058216509290956	-1.03587571496436	-0.0582165092909563	-1.03587571496436	5.17566826962461E-18	1.25703702161845E-17
50.7	4.27366713113045E-18	-8.40223651411736E-18	-0.213021577093211	-1.00448560747556	-0.213021577093212	-1.00448560747556	6.31273358727485E-18	5.20164491373259E-18
50.8	-5.86942067220643E-18	1.3527770528211E-17	-0.39017680439343	-0.981807985343316	-0.39017680439343	-0.981807985343316	7.97442741526113E-18	8.448543754146E-18
50.9	-1.85531164154323E-17	2.47538514150434E-17	-0.532237660915616	-0.865880262843351	-0.532237660915616	-0.865880262843351	-5.84700637490381E-20	1.20210510545767E-17
51	-4.87235894367924E-18	-1.83670927669854E-17	-0.680353671316258	-0.789982211386974	-0.680353671316258	-0.789982211386973	-6.89961426510286E-18	-4.84791425077462E-18
51.1	1.46240129908556E-17	-2.67702254771839E-18	-0.795041290328863	-0.662714757157189	-0.795041290328862	-0.662714757157189	-3.68090600311278E-18	-2.01080178624265E-17
51.2	-1.04650078747479E-17	3.77348554122842E-18	-0.886019060053444	-0.518882308976145	-0.886019060053443	-0.518882308976145	-7.15803699937695E-18	-1.27603376664344E-17
51.3	7.10876168224391E-18	1.13963597455041E-17	-0.96247270874922	-0.370420055381859	-0.96247270874922	-0.370420055381859	4.13120561075717E-18	-8.70010846442714E-18
51.4	-3.12414435109356E-17	-6.40758863418944E-18	-1.02243727115737	-0.230596398746153	-1.02243727115737	-0.230596398746154	-5.27752282532928E-19	2.91410701654838E-18
51.5	-1.11231611223716E-19	1.14399033253132E-17	-1.01641122561565	-0.0248655747735533	-1.01641122561565	-0.0248655747735532	1.89741371253886E-18	1.62510322780845E-17
51.6	-2.00426825463218E-17	-1.42146380191701E-17	-1.02467590971206	0.103645122910409	-1.02467590971206	0.103645122910409	-2.41634859606299E-18	-6.07935768356093E-18
51.7	-8.73977395300652E-18	-4.81159761109514E-18	-1.00932193244641	0.267955133858158	-1.00932193244641	0.267955133858158	-6.38800412136959E-18	8.00626035321955E-18
51.8	2.06084145762818E-18	1.79297665133724E-17	-0.891834952059331	0.430715006304559	-0.89183495205933	0.430715006304559	-5.62958392882182E-18	-3.05390010112327E-17
51.9	3.24070186351335E-17	-1.27082701943222E-17	-0.886009573041964	0.560214890353579	-0.886009573041964	0.560214890353579	1.92951812076844E-17	-3.62073656817914E-17
52	2.39397170314732E-18	1.79201990570499E-17	-0.723620765818453	0.712073539484739	-0.723620765818453	0.712073539484739	7.35573042615018E-18	-1.26223709454845E-17
52.1	-8.61366790142185E-19	3.41644650588423E-18	-0.606962071656545	0.799558658989972	-0.606962071656546	0.799558658989973	-6.22598918994641E-18	-2.79955854010899E-18
52.2	-1.69479346059514E-17	-5.53086018342318E-18	-0.500993076702057	0.885715483236196	-0.500993076702056	0.885715483236196	-5.96477993139821E-19	2.34130529738541E-17
52.3	-2.25005288629001E-18	9.38145464509782E-18	-0.358512513484896	0.952655014564522	-0.358512513484896	0.952655014564523	-1.0478210489759E-17	-4.40693352672463E-18
52.4	-3.72958730333763E-18	-9.3819875057639E-19	-0.193327903781119	1.03079373859836	-0.193327903781119	1.03079373859836	-3.83260363307506E-17	6.69863952736796E-17
52.5	-1.601083025105E-17	2.31089071722243E-17	-0.0437870724993234	0.968541896222222	-0.043787072499323	0.968541896222222	1.52206642064054E-17	4.88608416835105E-17
52.6	1.12727562176313E-17	-2.19444478801824E-17	0.0914982586363247	1.03391944739147	0.0914982586363247	1.03391944739147	-7.29640388286458E-17	-2.59017233094571E-17
52.7	2.27614524763169E-17	-7.68997554927208E-18	0.315891501568056	1.0040857462006	0.315891501568056	1.0040857462006	-1.60576245331862E-17	-2.85226464134308E-18
52.8	2.09033700838152E-18	1.84611183221622E-18	0.368594199466822	0.817292598582903	0.368594199466823	0.817292598582904	-2.99368203570134E-18	2.34013902616977E-17
52.9	-1.77935872185508E-18	-1.95081547559138E-17	0.633566828205277	0.927964523779091	0.633566828205277	0.927964523779091	6.56418991551616E-18	7.26945428580899E-18
53	-3.5112809116141E-17	-5.02014831710669E-18	0.662602263326791	0.697531173748898	0.662602263326792	0.697531173748898	5.14376812677083E-18	-3.75181024476655E-17
53.1	-2.56790576033918E-18	-4.55712565577189E-18	0.774306359338688	0.65645252472863	0.774306359338688	0.65645252472863	1.1869291849503E-18	-1.4693050029783E-17
53.2	1.45333322379411E-18	-8.85426254625627E-18	0.923215459195837	0.519357208545165	0.923215459195837	0.519357208545165	2.13307043991784E-17	-6.12647431343745E-18
53.3	-5.35941577746231E-18	-3.92485606044283E-18	0.933444825779602	0.375346939101859	0.933444825779603	0.375346939101859	9.79717046669027E-18	5.31971921969966E-17
53.4	1.17647401545979E-17	-3.15149444242864E-18	0.973631351920979	0.160258163200694	0.973631351920979	0.160258163200694	-2.66326838595415E-17	-1.6143799348807E-17
53.5	-8.25504064156064E-18	-5.64156740497426E-18	1.02836484035074	0.113056901707533	1.02836484035074	0.113056901707533	3.79642684509516E-17	-8.19407236420955E-18
53.6	2.05775199619777E-17	-6.67582893961E-19	1.02451205499865	-0.10915422165816	1.02451205499865	-0.109154221658161	-1.56349851049612E-17	-6.99086526147707E-18
53.7	-6.5941610313718E-18	-1.12244558502696E-17	0.925285270944659	-0.282974498077624	0.92528527094466	-0.282974498077624	-4.63911453946302E-17	9.34546471382481E-19
53.8	-2.87737299843174E-18	2.81098351343314E-18	1.01655622572348	-0.342171266463905	1.01655622572348	-0.342171266463905	-7.47515583926711E-18	-4.94513985432563E-17
53.9	-1.12949716729778E-17	-5.58750663396079E-18	0.865415725992355	-0.537405456648718	0.865415725992355	-0.537405456648718	6.32326337909227E-18	1.9697652767679E-17
54	-8.73661063022216E-18	1.3258459958457E-17	0.751300621529156	-0.658683084310614	0.751300621529155	-0.658683084310613	-3.66037974390272E-18	1.26384941498467E-18
54.1	-2.71742069015934E-17	1.69924568378278E-17	0.663201581416984	-0.729530864539808	0.663201581416984	-0.729530864539807	-5.7529233392867E-18	1.07126600221726E-17
54.2	-6.53303306830784E-18	-2.84772753501293E-17	0.558325642753097	-0.83375076860736	0.558325642753097	-0.833750768607361	-2.37984253387543E-17	4.13392666989953E-18
54.3	-1.43568001236185E-17	8.79418407214643E-19	0.377965401677504	-0.935866127352783	0.377965401677505	-0.935866127352783	3.19145773584604E-17	2.55861909602635E-18
54.4	1.53588031557853E-17	5.8500275498398E-18	0.306605311296653	-0.901920893077416	0.306605311296654	-0.901920893077416	7.64296460194391E-19	-1.13260039753488E-17
54.5	3.40923199819985E-18	2.66588696241581E-18	0.105449578176254	-1.05099516235958	0.105449578176255	-1.05099516235958	-1.13812211505786E-17	-2.30705031195812E-18
54.6	-4.78646288839124E-18	-6.16891897093117E-18	-0.04944250880809	-0.975589022300322	-0.0494425088080905	-0.975589022300322	-3.76901664855951E-18	1.20298199600733E-17
54.7	-8.35361534186158E-18	8.45417231763375E-19	-0.163012277592031	-1.01163159261934	-0.163012277592031	-1.01163159261934	-3.90353128080491E-18	7.04710740213792E-18
54.8	-1.51476662268718E-17	-4.32966003075105E-18	-0.33884422295667	-0.970007446639251	-0.33884422295667	-0.97000744663925	-3.15881744073651E-18	4.85408164395485E-18
54.9	2.27688813406044E-18	4.86700208602398E-19	-0.47844540385688	-0.879998369517617	-0.47844540385688	-0.879998369517617	5.92566399754369E-18	1.00598519221001E-17
55	-1.06527997004771E-18	5.77422752147741E-18	-0.58773109697892	-0.827003539804407	-0.58773109697892	-0.827003539804407	4.10290555873655E-18	9.93741430960229E-18
55.1	3.63860280079517E-18	1.2982692612172E-19	-0.722588843938487	-0.725793736252933	-0.722588843938486	-0.725793736252933	-7.3144480931E-18	8.15577895245508E-18
55.2	2.40787687936129E-18	3.83035796781904E-18	-0.795464543039739	-0.605373568887007	-0.795464543039739	-0.605373568887007	-6.94841083051817E-18	-8.86950549255985E-18
55.3	-5.5016990645142E-18	4.50958716282054E-18	-0.90033557953767	-0.461080282100502	-0.900335579537671	-0.461080282100503	4.77911527698659E-18	-1.7660740600665E-17
55.4	4.07340661691156E-18	-7.132211453682E-18	-0.945321692444045	-0.365344804349815	-0.945321692444044	-0.365344804349814	1.66006855244055E-17	4.25104227257438E-18
55.5	1.26729361136727E-17	-1.18680225480595E-17	-1.01377975605155	-0.194098908891019	-1.01377975605155	-0.194098908891019	-1.91270448603843E-17	3.08733830756505E-18
55.6	1.22637993014874E-17	1.18669348807806E-17	-1.00033294185721	-0.0551476938868619	-1.00033294185721	-0.0551476938868618	2.84632730589455E-17	1.19067420809076E-17
55.7	-2.25537056597225E-18	3.1402094667643E-18	-1.02161858452532	0.0832135244575182	-1.02161858452532	0.0832135244575182	-1.76201900099578E-17	6.58338464533086E-18
55.8	-1.10457516865555E-17	1.00646460532478E-17	-0.991057707746759	0.249882335803664	-0.991057707746759	0.249882335803664	-3.12959704330114E-18	3.74352159163408E-18
55.9	-1.32788309901166E-17	-4.78048218645601E-18	-0.946544743944714	0.378932790696351	-0.946544743944714	0.378932790696351	-1.0592483568656E-17	-3.72415948477322E-17
56	1.17874375281908E-17	-1.15266332680555E-17	-0.854343585518898	0.521432489495881	-0.854343585518898	0.521432489495881	2.03098497274676E-17	-9.09959795971465E-18
56.1	-7.84055068692185E-18	7.3300872655308E-18	-0.802139027480564	0.627790488237774	-0.802139027480565	0.627790488237774	-5.25860175617753E-18	-8.71841922044673E-18
56.2	-1.3905841355082E-17	-4.69709045587715E-18	-0.706526587988007	0.750687570939318	-0.706526587988006	0.750687570939317	-2.06339368428163E-18	-3.56862265941644E-18
56.3	9.14747157282743E-18	-7.28347863442247E-18	-0.536148749241716	0.850289952211709	-0.536148749241716	0.850289952211709	9.77228318278833E-18	-2.02086360234864E-17
56.4	1.24111693153458E-17	-1.77324197791732E-17	-0.468550064359814	0.908541337025579	-0.468550064359815	0.908541337025579	3.2719005115939E-17	-3.21848134468407E-17
56.5	-5.27430203089991E-19	8.80395374220867E-18	-0.31593808549964	0.988958221686053	-0.31593808549964	0.988958221686053	-1.44292284577518E-17	1.38283956856579E-17
56.6	4.89220719323295E-18	7.50916281869292E-18	-0.155087185758972	0.989125651602257	-0.155087185758971	0.989125651602257	1.51373582337118E-17	-2.43587695191297E-17
56.7	4.2366406077286E-18	5.54874283229569E-18	-0.0216379896800141	1.01492727905094	-0.021637989680014	1.01492727905094	4.44395193167114E-18	2.16616239978468E-17
56.8	4.89999744323144E-18	1.49587194859636E-17	0.102510323863734	1.02455097238345	0.102510323863735	1.02455097238345	2.27449872227328E-17	1.04135024982231E-17
56.9	6.67597209624741E-18	6.31474890145207E-18	0.259820683949189	0.973280432821668	0.259820683949189	0.973280432821667	-2.62099840727012E-17	-3.2072102134303E-18
57	1.53266824490602E-17	-1.88199866652935E-17	0.425348470093581	0.894951129482439	0.42534847009358	0.894951129482438	1.08030566514152E-17	-1.86598735588975E-17
57.1	2.03011237048835E-17	-5.49519441620853E-18	0.528104010883843	0.85319739761622	0.528104010883843	0.853197397616219	2.10959775431931E-17	4.65801291515471E-18
57.2	-2.88857766574873E-17	-2.28477707486307E-17	0.647930012836899	0.796963239841601	0.647930012836899	0.796963239841601	-1.74656439035781E-17	-1.48582968359811E-17
57.3	-2.61121839871506E-18	2.65275525817447E-17	0.801326325095858	0.625703664153175	0.801326325095858	0.625703664153175	-2.26204178477477E-17	9.06710469450339E-17
57.4	9.45806968024752E-19	-2.14132372587886E-17	0.803888623839565	0.531344918756824	0.803888623839565	0.531344918756825	-1.2748770343693E-17	-2.17076134975865E-17
57.5	1.68248268979181E-17	-6.8596714840999E-18	0.928173893020595	0.435708892524734	0.928173893020595	0.435708892524734	1.22010347647118E-17	-3.38385040529489E-17
57.6	-2.64325533676302E-18	2.64678778257086E-18	0.985708537907257	0.272671137669762	0.985708537907257	0.272671137669762	2.20173342421318E-18	3.51617732567102E-17
57.7	-7.99785200090217E-18	-3.7559863318873E-18	0.968582464920998	0.122116520016046	0.968582464920999	0.122116520016046	-3.98396413223138E-18	-4.43422835528283E-18
57.8	1.78753400819586E-17	1.28008194017551E-17	1.01043367811816	0.01125929776063	1.01043367811816	0.0112592977606302	-1.08621756733783E-17	1.03885223214507E-17
57.9	7.77798471605537E-18	-3.85684316228063E-18	1.01248324108219	-0.114279922465199	1.01248324108219	-0.114279922465199	1.24876937383288E-17	-3.42618366938471E-17
58	-3.96745938681206E-18	-9.11358951662748E-18	0.951803909029729	-0.32366270296587	0.951803909029729	-0.32366270296587	5.86400466245733E-19	1.22666684775943E-17
58.1	-2.75496709069087E-17	-2.55381978745077E-18	0.875557005252174	-0.400549049389074	0.875557005252174	-0.400549049389074	-9.08758124604193E-18	-7.85354671413873E-18
58.2	-3.57805515158735E-18	-1.33501460857972E-17	0.850897728218764	-0.544150977784689	0.850897728218764	-0.544150977784689	8.53090908877816E-18	-5.80505840664285E-18
58.3	1.18046898463592E-17	1.00247683417759E-17	0.746725547634523	-0.675354639364176	0.746725547634524	-0.675354639364177	5.95873906787655E-18	-1.53067562899552E-17
58.4	8.050399440084E-18	2.23151967157457E-18	0.630871485378047	-0.704456924424005	0.630871485378047	-0.704456924424006	-2.39885442278595E-17	8.89487429417237E-18
58.5	1.49102465442927E-17	3.8843678813629E-18	0.576011339375614	-0.837095613953178	0.576011339375615	-0.837095613953178	-3.4914996365924E-18	1.09244656255677E-17
58.6	1.33051579242597E-17	1.81119043999707E-17	0.415741320665685	-0.905968650644188	0.415741320665685	-0.905968650644187	1.90942042525486E-17	1.42693101057136E-17
58.7	-7.38822991743294E-18	-4.79624122605866E-18	0.272819699143881	-0.921302715202705	0.272819699143881	-0.921302715202705	3.71077374127853E-19	3.10502661976777E-18
58.8	2.72120708313255E-17	-1.50012768407324E-17	0.164375219709597	-0.963003663478417	0.164375219709597	-0.963003663478417	6.406205494638E-18	4.97601435268794E-19
58.9	-1.93830642010555E-17	-1.23187702769223E-17	0.0508868243790299	-0.992070615610286	0.05088682437903	-0.992070615610286	-1.61768845816939E-17	-1.66391751171658E-18
59	3.50609113025389E-17	-2.18643748744671E-17	-0.133213659272453	-0.966965228453353	-0.133213659272453	-0.966965228453353	2.77634504145851E-17	-2.00364403668925E-18
59.1	1.73829231133337E-18	-3.63766521919904E-18	-0.229897449855314	-0.936367591444518	-0.229897449855314	-0.936367591444518	6.44322386129201E-20	3.60544909989258E-18
59.2	3.07659487316473E-18	4.79240516352165E-18	-0.353560410926109	-0.934547309374237	-0.353560410926109	-0.934547309374237	-4.56035236762228E-18	-1.89372875577144E-18
59.3	-1.70121987599769E-18	6.32355569893836E-18	-0.515393799913991	-0.822277561435164	-0.515393799913991	-0.822277561435164	-5.1628748812821E-18	1.06599676587534E-17
59.4	3.28215603678256E-18	1.79122254403796E-18	-0.581342671343741	-0.772793019656602	-0.581342671343741	-0.772793019656602	5.48468538888073E-18	1.17131163922019E-17
59.5	1.71718158325732E-18	5.55492429833199E-19	-0.713741127300847	-0.681706897273164	-0.713741127300847	-0.681706897273164	-9.8378147744329E-18	6.79565689862811E-18
59.6	3.03188751308613E-18	-1.09581162269275E-18	-0.789004068907445	-0.553788068264706	-0.789004068907445	-0.553788068264706	2.07305234322997E-18	-3.74871319664311E-18
59.7	-1.20383030342848E-18	-7.21978085833278E-18	-0.864320485160786	-0.468352369283762	-0.864320485160786	-0.468352369283763	7.53643169788858E-18	1.30977968513511E-17
59.8	-7.53050856524858E-18	3.66770472490498E-18	-0.930294442488057	-0.339236708591317	-0.930294442488056	-0.339236708591317	-1.09914582675242E-17	-1.46620311925584E-18
59.9	-3.62215313571479E-18	-7.72775136327024E-18	-0.952383582390901	-0.218061160710665	-0.952383582390901	-0.218061160710665	-1.07346409038523E-17	3.29868001465112E-19
60	-1.01015677729067E-18	8.1836507071044E-18	-0.973186024014976	-0.0598360150486933	-0.973186024014976	-0.0598360150486935	-6.65817589229049E-18	-6.63769659453468E-18
60.1	1.51301268030193E-17	-1.48712608787377E-17	-0.960626804327516	0.0604517338150808	-0.960626804327516	0.0604517338150808	1.04978235790143E-17	-1.30709797409817E-17
60.2	7.49951198141737E-18	-1.5167924282502E-17	-0.969311336042803	0.168263851015455	-0.969311336042803	0.168263851015455	6.82138603385005E-18	-1.58168424277509E-17
60.3	3.42479465185645E-18	-2.27226075608116E-17	-0.917242104183818	0.341369798931822	-0.917242104183819	0.341369798931822	1.88599068150429E-18	-1.62952335311226E-18
60.4	-6.76064595430663E-18	-3.3310074396678E-18	-0.850744307648318	0.413848338524578	-0.850744307648318	0.413848338524577	-7.24454509238018E-18	-9.6312405891583E-18
60.5	1.43550501286433E-18	-1.54722064366474E-17	-0.806189062184259	0.555894952509918	-0.806189062184259	0.555894952509918	4.30918755388736E-18	-5.48016395508787E-18
60.6	1.94917865520343E-18	5.49769519940522E-18	-0.71603080138897	0.653213779975551	-0.71603080138897	0.653213779975551	-4.49518452436095E-18	-4.50445502136744E-18
60.7	2.41647854546683E-19	-1.16747430168803E-17	-0.617390789318251	0.747744272911508	-0.617390789318251	0.747744272911508	-3.04899621518472E-18	1.41822430316055E-18
60.8	-8.19351960099538E-19	-4.44200921527959E-18	-0.514657867898291	0.8300004700724	-0.514657867898292	0.830000470072401	-1.0817615397508E-17	-1.32671850541334E-18
60.9	-8.12076265117945E-18	-6.8697881085024E-18	-0.406665242226781	0.88848377504826	-0.40666524222678	0.88848377504826	-3.3904885111672E-18	6.21040303547652E-18
61	-3.49176353015821E-18	5.59609966543589E-18	-0.268437625290231	0.937305560874887	-0.26843762529023	0.937305560874886	4.02509601490166E-18	6.39893097319359E-18
61.1	-2.59774598247417E-17	8.87226770117449E-19	-0.136147238539218	0.94830662368561	-0.136147238539218	0.94830662368561	-8.09416045547557E-18	4.26368241234766E-18
61.2	1.53700330016277E-17	-1.21004785006265E-18	-0.0251635503422645	0.962763013343274	-0.0251635503422643	0.962763013343274	1.71190449746594E-18	-1.92449562950157E-18
61.3	3.20904570075517E-18	-2.86495677362729E-18	0.108588297444404	0.975533687720786	0.108588297444404	0.975533687720786	-2.52919125111984E-18	-4.56968399521841E-18
61.4	3.7261701761553E-17	8.99880833317131E-18	0.272853119952252	0.930032542502347	0.272853119952252	0.930032542502348	2.04770518185355E-17	-1.28523231281616E-18
61.5	-2.05400953542784E-17	2.31943964223786E-17	0.343658158904708	0.877757706116575	0.343658158904708	0.877757706116575	-2.07414933637514E-18	1.81893504062157E-17
61.6	5.01397169020257E-18	2.48330022618338E-17	0.489129366188526	0.86205132729712	0.489129366188526	0.86205132729712	1.56611626686778E-18	1.73136001079629E-17
61.7	-1.61009452743168E-17	3.06270621886835E-18	0.608426327829711	0.767538538431626	0.608426327829711	0.767538538431625	-1.547463878812E-17	1.13283347377005E-17
61.8	-9.76552832474175E-18	-1.15919654632149E-17	0.682923409929943	0.665828820360113	0.682923409929942	0.665828820360113	5.0716141419609E-18	-1.78879034327999E-17
61.9	-4.76631644270662E-18	1.66078684887331E-17	0.774737220027679	0.566222457964842	0.774737220027679	0.566222457964842	4.51637178142553E-19	4.04740999240268E-18
62	-8.70852677045616E-18	-5.27448427639072E-18	0.839008883261938	0.482572787169168	0.839008883261938	0.482572787169168	-4.26477195568652E-18	-4.09936073890381E-18
