# GHZ S RI R 50
50	3.6944158969873E-18	-2.0586300521944E-18	0.783082068907314	-0.551520664959067	0.783082068907314	-0.551520664959067	1.02886375354119E-17	2.83598779901725E-18
50.1	-1.54741113660541E-18	-5.27037411600227E-18	0.657094468232211	-0.661895878337822	0.657094468232211	-0.661895878337822	6.72084815504267E-19	-1.13226933208044E-17
50.2	-1.63836042863697E-17	-9.08709230027909E-18	0.551499799779992	-0.75383023951425	0.551499799779992	-0.753830239514251	1.67145542674801E-18	2.63034776791987E-19
50.3	1.48510670250009E-17	-8.28594443153939E-18	0.432172653574015	-0.859640065272055	0.432172653574014	-0.859640065272055	6.11370548690191E-18	-2.54276721387112E-18
50.4	-3.56758862510734E-18	1.48433978044957E-17	0.239277735571973	-0.886376533621496	0.239277735571973	-0.886376533621496	-6.26215084179014E-18	5.83548179799326E-19
50.5	5.11495179512264E-18	-6.61879216071713E-18	0.130838007440913	-0.93718114398705	0.130838007440913	-0.93718114398705	1.10906572287545E-17	-4.91711289807176E-18
50.6	-8.72558709988178E-19	6.95484587988391E-18	-0.0439215963674155	-0.935203531481969	-0.0439215963674158	-0.935203531481969	1.79887193126306E-18	2.88519523077621E-18
50.7	7.29655930288201E-18	1.75501865068077E-17	-0.181446755876107	-0.909072400029176	-0.181446755876107	-0.909072400029176	1.1120307102373E-17	3.44875111503893E-18
50.8	1.02508180917988E-17	-2.86750198131061E-18	-0.344248825130967	-0.892300213774513	-0.344248825130967	-0.892300213774513	1.7397782601763E-17	2.91295338786142E-19
50.9	4.5396449343644E-18	7.9215798173521E-19	-0.469767278640271	-0.786999622182102	-0.469767278640271	-0.786999622182101	-4.25021742152022E-18	1.09530333450434E-17
51	-1.61211726082498E-17	-6.34042635614006E-18	-0.606776028717883	-0.721968640474319	-0.606776028717883	-0.721968640474319	1.19667011497419E-17	-5.74072328501708E-18
51.1	-1.73135552241091E-17	7.31429100417478E-18	-0.710961235468034	-0.608658732506151	-0.710961235468034	-0.608658732506151	-5.06861985160952E-18	6.94212711319226E-18
51.2	1.6257269205632E-17	-5.98956495807054E-18	-0.794013620803717	-0.480337705578638	-0.794013620803717	-0.480337705578638	1.88940552270788E-18	-6.04996615436257E-18
51.3	2.51814656059464E-17	1.05361101453187E-17	-0.865594715841842	-0.347710113932283	-0.865594715841842	-0.347710113932283	-2.28981887560698E-19	-1.06711858385464E-17
51.4	2.36605257676453E-18	8.26857922601633E-18	-0.924277891857805	-0.223469110768247	-0.924277891857806	-0.223469110768247	-3.67595615824421E-18	3.40219302261735E-18
51.5	2.93093044354499E-18	9.21165851420323E-18	-0.917059727173267	-0.0364613742935341	-0.917059727173268	-0.0364613742935341	6.20664535994225E-18	4.89182072596128E-18
51.6	1.46176398935534E-17	2.09399735284725E-17	-0.930514014837856	0.0772461401861256	-0.930514014837856	0.0772461401861258	2.39960178342174E-17	5.9551710708096E-18
51.7	3.24670002185673E-18	5.34276548427885E-18	-0.920691612656239	0.227080413139318	-0.920691612656239	0.227080413139318	1.34295897167208E-18	-2.00874764329206E-17
51.8	7.12709271273264E-18	1.98483608840337E-17	-0.812263003570952	0.372428078901338	-0.812263003570952	0.372428078901337	4.07588312149832E-17	1.31669387569657E-17
51.9	-2.5228424282687E-17	3.93304932186592E-18	-0.816182956092381	0.49376530162773	-0.81618295609238	0.49376530162773	-8.32777572903268E-18	2.94963863608961E-17
52	1.50831631436366E-17	-8.34870968021305E-18	-0.666120495546139	0.631679282066966	-0.666120495546139	0.631679282066965	-1.1223301267658E-17	-9.19695389500229E-18
52.1	-6.21708288686273E-18	-7.7315841643335E-18	-0.564403722318083	0.711618923222461	-0.564403722318083	0.711618923222461	-1.79227226058577E-18	-7.66408474969465E-18
52.2	-4.01896366420252E-18	1.90085331312649E-17	-0.472831435551519	0.793596771749469	-0.472831435551519	0.793596771749468	1.2409789750419E-17	3.53654260746251E-17
52.3	3.65960331057919E-18	-1.44904507858496E-17	-0.345754418705663	0.857523335482038	-0.345754418705663	0.857523335482037	2.56378315594725E-17	2.46879585430015E-17
52.4	-5.77039794020739E-19	-1.44593004477125E-17	-0.19490417037353	0.933726322494055	-0.19490417037353	0.933726322494055	2.77244071017501E-17	-2.40627974466872E-17
52.5	-4.60960971869251E-18	1.28416921490024E-17	-0.0645934301752746	0.875827925397441	-0.0645934301752746	0.87582792539744	1.22976154791665E-17	3.5637199910973E-17
52.6	1.16700294941806E-17	-4.3797717289837E-17	0.0598247567409245	0.944787284902856	0.0598247567409244	0.944787284902856	-3.73611327647625E-17	-2.26751200382123E-17
52.7	2.16931905653844E-17	-2.80191053144759E-17	0.268612430643508	0.91863889322029	0.268612430643508	0.91863889322029	-5.28549166910498E-19	-1.85243169663109E-17
52.8	2.55007694906467E-17	1.31615259237283E-17	0.304661710342291	0.749057764721369	0.30466171034229	0.749057764721369	1.36396340503357E-17	-3.15109175607624E-17
52.9	8.01044049215765E-18	1.14759127928418E-17	0.563894005866338	0.859698485790043	0.563894005866338	0.859698485790042	0	0
53	-1.45772235235357E-19	1.30686439014308E-18	0.580515365790588	0.648868293498538	0.580515365790588	0.648868293498539	-6.3936354424552E-18	9.87182618020325E-18
53.1	-1.28391847143707E-18	3.00407104365213E-17	0.688438885597644	0.61896568255693	0.688438885597643	0.61896568255693	9.50066218188683E-18	4.96821830145236E-18
53.2	-1.58918482859081E-18	-1.4807336852515E-17	0.83054761787781	0.494065934904156	0.83054761787781	0.494065934904156	4.73306978302821E-17	-4.50365399694316E-18
53.3	5.58882588250312E-18	-1.75743937203149E-17	0.839854700353741	0.367321688057405	0.839854700353741	0.367321688057405	-8.76456023962281E-18	-3.95410758874659E-17
53.4	4.89398808973932E-18	-8.48270871260144E-18	0.87732520933782	0.169360182377565	0.877325209337819	0.169360182377565	-1.15394181060536E-17	-3.82019019346838E-17
53.5	-1.17311487381736E-17	-9.85762594870902E-18	0.937722543015835	0.132436592133119	0.937722543015835	0.132436592133119	-4.23550421641069E-17	1.77467803880368E-17
53.6	2.08300317634839E-17	4.45358475130192E-18	0.936053986817581	-0.0734145698064538	0.936053986817581	-0.0734145698064538	2.59224749114078E-17	-6.13762385020001E-17
53.7	4.45941165760327E-18	1.2812605638814E-17	0.844872717920835	-0.230341287954688	0.844872717920836	-0.230341287954689	1.87239827909747E-17	-4.42241924886945E-17
53.8	1.57895684402392E-17	-1.58338343598767E-17	0.943635771850746	-0.285478854796573	0.943635771850746	-0.285478854796573	-2.80524643767648E-17	-1.17033001533714E-17
53.9	-1.35561823463364E-17	2.57978441489995E-18	0.803733017673383	-0.46565884664671	0.803733017673384	-0.46565884664671	1.8869405150096E-18	-2.13471458461308E-17
54	1.05169017649281E-17	1.34049977713176E-17	0.70246296775423	-0.577503488175003	0.70246296775423	-0.577503488175003	9.55463753107345E-18	-3.96511792195844E-18
54.1	1.1960587562278E-17	1.11272782865626E-18	0.628244999308919	-0.643727506815677	0.628244999308918	-0.643727506815677	1.64956812984196E-17	-1.44410379973323E-17
54.2	3.36970200260536E-19	1.83269312148815E-17	0.536222320202077	-0.743591535044078	0.536222320202077	-0.743591535044079	-9.18552066221016E-19	-7.37725466886161E-18
54.3	-1.16918125443344E-17	-2.80065654704895E-17	0.370785581883444	-0.840797818757177	0.370785581883444	-0.840797818757177	-8.98445139691971E-18	-7.66510520210994E-18
54.4	-6.37720445176176E-18	3.09699119582749E-18	0.314289138003447	-0.812476795012318	0.314289138003447	-0.812476795012319	-2.60283060960457E-17	-1.83410642125417E-17
54.5	6.67028379550857E-18	2.5225560473588E-17	0.125509404094256	-0.957638463985546	0.125509404094256	-0.957638463985546	2.08413600562062E-18	1.73033969713436E-17
54.6	2.00970913393773E-17	-1.704968033873E-17	-0.0128073598726501	-0.889230889396779	-0.0128073598726501	-0.889230889396779	2.13104574589483E-17	-2.25748571561557E-17
54.7	-1.44959521438443E-18	8.24599525011942E-18	-0.11643149334746	-0.930967392718547	-0.11643149334746	-0.930967392718546	1.5103426140039E-18	7.49386131309844E-18
54.8	-1.23841892651662E-17	-4.47507142618853E-18	-0.279303849786026	-0.896884276382091	-0.279303849786026	-0.89688427638209	-1.85974760352796E-17	5.38894361440599E-18
54.9	1.11636461282841E-17	-1.26962045615532E-18	-0.40759244309554	-0.817897421180378	-0.40759244309554	-0.817897421180377	2.19006367073251E-17	-9.79268523853016E-18
55	-2.92810292844558E-18	-4.52513310234824E-18	-0.509630137809565	-0.775896973195467	-0.509630137809565	-0.775896973195466	6.97202181427052E-18	-1.05458951342068E-18
55.1	-6.92597969775279E-18	-9.3000378667869E-18	-0.636773276423632	-0.686847491716239	-0.636773276423632	-0.68684749171624	-6.2421386264618E-18	1.81622303632739E-18
55.2	-2.93615506484738E-18	5.74178233797442E-18	-0.705554447896752	-0.580854058294284	-0.705554447896752	-0.580854058294283	-7.17027458695507E-18	1.61665694399826E-17
55.3	6.54409272011307E-18	7.51699517153945E-19	-0.806274826898313	-0.45056968393936	-0.806274826898312	-0.45056968393936	-5.33340601868853E-18	2.23951976525554E-17
55.4	-2.91924409692197E-18	-8.54759763163059E-18	-0.852321047927947	-0.367945729722788	-0.852321047927947	-0.367945729722788	1.8515467264603E-18	-8.93485072935776E-18
55.5	-4.98360714725157E-18	-1.10108500744095E-17	-0.920572104689142	-0.211198564681374	-0.920572104689142	-0.211198564681374	2.79298494172998E-17	-7.9654058975684E-18
55.6	-1.48310060143765E-18	-1.06635250931685E-17	-0.912213385324019	-0.0864170401896659	-0.912213385324018	-0.0864170401896662	-2.5876334920213E-18	-1.9775647762634E-18
55.7	8.27192244773073E-20	9.97703178658496E-18	-0.938432114150864	0.0399368527205792	-0.938432114150864	0.0399368527205791	1.38986233621809E-17	2.33910958330107E-17
55.8	-4.96768086769579E-18	-2.77949379138924E-18	-0.915165948852972	0.193710148797743	-0.915165948852973	0.193710148797743	4.22652948739206E-18	1.14098273705313E-17
55.9	4.91644924687742E-18	-5.94588355969878E-18	-0.880082393699004	0.31255164771097	-0.880082393699005	0.31255164771097	1.71754818914509E-17	5.5383462444366E-18
56	1.19947768196547E-17	-2.81195007293286E-18	-0.799407512640792	0.444886618562451	-0.799407512640791	0.444886618562451	2.3740561463335E-17	1.13064523046515E-17
56.1	1.38555604123311E-17	6.25148174558891E-18	-0.758165309150853	0.545059959587748	-0.758165309150853	0.545059959587748	2.5830385308552E-17	-8.94003985311599E-19
56.2	1.40308645064207E-17	1.57787447569477E-17	-0.674933320360792	0.661815125211117	-0.674933320360793	0.661815125211118	1.97815363990547E-17	1.89922910191158E-17
56.3	6.05024368442879E-18	8.63930834467991E-18	-0.520147816737258	0.756366013748067	-0.520147816737258	0.756366013748067	2.51573590345634E-17	2.47982464355937E-17
56.4	-6.65020090772833E-18	7.48617189337506E-18	-0.464402474784919	0.814839035753354	-0.464402474784919	0.814839035753355	-7.14997643034299E-18	1.48762879401695E-17
56.5	-6.14709136797673E-18	-9.78948978286101E-18	-0.326028889482623	0.894414684085532	-0.326028889482623	0.894414684085532	-2.29967582376581E-18	-2.65806718866542E-17
56.6	1.54511687367314E-18	-3.69374089469633E-18	-0.180296135101124	0.898218452854857	-0.180296135101124	0.898218452854857	6.05752110233873E-18	-6.93534968030244E-18
56.7	-1.46963275782749E-17	-3.39928810630185E-18	-0.05932195729179	0.92828781627371	-0.0593219572917901	0.92828781627371	-3.31988485899693E-18	-9.50559449295578E-18
56.8	-5.76381608511025E-18	-9.48783596686039E-18	0.0536291436920903	0.943952391455316	0.0536291436920896	0.943952391455317	-2.80843994151003E-17	7.99722081481362E-20
56.9	8.14898212705078E-18	-7.03425638146208E-18	0.198694039343252	0.90162670653545	0.198694039343252	0.90162670653545	-1.44036065042063E-18	3.92653653088349E-18
57	1.88369853535163E-17	-1.03041198070875E-18	0.352572822153812	0.833835790192269	0.352572822153812	0.833835790192269	2.00455967193088E-17	-4.31583911940045E-18
57.1	1.05683699915816E-18	6.67513713614616E-18	0.448463004091903	0.80250654968005	0.448463004091903	0.80250654968005	8.06775960195218E-18	-1.92131935296021E-18
57.2	-9.74984542345886E-18	2.70952932908458E-19	0.56187888950592	0.757165099646954	0.56187888950592	0.757165099646953	1.68185948594977E-17	8.31424089516859E-18
57.3	5.90133036436246E-18	-9.64743434376606E-19	0.707387859257481	0.601135094579205	0.707387859257481	0.601135094579205	-3.67422275796368E-18	-3.94362605608354E-18
57.4	-5.37948929644528E-19	7.23796371128978E-18	0.711061830082393	0.520887408275931	0.711061830082393	0.520887408275931	1.37946160652217E-17	-1.00171399639736E-17
57.5	9.73245273186152E-18	1.00540244067136E-17	0.832518158193718	0.437020793995928	0.832518158193718	0.437020793995928	-9.18597330010514E-19	-1.75332611501825E-17
57.6	-3.04888279992109E-20	-1.90084601081006E-18	0.890631221119588	0.288962420092887	0.890631221119588	0.288962420092887	2.90604047766061E-17	-8.98409852649696E-18
57.7	4.89211737844517E-18	1.49530228756113E-17	0.878649887240065	0.153022325419787	0.878649887240065	0.153022325419787	-9.96010331531848E-18	1.54827695901171E-17
57.8	-8.21602291265338E-18	-2.00355158214318E-19	0.924669278102088	0.0532461574345865	0.924669278102088	0.0532461574345865	-1.11430730563236E-17	-7.27972171717997E-18
57.9	-1.50842280471273E-17	1.04033908143186E-17	0.933285507324697	-0.0611540669621281	0.933285507324696	-0.0611540669621281	-3.03374094535847E-17	2.07970039374391E-18
58	-1.59883664343801E-18	-6.78261852950975E-18	0.88182090548388	-0.256293455866196	0.88182090548388	-0.256293455866196	5.09694562683568E-19	-4.65569274774299E-18
58.1	-1.43236702100072E-17	2.46645278610856E-18	0.817569716732037	-0.325848587189259	0.817569716732037	-0.325848587189259	-8.45153770925406E-18	2.8025133896145E-18
58.2	2.09381666429534E-17	-1.53013584108982E-17	0.8021066914904	-0.461122459574474	0.802106691490401	-0.461122459574475	-1.81685371131169E-17	3.16737774818415E-18
58.3	-2.47672112002264E-18	-6.48139692055196E-18	0.711014676743127	-0.585155672669964	0.711014676743127	-0.585155672669965	0	0
58.4	1.43370821985862E-18	2.59315222246042E-17	0.609790974382877	-0.613015284961288	0.609790974382876	-0.613015284961288	1.94674503117812E-17	2.49124357315551E-18
58.5	5.14538557821116E-19	-9.52495969100272E-18	0.565413771676807	-0.741444072091045	0.565413771676807	-0.741444072091045	-9.20995473362009E-18	-1.07667336895946E-17
58.6	-7.34308933425858E-18	-5.42941480891432E-18	0.420667042919029	-0.809579492089088	0.420667042919029	-0.809579492089089	-5.65414423429227E-18	1.45593340655381E-17
58.7	6.69649948267721E-18	2.25859768297867E-17	0.292330812707482	-0.827968637194408	0.292330812707483	-0.827968637194408	-6.39871455224591E-18	6.86687265422801E-18
58.8	1.13710492761752E-17	-1.91935623224737E-17	0.195818304764267	-0.872877002949284	0.195818304764268	-0.872877002949284	9.45367968387085E-18	-2.16347877278717E-17
58.9	-2.23148608998739E-18	-3.41061898217669E-18	0.0937203573027486	-0.906585097490369	0.0937203573027485	-0.906585097490369	-1.1569668792586E-19	-2.9684441476057E-18
59	5.44552266938285E-18	-9.41590280903911E-19	-0.0763065620109515	-0.889159836629712	-0.0763065620109512	-0.889159836629713	-2.57171553402702E-18	-2.71001014618889E-18
59.1	-4.58959820518732E-18	1.0521449781646E-17	-0.164205478970822	-0.867683091268135	-0.164205478970822	-0.867683091268135	-2.21271854760173E-18	-7.48787097604342E-18
59.2	-4.87736476325812E-18	-5.61609457139254E-19	-0.279036744854567	-0.873843848632539	-0.279036744854567	-0.873843848632539	3.49629562951135E-18	6.8053829800586E-18
59.3	-1.16373520849956E-17	9.03568295691786E-18	-0.431001058948967	-0.775147631094509	-0.431001058948967	-0.775147631094509	-5.65954142411704E-18	6.52434041838814E-18
59.4	4.68032295779942E-18	-1.65064901835441E-17	-0.493270998199107	-0.736708469635117	-0.493270998199107	-0.736708469635116	7.30729598971593E-18	-8.78775008709104E-18
59.5	-1.19700250285017E-17	9.93286942088623E-18	-0.619776580072531	-0.658451462975107	-0.619776580072531	-0.658451462975107	-6.36019768278883E-18	1.11608060524006E-17
59.6	4.76736283706991E-19	1.96629459188335E-18	-0.693097224593757	-0.545133553882766	-0.693097224593757	-0.545133553882767	4.2504133729047E-18	3.57390493841586E-19
59.7	4.19570159203768E-18	1.99815369989765E-17	-0.767754399616888	-0.471829830530408	-0.767754399616889	-0.471829830530408	5.3890297529428E-18	6.74540953073402E-18
59.8	-2.76300114351956E-17	-7.17853705958593E-18	-0.834553073779944	-0.35653028829921	-0.834553073779944	-0.35653028829921	-1.0953839693473E-17	-7.31541926160873E-18
59.9	-1.90466640879507E-17	-1.08635728410924E-18	-0.860657951556867	-0.248145866055732	-0.860657951556868	-0.248145866055732	-7.84683527970619E-18	9.86236131494949E-18
60	-1.99640022636314E-17	1.23028224163226E-17	-0.886451517696188	-0.103793265671887	-0.886451517696187	-0.103793265671887	-1.24192750819539E-17	-1.52849141440936E-18
60.1	-2.15386883204498E-18	-1.07548524155309E-17	-0.881357292889379	0.00542337872377321	-0.881357292889379	0.00542337872377306	7.23278792139314E-18	-1.45764700201393E-17
60.2	2.36243798001668E-17	-2.00680182749533E-17	-0.897003222317825	0.103762715456672	-0.897003222317826	0.103762715456672	2.56274994772103E-19	-1.74940442296995E-17
60.3	1.84998567122497E-17	-2.56008265577825E-18	-0.855635817409969	0.265222177243639	-0.855635817409969	0.265222177243638	1.30710517622772E-17	-4.32270748707252E-18
60.4	-3.8714718433233E-18	-7.54358702233751E-18	-0.800756820018699	0.332339662806015	-0.800756820018699	0.332339662806015	1.03864867965608E-17	9.89715001078953E-18
60.5	-9.19777194834001E-19	-1.26366314563321E-18	-0.76698748876476	0.466469959723052	-0.76698748876476	0.466469959723052	1.5368883294105E-19	1.1100332743492E-17
60.6	1.8205223400504E-19	-1.08023959076811E-17	-0.689902222744691	0.5594739856475	-0.689902222744691	0.5594739856475	1.14569896549924E-17	-4.57562623237153E-18
60.7	-1.09993153953736E-17	-9.48545307173067E-18	-0.604653766896601	0.650987705019827	-0.604653766896601	0.650987705019827	9.85598080298717E-19	4.04649161596608E-18
60.8	1.01154383057985E-17	-4.73276947099168E-18	-0.515215444643746	0.7319625878166	-0.515215444643746	0.7319625878166	3.89694297167255E-18	4.69371700421072E-18
60.9	-2.35688699316649E-18	-5.97330691715612E-18	-0.420274517154642	0.791445930763463	-0.420274517154642	0.791445930763464	-8.59005375166978E-18	1.58964657057825E-17
61	1.86968048796089E-17	8.77412315945806E-18	-0.29609386096478	0.842907673756262	-0.29609386096478	0.842907673756261	1.07881798602535E-17	-3.77463557405146E-18
61.1	-1.14829214116696E-17	-2.02336321091442E-18	-0.176668505377133	0.859374325857177	-0.176668505377133	0.859374325857178	9.82218411409304E-18	-5.95520771752103E-18
61.2	6.95442016658657E-19	-4.95587435069455E-20	-0.0766589006058618	0.879742350104453	-0.0766589006058621	0.879742350104453	1.37236000344329E-17	-1.16681599725123E-17
61.3	-1.79742539310237E-18	-2.45597488118924E-17	0.0457328465916102	0.89930781325666	0.0457328465916105	0.89930781325666	-1.53167125641818E-17	-1.32839674563368E-17
61.4	-1.22736877054835E-17	-1.14911355456387E-17	0.198413812284759	0.864457830426229	0.198413812284759	0.86445783042623	-7.26822835206123E-18	1.39473018180624E-17
61.5	6.17200841127359E-18	1.31006842890361E-17	0.263658098716926	0.82290189662597	0.263658098716926	0.82290189662597	-4.29144578178936E-18	6.77080942167766E-19
61.6	-9.30417817530038E-18	7.31365281503982E-18	0.400194571920078	0.816794920649448	0.400194571920078	0.816794920649448	4.0271676071542E-18	-5.09160561723411E-19
61.7	8.86113333470676E-18	-7.91239471861855E-18	0.513777181548921	0.736000527089894	0.51377718154892	0.736000527089895	-3.76162844923172E-18	1.07476690503805E-19
61.8	1.49087518831622E-19	-1.48216836372548E-18	0.586052825326578	0.647959708347604	0.586052825326578	0.647959708347603	9.91425298457686E-18	6.64546044716265E-19
61.9	1.18866283385486E-17	-2.03424144463739E-18	0.675718048483685	0.56191824250301	0.675718048483685	0.56191824250301	-8.63342577907846E-19	1.00393840184434E-17
62	1.18661000409401E-17	-3.53859969346991E-18	0.74012450612335	0.490385560170949	0.740124506123351	0.490385560170949	1.17443345646218E-17	-6.45686462409927E-18
62.1	-2.28586305227649E-18	9.31089331339909E-18	0.817614365492041	0.379705407282041	0.817614365492041	0.379705407282041	3.78778998085182E-18	-4.30828264241074E-19
