# GHZ S RI R 50
50	1.23593984904509E-17	2.54436143299132E-18	0.814083118478224	-0.575486574490389	0.814083118478224	-0.575486574490389	-4.89422802147823E-18	-5.38963711466434E-18
50.1	-7.08801226354567E-18	-1.05653094772352E-17	0.683079314374535	-0.691213027922289	0.683079314374536	-0.69121302792229	-1.12922580914655E-17	1.48787345001859E-17
50.2	-1.35028546587366E-17	9.32384541581267E-19	0.571843296901333	-0.786876921445052	0.571843296901333	-0.786876921445053	-6.49800978782327E-18	1.24676630157541E-18
50.3	-4.79047353028561E-18	-7.8123203951133E-18	0.446916354546833	-0.89552869086685	0.446916354546833	-0.895528690866851	3.8218440215716E-18	-7.00866414522615E-19
50.4	2.77200853147278E-17	-8.35813938692062E-18	0.246850237745353	-0.924831457379184	0.246850237745353	-0.924831457379183	-9.11246867381446E-19	9.55928798167177E-18
50.5	1.13478001879265E-17	3.13369753070279E-18	0.132245482991298	-0.975703666058665	0.132245482991298	-0.975703666058665	1.8992153976778E-18	5.75868508931214E-18
50.6	1.55949591331001E-17	6.69838853164503E-18	-0.0494048520847954	-0.973587299263028	-0.0494048520847955	-0.973587299263027	2.14070256130389E-18	4.753305902714E-18
50.7	4.04146474119981E-18	-6.99713291494072E-18	-0.193418997777281	-0.945620927229294	-0.193418997777282	-0.945620927229294	-1.70344962187664E-18	4.24171161166279E-18
50.8	-2.24146227361787E-17	-1.51799175309931E-18	-0.361962618479479	-0.92662198972574	-0.361962618479478	-0.92662198972574	-2.71206658926139E-18	-8.00724291206913E-18
50.9	-1.32580091061219E-17	-8.76290730851788E-18	-0.493509659940329	-0.817329203527747	-0.493509659940329	-0.817329203527748	-5.59774250969256E-18	-2.9453886724379E-18
51	1.33424742811613E-17	1.15094018861936E-17	-0.635036785336965	-0.748173354593999	-0.635036785336965	-0.748173354593999	7.42756736390576E-18	6.30253464144112E-18
51.1	3.65309306693244E-18	1.89389335511466E-18	-0.743257609781067	-0.62959192189931	-0.743257609781067	-0.62959192189931	-2.43561357392718E-18	-4.5998760975106E-18
51.2	-8.99159504868466E-18	2.08308063593809E-18	-0.829377923910369	-0.495402581737738	-0.829377923910369	-0.495402581737739	-4.38946925789014E-19	9.43011591634929E-18
51.3	1.13081737296168E-17	1.84254382561496E-17	-0.902960555728694	-0.356699423469047	-0.902960555728694	-0.356699423469047	-3.13659298303394E-18	-7.41590150363041E-18
51.4	-1.50314228202023E-18	8.72367350854599E-18	-0.962439206115027	-0.226408595658453	-0.962439206115026	-0.226408595658453	-6.32380338972534E-18	1.76895155509139E-17
51.5	-8.10894797215947E-18	8.28906759624431E-18	-0.95541337284849	-0.0323252021040329	-0.955413372848489	-0.032325202104033	3.67350381984182E-18	1.6138135143312E-17
51.6	-1.40327461042812E-17	1.71844895226359E-18	-0.967323986258146	0.0871776769009877	-0.967323986258146	0.0871776769009879	1.40504941705406E-17	4.0994951552169E-18
51.7	5.95795332200321E-18	-2.27773480484827E-18	-0.955491064655751	0.242810953955633	-0.955491064655751	0.242810953955632	8.97516036777336E-19	1.43115650088307E-18
51.8	-3.27650874361499E-18	2.16284876243473E-18	-0.843493165436093	0.394478168610182	-0.843493165436093	0.394478168610181	1.40499900101729E-17	7.81606071018332E-18
51.9	8.9759832131184E-18	-6.44903065060874E-18	-0.843971008586507	0.519713650216439	-0.843971008586506	0.519713650216439	-1.06648173154078E-17	-1.5588497445686E-18
52	9.62627584715181E-18	-2.79892475705363E-18	-0.688902925116788	0.662683385985924	-0.688902925116789	0.662683385985924	-2.58376198125522E-18	-1.51698824993909E-17
52.1	3.20159526851736E-18	3.19533836479633E-18	-0.581637782646545	0.745699485514158	-0.581637782646545	0.745699485514159	3.71505522643547E-19	-4.89214083157642E-18
52.2	7.81547859906048E-18	5.70463632598102E-18	-0.484563755481083	0.829726288247157	-0.484563755481083	0.829726288247157	1.55584943360751E-17	-1.15357203340926E-17
52.3	3.35642720864529E-19	9.0674479793157E-18	-0.351486451223651	0.895045707083833	-0.35148645122365	0.895045707083832	-8.73180525845117E-18	9.40309070018023E-18
52.4	4.2001253860842E-18	-5.63806037851092E-18	-0.194679708466864	0.972141140813398	-0.194679708466864	0.972141140813398	-9.17054454958942E-18	-2.23028282740905E-17
52.5	-2.19364825458031E-17	-1.15505940839543E-17	-0.0575255750178662	0.912705988442879	-0.0575255750178662	0.912705988442879	-5.9950644308248E-17	1.72734751757466E-17
52.6	-1.89629624695621E-17	3.64264076152376E-18	0.0718841733982521	0.98074185648483	0.0718841733982519	0.98074185648483	-6.7711650087545E-17	-2.22375446110913E-17
52.7	2.86313225250522E-18	-1.89734133428709E-18	0.28701425245025	0.952690331231116	0.28701425245025	0.952690331231116	5.136075322374E-20	-1.85761191391348E-17
52.8	-2.78046610822221E-18	-1.13144571857233E-17	0.328409396340843	0.777228360003463	0.328409396340843	0.777228360003463	1.97769011884894E-17	8.89015512158179E-18
52.9	2.520957197345E-17	1.90203745056918E-17	0.591972254420979	0.887019470815134	0.591972254420979	0.887019470815134	-1.45742006200583E-17	-6.05588345582586E-18
53	5.9712153903206E-18	1.34302241733473E-17	0.612378580343683	0.669280390296697	0.612378580343683	0.669280390296697	1.42067582587389E-18	1.62501078109873E-17
53.1	-6.10304562744806E-18	1.53636149257821E-17	0.722722592471386	0.635043109615646	0.722722592471386	0.635043109615645	1.08963763273385E-17	9.11109879395326E-18
53.2	5.85512694973167E-18	-3.13202010699599E-19	0.867733783484591	0.50475950350077	0.86773378348459	0.50475950350077	2.23300724275658E-19	-3.14361450723686E-18
53.3	5.06542544608726E-18	-2.08122215752225E-17	0.87757398525843	0.371675422992403	0.87757398525843	0.371675422992403	-2.4044972054298E-18	1.11045588257668E-17
53.4	-1.51663430797214E-17	2.31946402433307E-17	0.915727182531181	0.166834991056662	0.915727182531181	0.166834991056662	4.92196127724026E-17	7.39622836184404E-17
53.5	4.01767275398522E-18	4.51800172961573E-18	0.975139854642359	0.125476704156039	0.975139854642359	0.125476704156039	-2.73125930578509E-17	-3.14137559657379E-17
53.6	2.11429164144342E-17	-3.81731197457565E-18	0.9721740250695	-0.0870582709828121	0.972174025069501	-0.0870582709828123	1.11023694985178E-17	-1.29205732684944E-17
53.7	-2.10522192715887E-18	-1.22985637825947E-17	0.877709981164069	-0.250212586402797	0.877709981164069	-0.250212586402797	-2.68414699491292E-17	1.15554405662579E-17
53.8	-2.26472214979873E-18	-6.88218930680773E-20	0.9745457857555	-0.308482402908837	0.974545785755499	-0.308482402908838	2.4211752428497E-17	2.91190395749656E-18
53.9	-3.56220033808583E-17	2.67017427548303E-17	0.829689784257906	-0.494173782328727	0.829689784257907	-0.494173782328727	1.6121824324276E-17	3.81706788786111E-17
54	1.10620526417727E-17	8.98818402243862E-18	0.723378321952703	-0.609821818873664	0.723378321952702	-0.609821818873664	-1.07133856931286E-17	-1.83838156724893E-18
54.1	3.02745952647438E-17	-2.33301494763374E-18	0.644018062797986	-0.678351179102216	0.644018062797985	-0.678351179102216	9.6647916890374E-18	-1.87396925982922E-17
54.2	-2.34934974146291E-19	-4.10427617124156E-18	0.546709101932351	-0.780424390676586	0.546709101932351	-0.780424390676586	4.77187213870203E-18	3.84863465454302E-17
54.3	7.18218684054313E-18	5.19372789812211E-18	0.374909326385191	-0.879450639683264	0.374909326385191	-0.879450639683265	2.05177856770905E-17	1.10745700851556E-17
54.4	2.6557688778106E-17	3.94729181432937E-18	0.313181239333238	-0.849841726701343	0.313181239333238	-0.849841726701343	1.3278844389053E-17	1.97364590716469E-18
54.5	5.56699850179383E-18	6.72630072530881E-18	0.118078202235941	-0.996343941673516	0.118078202235941	-0.996343941673516	-5.09362754197221E-18	-1.22450488750245E-18
54.6	-6.61205225732699E-18	-1.15341586605053E-17	-0.026320990873858	-0.925295197949925	-0.0263209908738577	-0.925295197949924	-2.01002803631769E-17	1.30551099292391E-17
54.7	-9.11354833143382E-18	2.59410076663369E-18	-0.134708061298204	-0.965306343131736	-0.134708061298203	-0.965306343131735	-5.4494579285043E-18	1.69715721013403E-17
54.8	-1.02684965959198E-17	1.36264613748403E-18	-0.303060006398818	-0.928048615309297	-0.303060006398818	-0.928048615309296	7.29057983562473E-18	-1.23369652090376E-18
54.9	-9.63777794114644E-18	6.28768643516702E-18	-0.435925389971679	-0.844707525448453	-0.435925389971679	-0.844707525448453	2.53916013239673E-19	-8.47336903900616E-18
55	4.7894012327791E-18	-5.47921113557986E-18	-0.541476851021375	-0.798508618267071	-0.541476851021375	-0.798508618267071	1.73908699518817E-17	-2.56793276119796E-20
55.1	-7.45524747906339E-18	1.03853076930591E-18	-0.672039303026244	-0.704346723779832	-0.672039303026244	-0.704346723779832	-3.08555143153807E-19	6.56903255871501E-18
55.2	8.67720862876616E-18	-5.99070504073868E-18	-0.742744003032092	-0.592716655315607	-0.742744003032092	-0.592716655315607	1.21504583470933E-17	4.48044051156088E-19
55.3	-7.73382591845625E-18	1.00997073254579E-17	-0.845297208077603	-0.45641238736509	-0.845297208077603	-0.45641238736509	1.49753000174117E-17	-1.36538441145907E-17
55.4	1.9947189273342E-18	-2.00128126277646E-18	-0.891629187365016	-0.368467452543047	-0.891629187365016	-0.368467452543046	-5.14240191260104E-18	-2.84584856165327E-18
55.5	1.91742836445939E-17	2.18410626739028E-18	-0.959978836069405	-0.205351008800636	-0.959978836069405	-0.205351008800636	-3.21670233026658E-18	2.35206892337472E-17
55.6	-5.64677446751267E-18	-1.84370747911831E-17	-0.949898465836535	-0.0748705237976361	-0.949898465836534	-0.0748705237976363	-2.61756834499723E-18	-3.60454822742736E-18
55.7	-7.06016237958839E-20	-4.15184077121094E-18	-0.974421528577911	0.0569083799867825	-0.974421528577911	0.0569083799867828	-5.92483404223358E-18	-2.63367702062096E-18
55.8	6.68088061885063E-18	-5.03450868535937E-18	-0.948153515459885	0.216203990983944	-0.948153515459885	0.216203990983943	-4.43525905149375E-18	2.13365340091687E-18
55.9	-4.56663504173625E-18	7.20958582557657E-18	-0.909457681001088	0.339581093381238	-0.909457681001088	0.339581093381238	-9.29655732684013E-18	1.67254296516054E-17
56	-1.40826226682523E-18	1.1883545381011E-17	-0.824045821755475	0.476176219498541	-0.824045821755475	0.47617621949854	-7.84628827772578E-18	1.36137984252761E-17
56.1	1.56428122479884E-17	-1.23739131330347E-17	-0.778463462107859	0.579583584968553	-0.778463462107859	0.579583584968553	2.03496954487346E-17	6.09086910827069E-18
56.2	-5.54563049563606E-18	-2.3364561533317E-17	-0.689955346352095	0.699281278587658	-0.689955346352095	0.699281278587658	2.17159318698365E-17	-3.64000231547597E-18
56.3	-3.30035168077493E-18	-3.7643360229762E-18	-0.528604855594872	0.79572662366878	-0.528604855594871	0.79572662366878	-1.09113283380944E-17	1.48927348691707E-17
56.4	-5.77531817815596E-18	1.54368426844331E-17	-0.467957377004854	0.855060329305253	-0.467957377004854	0.855060329305254	-3.36047112331828E-18	4.52002596840834E-17
56.5	-5.19588841750421E-19	1.57861780155216E-17	-0.323262815452836	0.935136950745979	-0.323262815452836	0.935136950745979	8.31076654086322E-18	3.89139313812105E-17
56.6	-3.04917490483635E-18	-1.42104726221569E-17	-0.171383922262479	0.937571927449091	-0.171383922262479	0.937571927449091	-2.39039314731513E-17	-2.5889146514916E-17
56.7	-7.57308623936932E-18	2.55605054677896E-18	-0.0448239273904684	0.966250908145608	-0.044823927390468	0.966250908145607	-4.73490426902156E-18	1.5860701099824E-17
56.8	-3.43684410117922E-18	-3.29818857017996E-19	0.0732835926151893	0.979831899925449	0.0732835926151891	0.979831899925449	-4.05613524983017E-18	3.99737698523702E-18
56.9	1.52744204215201E-18	1.53696158401715E-17	0.22355583861046	0.933834733087132	0.22355583861046	0.933834733087131	-3.07167032918612E-17	6.631309013505E-18
57	1.49591999858487E-19	-2.4624438069006E-18	0.382343673019335	0.861512676217879	0.382343673019336	0.861512676217879	1.03942219632972E-17	1.14820686150261E-17
57.1	-7.11327564589373E-18	-6.75931632421599E-18	0.481770938543508	0.826142242234868	0.481770938543508	0.826142242234868	-1.03740728533373E-17	-3.32145144326427E-17
57.2	-8.9069305041697E-18	1.10540188699479E-18	0.598552017254392	0.77621003878133	0.598552017254392	0.77621003878133	-4.34388058607588E-17	-1.83108161804684E-17
57.3	-1.00046632608686E-17	-4.62284679255352E-18	0.747021621428083	0.613313922310873	0.747021621428083	0.613313922310874	-4.84695678706896E-17	1.36017723601573E-18
57.4	4.28386386631186E-18	2.48637424463136E-17	0.750895532596401	0.52789781097441	0.750895532596401	0.527897810974409	2.41114242824248E-17	3.24872935911495E-17
57.5	-2.56837895689402E-17	-1.29171037479727E-17	0.874166058430717	0.438362173628921	0.874166058430717	0.438362173628921	-3.1860610515393E-18	-2.09104598534041E-17
57.6	1.44303389439916E-17	-1.41152336595645E-17	0.932094075143301	0.283761938817793	0.932094075143301	0.283761938817793	-4.33625698080446E-18	-9.26664270700284E-19
57.7	-3.09327554591731E-18	1.47281352654585E-17	0.918203434234779	0.141913542479539	0.918203434234778	0.141913542479539	5.68637472592747E-18	3.16453700228811E-17
57.8	2.60116664879295E-17	-2.04765922019571E-18	0.963038334766362	0.0368242689282111	0.963038334766362	0.036824268928211	2.80488027216599E-17	-7.54738742917216E-18
57.9	-2.74789928011003E-18	-1.59766789695191E-17	0.969277123935401	-0.0827476162141065	0.969277123935401	-0.082747616214107	9.53434588099287E-18	-2.20453176321508E-17
58	-7.07096871560407E-18	4.86898146374296E-20	0.913437302466515	-0.283896105488605	0.913437302466514	-0.283896105488605	-8.23830166130715E-18	-6.37299544135123E-18
58.1	-3.702033694122E-18	-6.65562746658499E-18	0.844848301741192	-0.356731924810497	0.844848301741191	-0.356731924810497	1.39468841570315E-17	1.35693551982164E-18
58.2	-4.80006287476598E-18	-9.83358064581466E-18	0.825330763403773	-0.496357346920613	0.825330763403773	-0.496357346920613	-2.06766809658743E-17	3.63878496587367E-17
58.3	1.27105887020199E-17	1.16731397125975E-17	0.728556787046129	-0.623636873210005	0.728556787046129	-0.623636873210005	2.60099423401463E-17	4.06079457966465E-18
58.4	2.58733153334136E-17	1.00439233802487E-17	0.621821428454235	-0.652366276061801	0.621821428454235	-0.652366276061801	1.00230838171765E-18	-8.51191309299855E-18
58.5	1.49300797783673E-17	3.8055099554758E-18	0.572336898527926	-0.783516244730665	0.572336898527927	-0.783516244730665	8.58988369835796E-18	-5.31393480331073E-18
58.6	9.9198936211217E-18	5.23044679587149E-18	0.42086343091463	-0.851994019575155	0.42086343091463	-0.851994019575155	2.45238989155949E-17	8.84906296906006E-18
58.7	-9.80930882733508E-18	1.08239017737259E-17	0.286462967934833	-0.869382342322669	0.286462967934833	-0.869382342322668	1.13455737654407E-17	1.15716537241675E-18
58.8	-1.4872505072744E-17	1.00870309804487E-17	0.184447555718372	-0.913535969257782	0.184447555718372	-0.913535969257781	3.6352801423775E-18	-1.15479947573601E-17
58.9	-1.7677456388629E-18	1.07904868837631E-17	0.0769595616015979	-0.945799103221917	0.076959561601598	-0.945799103221917	-1.87636563956161E-17	-6.23968489333035E-18
59	-9.09821490249925E-19	2.88554093923998E-18	-0.0992103448236262	-0.92492517720938	-0.0992103448236261	-0.92492517720938	-2.38772922702021E-19	-1.10021873241598E-18
59.1	5.25401191989463E-18	-7.16275291642646E-18	-0.191287760180797	-0.900155165968883	-0.191287760180797	-0.900155165968884	-1.4178169430101E-18	-1.37896938489245E-18
59.2	1.14925538999012E-17	5.07862663924486E-18	-0.31077423279898	-0.90305322093381	-0.310774232798979	-0.90305322093381	2.92105581298585E-18	3.74140560234736E-18
59.3	-1.34862987265633E-18	-2.1417659866397E-18	-0.466875678260386	-0.79830964224589	-0.466875678260386	-0.79830964224589	2.26310322586304E-18	-5.53611590330592E-18
59.4	4.99762237578949E-18	4.15345296224467E-18	-0.531555341193328	-0.755575003388585	-0.531555341193327	-0.755575003388585	-1.95609177619859E-18	8.73574827653778E-18
59.5	3.76258261643541E-18	5.64229059408778E-18	-0.661036973406874	-0.671441996728394	-0.661036973406873	-0.671441996728394	1.62709202305139E-18	-5.55811198962073E-18
59.6	-6.78254546581586E-18	1.34311316682327E-17	-0.735456647543899	-0.551876497997942	-0.735456647543899	-0.551876497997942	6.01600429598343E-18	-5.57028425511821E-18
59.7	1.33135255672928E-18	-7.53145134658165E-19	-0.811148136863072	-0.473077888954582	-0.811148136863072	-0.473077888954582	-8.23576704959914E-19	3.98070909911036E-18
59.8	-9.15220315294705E-18	7.35070193585433E-18	-0.877953858174494	-0.35146979630068	-0.877953858174494	-0.35146979630068	6.09722451099198E-18	2.59807135960196E-18
59.9	1.4410312090453E-17	-9.20420160437389E-19	-0.902830672753053	-0.237388154897011	-0.902830672753053	-0.237388154897012	9.78404048421051E-18	-2.72006461434445E-18
60	1.38439337216092E-17	-4.44216982967433E-19	-0.926571181184098	-0.0866972914105111	-0.926571181184097	-0.0866972914105112	1.4458437211469E-18	2.47353065617968E-17
60.1	7.05003406394822E-18	-4.82862845058188E-18	-0.918707822511502	0.0276182366753121	-0.918707822511501	0.0276182366753121	6.49468266060664E-18	-1.85896282194936E-18
60.2	-1.54022860368287E-17	-3.57595865054642E-18	-0.931778300566727	0.130818371704667	-0.931778300566726	0.130818371704667	8.22415567935194E-18	-4.75205061652492E-18
60.3	2.08806171784368E-17	-2.52419763139326E-18	-0.885542119685056	0.297581841741364	-0.885542119685055	0.297581841741363	1.18826773653973E-18	-4.69913354926123E-18
60.4	2.11443183100872E-17	9.51669262715751E-18	-0.826241468289308	0.367493860547413	-0.826241468289308	0.367493860547413	1.01102877751475E-18	-9.59391982821114E-18
60.5	2.03963189417043E-17	-9.88718099945703E-18	-0.787500526974609	0.505776042784389	-0.787500526974608	0.505776042784389	5.29587701997562E-18	7.51266412089256E-19
60.6	-8.84440298919317E-18	1.29071442166008E-17	-0.704758212093723	0.601133093587462	-0.704758212093722	0.601133093587462	-9.55398138288689E-18	-1.5258634954489E-18
60.7	-3.052904421157E-18	5.63285485019971E-18	-0.613531052308112	0.694456713513157	-0.613531052308112	0.694456713513157	4.68319402465825E-19	-8.31388450317313E-18
60.8	-1.58450961271421E-17	3.72531434679578E-18	-0.51804642149542	0.776534315776772	-0.518046421495421	0.776534315776772	-1.61275306949483E-17	-9.25427302800075E-18
60.9	-9.43117900056378E-18	-1.19529251344058E-18	-0.417162379572306	0.836150113184668	-0.417162379572305	0.836150113184667	2.99898269142124E-18	-1.74244433144963E-17
61	1.15053270124088E-17	1.10877939249311E-17	-0.286508784037904	0.886752957199523	-0.286508784037904	0.886752957199523	2.47812997093761E-18	3.64567289043456E-18
61.1	3.41344370162125E-17	-6.37179796830274E-18	-0.16123992208949	0.901218053611701	-0.16123992208949	0.901218053611701	8.56913013444991E-18	-5.35842442963142E-18
61.2	4.07182343819887E-18	3.09235083148485E-18	-0.0559055843961642	0.919518811358	-0.0559055843961642	0.919518811357999	-1.09744356564722E-18	1.50676306323878E-17
61.3	-1.79241453264547E-17	-1.07674555369884E-17	0.0721386673985992	0.936313970039074	0.0721386673985994	0.936313970039074	8.65566291719768E-19	6.83228733089281E-18
61.4	-6.07182489655517E-18	3.33682430584281E-18	0.230159590737902	0.896692492809726	0.230159590737902	0.896692492809726	-1.76246212707117E-17	1.73196769803551E-17
61.5	7.05307831592956E-18	-4.73571650529796E-18	0.298402727868647	0.851089548473735	0.298402727868647	0.851089548473735	1.21182008477806E-17	6.11874480321691E-18
61.6	-5.33915556118214E-18	7.69415055038135E-18	0.439776759645893	0.84045971759626	0.439776759645893	0.840459717596261	6.18932731026853E-18	4.76988590725101E-18
61.7	-7.81684373511225E-19	-2.62955143129524E-18	0.556220339609015	0.753536506881606	0.556220339609016	0.753536506881606	1.6786018113868E-17	-7.96196037061249E-18
61.8	4.34145523314505E-18	-1.61285935672161E-19	0.629943083978097	0.65961334308574	0.629943083978097	0.65961334308574	5.21890474184133E-18	1.21588627054061E-17
61.9	-1.20046865451017E-17	1.86829435080114E-17	0.721081515387514	0.567338085699596	0.721081515387514	0.567338085699596	-7.40115171485646E-18	1.28730068018375E-17
62	-6.71191199056951E-18	6.60665020752674E-18	0.786201388859701	0.490203155123834	0.786201388859701	0.490203155123834	5.76455594318458E-19	1.1326040957534E-17
