# GHZ S RI R 50
50	-1.35070418755434E-17	2.25146447928332E-17	0.771112778419543	-0.55018822011957	0.771112778419543	-0.55018822011957	-5.7029571526097E-18	-5.25423140052722E-18
50.1	1.63369419705813E-17	-1.93066511847585E-17	0.650898637433249	-0.654528061404115	0.650898637433248	-0.654528061404115	-1.43288877016805E-18	8.13773285490075E-18
50.2	3.74819242359678E-18	-1.30200321999426E-17	0.549567950113315	-0.751303030625215	0.549567950113315	-0.751303030625215	1.13932871235826E-17	1.11080105961231E-18
50.3	-3.68749350269395E-18	9.65066865525793E-18	0.424497127031669	-0.861808941969813	0.424497127031669	-0.861808941969813	2.72950303587814E-18	1.40572173433949E-17
50.4	-5.22319385513608E-18	7.36185002466066E-18	0.241777484076744	-0.878319083763088	0.241777484076745	-0.878319083763088	5.28903938401737E-18	-6.06584015560099E-18
50.5	1.21049992827237E-18	-1.91841531185942E-17	0.127218276936372	-0.942239133817137	0.127218276936372	-0.942239133817136	3.78009297175457E-18	1.03970685417228E-18
50.6	2.5535619805834E-17	-5.54055003830216E-18	-0.0452691423843825	-0.93697841838492	-0.0452691423843824	-0.93697841838492	1.22508673957967E-18	-3.1859774218124E-18
50.7	-1.38634687606164E-17	6.15697856976145E-18	-0.182520973398631	-0.916982494781239	-0.18252097339863	-0.916982494781239	2.32270504964239E-18	5.60345513048761E-18
50.8	5.0522586490533E-18	1.95562722093164E-17	-0.354049419174516	-0.896607867839912	-0.354049419174515	-0.896607867839912	1.65203004836451E-18	1.7656570930716E-18
50.9	2.56530991016005E-17	-9.67862221288191E-18	-0.471791501611805	-0.796609676970803	-0.471791501611805	-0.796609676970803	1.14352903937799E-17	-2.08629600093907E-17
51	-1.73595571818262E-17	-1.12713590775773E-17	-0.617528401128222	-0.727724330058498	-0.617528401128222	-0.727724330058498	3.63258818291333E-18	-2.60395701406607E-18
51.1	1.30758571081171E-17	-7.2685847696708E-18	-0.723037558664539	-0.615206147910929	-0.72303755866454	-0.61520614791093	-1.00131505040411E-18	-6.17307803847575E-18
51.2	-1.20383880933446E-17	1.85564427769041E-17	-0.807716042475165	-0.487457867327391	-0.807716042475164	-0.487457867327391	-4.6714460358198E-18	7.69578047310526E-18
51.3	-1.84968096288805E-18	-1.19982939601882E-17	-0.882733633552835	-0.351659148553259	-0.882733633552834	-0.351659148553259	-1.20430731689739E-19	-4.42839246867366E-18
51.4	-9.20355185708684E-18	7.10419855205529E-20	-0.9490143834129	-0.220168658594104	-0.9490143834129	-0.220168658594104	2.22805185545227E-18	-3.49174611250282E-18
51.5	1.29881463713033E-17	-3.732999313378E-17	-0.934007186561668	-0.0387238600641044	-0.934007186561668	-0.0387238600641048	-2.55876249676228E-19	-1.52326685974736E-17
51.6	1.03326044925384E-17	1.44713745452189E-17	-0.958483606652778	0.0848614681222725	-0.958483606652778	0.0848614681222722	1.05055025075518E-17	-2.22692909775643E-17
51.7	6.78954904385855E-18	-1.60819347898829E-17	-0.947911374352147	0.244065222837738	-0.947911374352148	0.244065222837738	6.44225288836245E-18	-1.65494599910083E-18
51.8	-9.4332624124027E-18	2.50399961867056E-17	-0.839592612145053	0.377616003739349	-0.839592612145053	0.377616003739349	3.50019364495732E-17	1.92502390429802E-17
51.9	-3.0809385287995E-19	8.41678857233473E-18	-0.842335862988545	0.525748588093048	-0.842335862988543	0.525748588093047	1.46889224992868E-18	-6.897214142747E-18
52	1.94275399373945E-17	-1.57611139215187E-19	-0.685813083227923	0.651167138919473	-0.685813083227923	0.651167138919473	1.45383319989068E-17	4.24947264286187E-18
52.1	8.72542563326538E-20	3.75555296047101E-19	-0.586447757121191	0.738319435489318	-0.58644775712119	0.738319435489317	7.94737720260529E-18	1.32691353582429E-19
52.2	-4.92618352510514E-18	-4.67509048838995E-18	-0.489508524918291	0.833414268491354	-0.489508524918291	0.833414268491354	1.32085836271219E-18	-1.09416647082938E-17
52.3	7.67930223220802E-18	4.9423813085243E-18	-0.356214412115226	0.90268352176591	-0.356214412115227	0.90268352176591	3.16484407464067E-18	2.53211712907296E-17
52.4	-7.97876221457259E-18	-3.20429254291147E-18	-0.188957984352166	0.977544768070988	-0.188957984352166	0.977544768070988	-1.97771001664741E-17	-1.53550288918102E-17
52.5	-4.71097050449803E-18	2.97040790467272E-17	-0.0731458090552418	0.928176759604647	-0.0731458090552414	0.928176759604647	2.54084390699214E-17	5.57967761969966E-17
52.6	1.46160968615232E-17	-2.45580922737266E-17	0.0811829288025309	1.00128432041117	0.0811829288025308	1.00128432041117	-4.38631652349535E-17	-7.91734992289772E-18
52.7	-1.1235506597505E-17	-1.3316641374381E-17	0.295988730893476	0.954875876254966	0.295988730893475	0.954875876254966	3.18860963524889E-18	2.30401345712851E-17
52.8	1.47514275049481E-18	-8.33330790413601E-18	0.307836461664036	0.816781369756393	0.307836461664036	0.816781369756393	-3.31381820907217E-17	-1.67363684441958E-18
52.9	3.02004873045896E-17	2.02844412595752E-18	0.623415345543243	0.878280625738343	0.623415345543242	0.878280625738344	-2.22012134503347E-19	-7.25548928555551E-17
53	-4.42891907192884E-17	-7.0078079566711E-18	0.614398096916602	0.695454411580611	0.614398096916602	0.695454411580612	4.47438404625046E-18	3.66837680318899E-17
53.1	1.38091132694033E-17	1.19684117764086E-17	0.750715987212657	0.653756069125328	0.750715987212657	0.653756069125328	2.40747720626518E-17	-1.60447119458432E-18
53.2	1.73089532432075E-17	1.61995717484145E-17	0.894157354842704	0.503277010355621	0.894157354842704	0.503277010355621	2.00167718607265E-17	-5.73928551339971E-18
53.3	3.05028817042021E-17	-2.32795943346428E-17	0.910384180984193	0.38344877750396	0.910384180984193	0.38344877750396	5.69163136679664E-19	-4.78762097512341E-17
53.4	1.4801757594548E-17	-1.59820295096818E-17	0.932427099896661	0.179277043919616	0.932427099896661	0.179277043919616	-1.68494296804254E-17	-8.41199786477931E-18
53.5	1.70721972999075E-18	-1.5678192091013E-17	1.02410059863519	0.115996872497329	1.02410059863519	0.115996872497328	1.82398429660629E-17	7.0215221491159E-18
53.6	-2.17770194992087E-17	7.89686412511239E-18	1.00279800218523	-0.0981987223046892	1.00279800218523	-0.0981987223046892	2.22071540509991E-18	1.12301582734659E-17
53.7	-5.97990960673267E-18	-2.13049064414539E-17	0.906762289404818	-0.244622406484967	0.906762289404818	-0.244622406484967	-5.60648469350211E-18	-1.00150557141286E-17
53.8	-2.23120532466988E-18	1.02050369832229E-17	1.0202597343776	-0.357021995537998	1.0202597343776	-0.357021995537999	6.33843824853144E-18	-5.05505590629114E-18
53.9	-2.60305685839218E-17	4.27647878350403E-18	0.860967238490082	-0.522033577364089	0.860967238490082	-0.522033577364088	-2.51480019549406E-17	1.0190995925138E-17
54	6.46532958002237E-18	-2.767258106283E-18	0.753728970351699	-0.63736116184679	0.753728970351699	-0.637361161846789	-1.77540566507496E-17	-1.67034762368484E-17
54.1	-1.30352279433011E-17	1.05612510441077E-17	0.680070506177383	-0.720513317157053	0.680070506177383	-0.720513317157053	-1.68037632983131E-17	4.3826659202973E-18
54.2	1.76049384187028E-17	-1.0810538076713E-18	0.571924084788553	-0.832769162903186	0.571924084788552	-0.832769162903186	5.845630843509E-18	-4.398086141411E-17
54.3	-8.26673062331547E-19	2.14046406338825E-17	0.386826006736435	-0.92078147490425	0.386826006736435	-0.92078147490425	1.8515539188182E-17	4.48471454862148E-17
54.4	5.80038595381492E-18	-1.66759447636271E-18	0.338146015288153	-0.922277843161839	0.338146015288153	-0.922277843161838	1.38319939272648E-18	-1.19911698196296E-17
54.5	-9.69878279896649E-18	1.96465014191924E-17	0.101049315259051	-1.04763519447607	0.101049315259051	-1.04763519447607	-2.56226427053644E-17	8.83932362464176E-19
54.6	6.22258911293264E-18	6.35030708304866E-18	-0.0276931637639675	-0.981587135298491	-0.0276931637639677	-0.981587135298491	4.72736374156445E-18	-5.29322887311707E-18
54.7	-1.87390573005665E-18	2.59555345308089E-18	-0.164277723310334	-1.02880712999159	-0.164277723310334	-1.02880712999159	4.05608619240298E-18	-7.27358525111265E-18
54.8	-1.15527399655636E-18	-1.46698227474032E-18	-0.339668820853422	-0.98032270889363	-0.339668820853422	-0.98032270889363	-1.16442990817431E-17	-2.71381538747613E-18
54.9	-3.97995156991991E-18	7.90740764869351E-18	-0.472811718305647	-0.894532714858581	-0.472811718305647	-0.894532714858581	-3.50107529677169E-18	5.13585502242825E-18
55	4.41577148714502E-18	7.01014351754065E-18	-0.596834469754391	-0.846622983206737	-0.596834469754391	-0.846622983206737	3.25953792719326E-18	1.30204210552146E-17
55.1	-1.00239814207582E-18	7.74872875870695E-18	-0.733232784183912	-0.739140557567327	-0.733232784183912	-0.739140557567327	-9.49207999963953E-18	1.12064052949533E-17
55.2	-5.1123126188473E-18	-3.38012758226324E-18	-0.81059933514675	-0.627167582435396	-0.81059933514675	-0.627167582435396	-1.64972450492557E-17	-1.64280690972854E-17
55.3	-1.45894475510334E-17	-9.6414374310975E-18	-0.911872911953361	-0.474502127898101	-0.911872911953362	-0.474502127898101	-8.71621144440217E-18	-1.40365521927664E-17
55.4	3.58146406335349E-18	-2.52334695062524E-18	-0.976247015446651	-0.377723598128629	-0.976247015446649	-0.377723598128629	6.32133650212529E-19	1.34257725532388E-17
55.5	-3.24502026769673E-18	-2.30705434653823E-18	-1.03684449580339	-0.195677327078063	-1.03684449580339	-0.195677327078062	1.53170396182699E-17	-2.04179646034608E-18
55.6	-2.46328962282702E-19	-3.76770044230017E-18	-1.03237309175395	-0.0620488072388071	-1.03237309175395	-0.0620488072388068	-2.63930185286524E-17	1.73747997133661E-17
55.7	-1.80448072419534E-17	-9.76056612131673E-18	-1.05723397241711	0.0908650991773787	-1.05723397241711	0.0908650991773791	-1.51860509504667E-18	-1.16312447034652E-17
55.8	7.25128841850608E-18	-1.4915564636544E-17	-1.02170410233764	0.259815316083949	-1.02170410233764	0.259815316083948	1.36981475069242E-17	-3.05937686916782E-18
55.9	-5.31102745078174E-18	-1.10850464456281E-17	-0.981268739330294	0.396804927856466	-0.981268739330294	0.396804927856466	-9.31744761607127E-18	-1.80247752627474E-17
56	1.6049759104779E-17	-1.05175625608892E-17	-0.887120448989873	0.536115214916367	-0.887120448989872	0.536115214916367	2.03348075771737E-17	2.54161161907578E-17
56.1	-1.55447646507081E-17	1.45342105376865E-17	-0.834802424206569	0.661251186176767	-0.834802424206569	0.661251186176767	-1.79103552607396E-17	1.59989871540384E-17
56.2	-8.94453436074467E-18	4.74779500984536E-18	-0.730102556108976	0.790848915505942	-0.730102556108976	0.790848915505942	6.37031511580712E-18	-8.57400859369151E-18
56.3	7.14363286337564E-19	-1.17124900308612E-17	-0.557382338178273	0.876943966732032	-0.557382338178273	0.876943966732032	-1.69584165678343E-18	7.9512030618413E-19
56.4	1.93160793789242E-17	-1.81987605837372E-18	-0.483793376068988	0.961930096721127	-0.483793376068988	0.961930096721127	4.42359909652031E-17	2.21906224079637E-18
56.5	-3.94837402004005E-18	-5.12639866551269E-18	-0.317187895850424	1.03872504629337	-0.317187895850423	1.03872504629337	1.03576246744939E-17	-3.00296098790484E-17
56.6	-6.52930521188141E-19	8.3496001961446E-18	-0.161888653778302	1.03902530389481	-0.161888653778301	1.03902530389481	4.23817943795657E-18	-6.6013169783806E-19
56.7	1.4002491499288E-17	-3.58841817395225E-18	-0.0146718458598625	1.06975381499683	-0.0146718458598625	1.06975381499683	2.61290930876118E-17	-1.12008855831262E-17
56.8	7.46813423044319E-18	-1.34709878389091E-17	0.126286165565098	1.08562633674734	0.126286165565098	1.08562633674734	9.30426371608217E-18	-1.92266088716005E-17
56.9	-3.93316126801067E-18	6.95831326776854E-18	0.283713012212279	1.0307875198645	0.283713012212279	1.0307875198645	-7.82883309510561E-18	2.35497874652922E-18
57	-2.0557550823448E-17	1.60875462981411E-17	0.445577346533347	0.943176349021782	0.445577346533347	0.943176349021782	2.0574466724513E-17	4.69736122742481E-18
57.1	-1.80461027439086E-17	5.59694142133218E-18	0.568628403383029	0.903802328111997	0.56862840338303	0.903802328111997	-3.17407964784554E-17	6.70086982949201E-18
57.2	1.53361416616087E-17	-1.53481264658371E-17	0.706524728409487	0.838431328647536	0.706524728409486	0.838431328647535	2.26072533415422E-17	3.88871037981676E-18
57.3	-1.10443417003102E-17	-1.9341478318621E-17	0.838897301602177	0.649871072369896	0.838897301602178	0.649871072369897	-4.26496535477406E-17	-1.09696862258484E-18
57.4	2.15947424130503E-18	5.16568832848794E-18	0.863365258013066	0.574846808726562	0.863365258013065	0.574846808726561	4.09161714068814E-19	-1.83763639738705E-17
57.5	2.07331826422482E-18	-1.01777331256758E-17	0.998203472211651	0.448444392984514	0.998203472211651	0.448444392984514	-5.24378649241127E-17	-2.14942736844343E-17
57.6	-1.01269559137866E-17	1.31839201369514E-18	1.04944225831116	0.275829808662831	1.04944225831116	0.275829808662831	-1.26535192892386E-18	2.50873257973893E-17
57.7	1.18875713531688E-17	5.03813562109079E-18	1.03598123883755	0.132170225010872	1.03598123883755	0.132170225010872	2.63909749705471E-17	-2.63849380390383E-17
57.8	1.11701931536592E-17	-1.39096878566367E-17	1.08677571102796	-0.00386381777804848	1.08677571102796	-0.00386381777804815	1.02295505023949E-17	-2.12166664466854E-18
57.9	-4.57132541606877E-18	1.02675586158777E-17	1.09275243860106	-0.14667606140979	1.09275243860106	-0.14667606140979	-1.89510510267641E-17	1.06461671743844E-17
58	-6.1250600219327E-19	-7.75739298957681E-19	1.00844296518462	-0.350129539304242	1.00844296518462	-0.350129539304241	4.00150260668844E-18	1.87794519144418E-18
58.1	7.7820554694624E-18	5.47941266416836E-18	0.950307276849949	-0.434479886301944	0.950307276849949	-0.434479886301945	-2.58029760811404E-17	-9.79813430681252E-18
58.2	-1.32028370571921E-18	8.39463216351542E-18	0.908800790507328	-0.601814803483042	0.908800790507328	-0.601814803483042	4.76385197278758E-18	2.44055221553866E-17
58.3	-3.30539200828267E-18	-1.65081995822595E-17	0.792829293906648	-0.734345549740234	0.792829293906649	-0.734345549740234	-3.03853621905249E-17	-4.09354861068685E-17
58.4	1.14287626717832E-17	-1.63296013534924E-17	0.694322498011972	-0.773814917940657	0.694322498011972	-0.773814917940656	-2.569185732058E-17	6.56244081825995E-18
58.5	-1.66483732674059E-17	-1.13398567889266E-17	0.606401479202277	-0.929053423393292	0.606401479202278	-0.929053423393292	-1.68841633377341E-17	-6.57121472722433E-18
58.6	-9.85257072082786E-18	1.03488649183691E-17	0.437871748267254	-0.990953759671149	0.437871748267254	-0.990953759671148	-6.85439279879896E-18	-7.52715000050554E-18
58.7	-2.75074192905791E-17	-1.7606976266543E-17	0.295563061376624	-1.01000947908855	0.295563061376624	-1.01000947908855	-5.50115622273751E-18	-9.22373115053899E-18
58.8	5.39409502179033E-18	-3.72198361931118E-19	0.166956934265405	-1.06287566425912	0.166956934265405	-1.06287566425912	5.36191305175452E-18	-3.54708849063342E-18
58.9	1.16949342443507E-17	1.64194851227045E-17	0.0307036207475176	-1.09952393918715	0.0307036207475175	-1.09952393918715	3.1369902725247E-18	1.90943252334383E-17
59	-3.08442744146562E-18	3.53054584957027E-18	-0.156862966562057	-1.0588949035454	-0.156862966562058	-1.0588949035454	-9.46772539218126E-18	-7.25716502193776E-18
59.1	-9.03354826820182E-18	1.76449605967277E-17	-0.27059858691428	-1.03887319459759	-0.27059858691428	-1.03887319459758	1.88688101323338E-18	1.66950262534197E-17
59.2	-2.17960031619021E-17	-1.28070409837969E-17	-0.424022085365338	-1.02907272447933	-0.424022085365338	-1.02907272447933	-1.43876058618523E-17	-1.29695107568157E-17
59.3	3.56799772699539E-18	7.0984594283166E-18	-0.577505397341408	-0.900491596839846	-0.577505397341407	-0.900491596839846	-1.16815033794661E-18	4.92467196048426E-18
59.4	-5.51273603317642E-18	-2.03127672593815E-17	-0.670938878075481	-0.854426887123962	-0.670938878075481	-0.854426887123961	-9.9446183413842E-18	-2.42762691309674E-18
59.5	2.49213010871069E-18	4.23597905482761E-18	-0.811511474241742	-0.740126385206915	-0.811511474241743	-0.740126385206915	-9.0318156275652E-18	-6.78527965481061E-18
59.6	-1.11787608321573E-18	-9.81144547862657E-20	-0.889445033162332	-0.605043575749544	-0.889445033162332	-0.605043575749544	5.00069368736107E-18	7.19782877322573E-18
59.7	2.58792913188974E-18	1.11567972271086E-17	-0.98259908313994	-0.499743008567236	-0.98259908313994	-0.499743008567236	7.41374783090901E-18	1.28568626595992E-17
59.8	-5.10098448000745E-18	-1.44854602656884E-17	-1.05102328538888	-0.350754566296879	-1.05102328538888	-0.350754566296878	-1.55450239324527E-17	-2.35365838618961E-18
59.9	-1.32051507456822E-18	-2.96800128776026E-17	-1.08097349518773	-0.216525831232255	-1.08097349518773	-0.216525831232255	8.18883109136825E-18	2.27536625969688E-18
60	-1.68091604986535E-17	1.82057905087765E-18	-1.0934573580834	-0.0423706630233326	-1.0934573580834	-0.0423706630233326	-5.12801473804015E-18	-1.44615147900423E-17
60.1	2.69268128782073E-18	-2.55422984250216E-18	-1.08541133255696	0.0930373702248086	-1.08541133255696	0.0930373702248088	1.83316907844495E-17	9.36929318090445E-18
60.2	-3.17371485277734E-19	1.67773638292549E-17	-1.09544441139947	0.23105655741344	-1.09544441139947	0.231056557413439	-5.34819365256015E-18	2.01868041683665E-17
60.3	7.47569663236215E-18	-1.33327149494633E-18	-1.02233305141197	0.410999115484072	-1.02233305141197	0.410999115484072	9.16047569464386E-18	-2.84825991148538E-17
60.4	-1.65900383625805E-18	-2.12486327594111E-17	-0.965422618241233	0.500805470324106	-0.965422618241233	0.500805470324106	-1.23921335031344E-18	-7.14798259421364E-18
60.5	1.47137370907997E-17	-1.12953966866059E-17	-0.895941022063097	0.663570237029435	-0.895941022063097	0.663570237029435	-7.73495585778242E-18	-2.35739068594098E-18
60.6	1.12903739374026E-17	1.57579024248945E-17	-0.794192756875296	0.772811047416606	-0.794192756875296	0.772811047416607	-5.46883325364378E-18	5.17822179457957E-18
60.7	1.28815016352663E-17	-5.56994397593678E-18	-0.677974668587878	0.877789115894121	-0.677974668587877	0.877789115894121	-1.79510144510997E-18	1.57162974591692E-18
60.8	-1.03466485604643E-17	1.01878120104565E-17	-0.554461435202304	0.970510758132977	-0.554461435202304	0.970510758132977	9.33473416331471E-19	-5.50309492875322E-19
60.9	1.99822250610296E-18	1.04384927885683E-17	-0.426796902287718	1.03922900392275	-0.426796902287718	1.03922900392275	-3.79108712423433E-18	1.31827979352289E-17
61	2.55933300416599E-17	-4.3423586293908E-18	-0.268059972860354	1.08643960419787	-0.268059972860354	1.08643960419787	-7.80537848577441E-18	-2.25052737157039E-17
61.1	-2.06999150607359E-18	-4.6056255328308E-19	-0.120787047547686	1.0990261014681	-0.120787047547686	1.0990261014681	1.21340024284148E-17	-3.2745232369662E-18
61.2	-4.1421601455012E-18	7.03263689912311E-18	0.0156956682053875	1.11806962656185	0.0156956682053875	1.11806962656185	-6.06293085897471E-18	1.59014898196356E-17
61.3	-9.01400093397206E-18	-1.41452549752622E-17	0.177825445341579	1.12230341410266	0.177825445341579	1.12230341410266	-1.54038472737908E-17	-2.92142243017834E-19
61.4	3.6156752435741E-18	1.07551977740259E-17	0.351429791039913	1.05805398317967	0.351429791039913	1.05805398317967	-1.26240388203979E-17	4.71675380932293E-18
61.5	-6.46548867633832E-18	1.72108298316252E-17	0.444430750529778	1.01481886397201	0.444430750529778	1.01481886397201	-3.52075173208422E-18	-3.24872408137937E-18
61.6	1.20184383507217E-17	2.32837322427111E-17	0.619920642544271	0.969780001024112	0.619920642544271	0.969780001024112	-8.07676596011312E-18	1.33554468229033E-17
61.7	-1.45137037869212E-18	-5.85521431805506E-18	0.746470468157861	0.856897994857639	0.746470468157861	0.856897994857639	-1.49587055200792E-17	-6.31105588623505E-18
61.8	-1.19041771028489E-17	1.07032158635802E-17	0.832143419439067	0.745952070812851	0.832143419439067	0.74595207081285	-3.83533495005429E-18	4.77915066012482E-18
61.9	2.71283541200983E-18	1.2190702697187E-17	0.934057150699456	0.622628052656355	0.934057150699457	0.622628052656356	7.40021717332148E-18	1.34933466929743E-17
62	3.17015361395603E-17	1.65778825285023E-17	1.01653363275553	0.515363025528737	1.01653363275553	0.515363025528738	1.49870099060406E-17	9.96940097700073E-18
62.1	-4.37828544094978E-18	-1.80380892031371E-18	1.09304556926016	0.359664780354482	1.09304556926016	0.359664780354482	9.7744368410192E-18	8.99777405645352E-18
