# GHZ S RI R 50
50	1.48428091111736E-18	-1.83853390920799E-17	0.771174707303454	-0.547676200873437	0.771174707303454	-0.547676200873437	7.23893622770539E-18	6.6354381921031E-18
50.1	1.62081086188573E-19	4.12132683782794E-17	0.648601345715588	-0.654070630640997	0.648601345715588	-0.654070630640997	-1.10759325686935E-17	-4.32284662204776E-18
50.2	-8.16830167152038E-18	-2.31310065444926E-17	0.545891423679323	-0.74742587820317	0.545891423679322	-0.74742587820317	1.79399771886941E-17	1.2209809018929E-17
50.3	-1.98849474317405E-17	-1.83935153686716E-17	0.424765566840248	-0.854760600869045	0.424765566840247	-0.854760600869044	2.60531359843681E-17	-4.868944489361E-18
50.4	-6.30228791113783E-18	-2.31601317742153E-17	0.237830336634296	-0.87595102943403	0.237830336634296	-0.875951029434029	3.38033420864695E-18	-1.70696470855457E-17
50.5	-1.33127736441829E-17	-1.80771392000238E-17	0.127627569506018	-0.932705954010315	0.127627569506018	-0.932705954010315	2.30684842069671E-18	-2.5486994673576E-18
50.6	-2.36796588926459E-17	4.55242338885511E-18	-0.0448368382103141	-0.928961602940286	-0.044836838210314	-0.928961602940287	1.49352634023473E-18	-1.44508367406439E-19
50.7	-1.53306607933719E-18	-1.1386208018647E-17	-0.180995433739158	-0.905804345432516	-0.180995433739158	-0.905804345432516	9.33648781994546E-18	-6.79860810482679E-19
50.8	-3.39020974372685E-18	1.491158746218E-17	-0.34678421002824	-0.887560468414762	-0.34678421002824	-0.887560468414762	-4.0978075640716E-18	4.85043913977371E-18
50.9	1.76758162350535E-17	-5.24532256475361E-18	-0.467422409541001	-0.785224613782723	-0.467422409541001	-0.785224613782724	-7.53261023655833E-18	-7.38087407176186E-18
51	1.05234021634367E-19	8.59193675983518E-18	-0.607558303014211	-0.718987908250573	-0.60755830301421	-0.718987908250572	1.66710319426562E-17	2.82062867357785E-18
51.1	1.45604792548693E-17	-5.01303484825395E-18	-0.711439507803817	-0.606855638662706	-0.711439507803818	-0.606855638662707	-1.25873226194416E-18	1.7370732644721E-18
51.2	-1.11369313389846E-17	1.09240627793131E-17	-0.794481007218211	-0.479754186817971	-0.794481007218211	-0.479754186817971	-9.95248023734565E-18	3.54740674041704E-18
51.3	2.79678199919417E-17	2.7664034195016E-17	-0.867087502865108	-0.346682336526081	-0.867087502865108	-0.346682336526081	3.83509601346835E-18	3.65025275676237E-18
51.4	-6.7114567476813E-18	-3.37045390775099E-18	-0.928963565800468	-0.220158698960153	-0.928963565800469	-0.220158698960153	1.0631138206447E-17	-1.41231824018931E-17
51.5	-2.68618495734536E-18	-7.65073340524073E-18	-0.917806208593912	-0.036993121032057	-0.917806208593912	-0.0369931210320571	-1.44485512861669E-17	6.17544369918205E-18
51.6	-1.07212215281244E-17	-2.42739973917291E-18	-0.936475214540613	0.0801670681801104	-0.936475214540612	0.0801670681801102	-4.8423048960012E-18	1.24984454488541E-17
51.7	-1.7372730799011E-17	-5.49017799450567E-19	-0.926486732336835	0.233220339144005	-0.926486732336835	0.233220339144005	-5.14248090802346E-18	5.66934898750363E-17
51.8	7.40380112868433E-18	2.1359130589097E-17	-0.81848764622873	0.371824639937409	-0.81848764622873	0.371824639937409	3.53462337981388E-17	1.09088271738083E-18
51.9	-4.7770783268902E-18	1.2972820304531E-17	-0.822429880516097	0.504722109510092	-0.822429880516097	0.504722109510091	-1.41744459190514E-18	-4.34320492408796E-18
52	7.42705761456536E-18	-1.4430338264919E-17	-0.670040443138217	0.635773637704996	-0.670040443138217	0.635773637704996	-8.59610530271175E-18	-5.63860557524056E-18
52.1	8.99229630443472E-18	1.28897431108891E-17	-0.570325704130991	0.718276302992008	-0.570325704130991	0.718276302992008	2.48742426194651E-17	1.03177264353398E-17
52.2	2.76430937957705E-18	1.08728806196061E-18	-0.477242249974884	0.805739380846582	-0.477242249974883	0.805739380846581	-1.19352004459481E-17	-1.86135787175246E-17
52.3	2.68777595212636E-18	-6.077976105182E-19	-0.348356278610423	0.871664872766851	-0.348356278610423	0.87166487276685	3.60081623503069E-17	1.31551389622782E-17
52.4	1.33536608139495E-18	1.00052018177325E-18	-0.190988112803195	0.946936871234816	-0.190988112803195	0.946936871234816	2.26207818414712E-17	1.3023859610794E-17
52.5	-1.21687528138089E-17	5.86012981982053E-18	-0.0686606263564058	0.892898774638061	-0.0686606263564062	0.892898774638061	-2.56476469764226E-17	-2.5601129862295E-18
52.6	1.54622401482812E-17	-5.72387490922094E-19	0.068491025045431	0.963868662034322	0.0684910250454312	0.963868662034322	-2.25630201209598E-17	-2.05021907513739E-17
52.7	1.90109287859379E-17	-3.76219184863936E-18	0.278952588877271	0.928531051917068	0.278952588877271	0.928531051917068	-2.4440811934872E-17	4.4171606247498E-18
52.8	-2.2219279586281E-17	4.20129661397113E-18	0.302692691256441	0.774117104939321	0.302692691256442	0.774117104939321	-4.05875823951183E-19	1.01613884650641E-17
52.9	3.64898091807164E-18	-6.68171915810127E-18	0.587125951071964	0.862545501275422	0.587125951071965	0.862545501275422	-2.24693251251546E-17	-4.79741753451997E-18
53	4.31745317451237E-18	1.01990406669771E-17	0.590811027405727	0.665458072935878	0.590811027405728	0.665458072935879	6.80153331396307E-18	1.25704656968691E-17
53.1	2.33123183959691E-17	-4.26666357147668E-17	0.711118322612537	0.630999331255166	0.711118322612536	0.630999331255165	-4.41140307798254E-17	-2.55076087404472E-17
53.2	-1.04700525772424E-17	-1.15208225752759E-17	0.853280787337708	0.495270850476132	0.853280787337708	0.495270850476132	-4.31442346809821E-17	-6.35334015690981E-19
53.3	2.68869845700208E-17	2.66717444347615E-18	0.865301756243736	0.372843043539025	0.865301756243736	0.372843043539025	1.66560191242855E-17	-4.96407628880723E-17
53.4	1.87665415058264E-18	-8.00776475353591E-19	0.895379095325161	0.1731672252812	0.895379095325161	0.1731672252812	5.0981553952016E-18	-4.94834123312748E-18
53.5	2.42590750825859E-17	2.52535549588589E-17	0.970164956191076	0.125323119436563	0.970164956191076	0.125323119436564	-2.84837677157556E-17	-2.55053733416915E-17
53.6	-6.42350225959458E-18	2.39954905817025E-17	0.95957086285065	-0.0832621745635023	0.95957086285065	-0.0832621745635027	2.44112827568132E-17	8.80140131204704E-18
53.7	-1.24742832741286E-17	1.05102899275633E-17	0.866442780442896	-0.234191683281809	0.866442780442895	-0.234191683281809	5.33098661098044E-18	2.55304574812593E-18
53.8	-1.26528267271321E-17	-2.04082231845737E-18	0.972591904343502	-0.314489767884771	0.972591904343501	-0.314489767884771	-1.25712481638546E-17	1.35507342177927E-17
53.9	-2.22947168684954E-17	5.86255573267149E-18	0.824310773116819	-0.486816500430566	0.824310773116818	-0.486816500430566	-1.57474582472586E-17	-1.09516485491569E-17
54	1.63912546291694E-17	1.19671506957777E-17	0.721076572632555	-0.599385720281863	0.721076572632555	-0.599385720281862	2.6145036299453E-18	-5.71927197442378E-18
54.1	1.43661320155377E-17	-5.34787867410699E-19	0.648031963912568	-0.67260418999336	0.648031963912568	-0.672604189993359	-4.81814056670174E-18	-7.39224173425856E-18
54.2	7.4142111980497E-19	-2.62350568293821E-19	0.549666773933876	-0.777562328240411	0.549666773933875	-0.77756232824041	2.04174101910894E-18	-1.07335074157164E-17
54.3	-3.79508774016139E-18	-1.99720195063479E-17	0.376289278717812	-0.870183969109072	0.376289278717813	-0.870183969109072	-2.40394954512737E-17	-7.36100936442398E-18
54.4	-2.88832019221468E-18	3.25740416048188E-18	0.32451597889332	-0.855121339261073	0.32451597889332	-0.855121339261073	-3.82964307164527E-18	2.18176052079939E-17
54.5	7.12324762489513E-18	-1.02139245807897E-19	0.114835739669737	-0.991379110901281	0.114835739669736	-0.99137911090128	4.89842057043372E-17	2.57009675208633E-17
54.6	-1.65184989314406E-17	-5.28989474511608E-18	-0.0179523489522253	-0.924076772034065	-0.0179523489522255	-0.924076772034065	8.30895524133585E-18	-1.51528583462775E-17
54.7	1.10033029911301E-17	-8.31462957137116E-18	-0.135407484862834	-0.96867484933889	-0.135407484862834	-0.968674849338889	1.48312502005901E-17	-2.66631448659026E-17
54.8	-5.29283960210575E-18	-2.32672957038892E-19	-0.302971184295716	-0.928513244982304	-0.302971184295716	-0.928513244982303	-1.95199937787596E-18	-2.67267217938384E-18
54.9	-1.56266607066029E-17	2.10327244808897E-18	-0.432500952108185	-0.847022139796344	-0.432500952108185	-0.847022139796344	-6.81498873835529E-18	-3.96490006926228E-18
55	6.51261440187858E-18	7.87922960774565E-18	-0.543632634027546	-0.803152577421467	-0.543632634027546	-0.803152577421467	6.96687106935124E-18	8.93980269909004E-18
55.1	1.25604986898778E-17	-2.88009309703458E-18	-0.674289192066091	-0.706632522958164	-0.674289192066091	-0.706632522958164	1.3534744852227E-17	-5.99258233352503E-18
55.2	-9.65008985168344E-18	4.17481439945168E-18	-0.746337168657289	-0.598905644005507	-0.746337168657289	-0.598905644005507	-1.02444712141294E-17	-2.05069225450999E-17
55.3	6.06627586798093E-18	-1.28301852295905E-17	-0.846940399382349	-0.459527088628661	-0.846940399382348	-0.45952708862866	1.08355037877611E-17	-9.92758344665211E-18
55.4	3.44928179298057E-18	-1.63233313309602E-17	-0.900994408228421	-0.371702432092428	-0.900994408228421	-0.371702432092427	6.93837132593105E-18	-1.86637660368053E-17
55.5	-1.08122445276531E-17	3.52659970100496E-18	-0.965787067222657	-0.204602529741717	-0.965787067222657	-0.204602529741717	2.05961320872593E-17	-4.73504731495618E-18
55.6	-6.13584850747186E-18	-1.2381823924701E-17	-0.959218185249882	-0.0769816595220327	-0.959218185249881	-0.0769816595220329	-1.19181289171422E-17	-6.80704690000558E-18
55.7	4.47897435710042E-18	1.22198438084591E-17	-0.985162324941705	0.0602164763860044	-0.985162324941705	0.0602164763860046	1.27665979799913E-17	8.64902141475656E-18
55.8	-6.97040549815954E-18	2.01061325099663E-17	-0.956802103331193	0.219836214154164	-0.956802103331192	0.219836214154163	-5.42142649856853E-18	1.56381030633071E-17
55.9	1.26049528989174E-18	-1.10381891063322E-18	-0.919913016131162	0.345852416735261	-0.919913016131162	0.34585241673526	-7.56297173935041E-18	6.62291346379931E-18
56	-1.25106772973178E-17	-7.25084608958763E-18	-0.83384833967939	0.480497345423891	-0.83384833967939	0.480497345423891	-4.67540551798238E-18	-1.75657985661382E-17
56.1	-4.25347432937399E-18	1.45549795687441E-17	-0.788573634511897	0.591107659080391	-0.788573634511897	0.591107659080391	3.90644333860937E-18	4.65226468062335E-18
56.2	7.8615620311531E-18	1.3613283084739E-17	-0.696682674205146	0.713081973593776	-0.696682674205146	0.713081973593776	1.70755085691033E-17	-7.29542533258253E-18
56.3	-1.88378605394258E-17	-5.25355685565987E-18	-0.534729657359651	0.803421826053248	-0.534729657359651	0.803421826053248	-3.73271276937619E-17	-2.64166892713583E-17
56.4	4.24086179386917E-18	3.35680967295464E-18	-0.472255899172359	0.873456264156717	-0.472255899172359	0.873456264156717	2.24560392399157E-17	-1.87840768672565E-17
56.5	5.09607442387749E-19	1.08654846326238E-17	-0.322301737674442	0.951772303159883	-0.322301737674442	0.951772303159882	8.18057324760953E-18	2.39012380511107E-17
56.6	-8.10909972853867E-18	-3.91875695107942E-18	-0.173345944450211	0.953959328395468	-0.173345944450211	0.953959328395469	8.40105447202228E-18	-3.81125424469966E-18
56.7	-1.3748517415474E-17	2.25023998383365E-17	-0.041775067113343	0.98459653577917	-0.0417750671133428	0.98459653577917	1.39663649682409E-17	1.4713664333448E-17
56.8	1.23667595769521E-17	-2.80796731355956E-19	0.0825530076920379	1.00081509145242	0.0825530076920382	1.00081509145242	-9.93464984048633E-18	2.29302770617029E-17
56.9	3.12552891156454E-18	9.66698025571949E-18	0.232223320965096	0.953363708370184	0.232223320965096	0.953363708370184	2.6167351086703E-17	1.4956417754886E-18
57	-2.33060817945754E-17	9.06230573446214E-18	0.388896230249565	0.877324325669194	0.388896230249565	0.877324325669195	8.84054371110151E-18	1.87929074449647E-17
57.1	-1.14531454655468E-17	6.93173901833312E-18	0.496035150659337	0.843306921013261	0.496035150659337	0.843306921013262	-3.07520690454202E-18	3.62877024535359E-17
57.2	4.16642152058945E-18	-1.69877574583422E-17	0.619726817375572	0.790088081540073	0.619726817375572	0.790088081540072	4.83023837746806E-17	-1.33668066402054E-17
57.3	1.20996023076509E-17	9.42563425689607E-19	0.759087390184442	0.620299506891601	0.759087390184441	0.620299506891601	3.31841647384556E-17	5.85809363771282E-20
57.4	9.50332174898305E-18	-1.81586107142127E-17	0.771376519615268	0.543488566683995	0.771376519615268	0.543488566683996	-1.1490539714522E-18	-3.07544885393871E-17
57.5	-2.16810830689977E-17	-7.45679481693906E-18	0.898828146375742	0.441968411583007	0.898828146375743	0.441968411583008	-3.02530402481884E-17	-1.07367300701768E-17
57.6	-7.1930659154135E-18	-4.69938798161827E-18	0.953914955141934	0.283988915012477	0.953914955141935	0.283988915012476	1.95266618220099E-17	-1.61139391466602E-18
57.7	-3.6217759085558E-18	-9.40312057892809E-18	0.941248413158852	0.145668778306943	0.941248413158852	0.145668778306943	4.26234922439327E-18	2.17712589227395E-18
57.8	7.00007390586526E-18	1.7485719894751E-17	0.989836243820941	0.0310201036756823	0.989836243820942	0.0310201036756825	-2.85491624861861E-17	6.73212971111481E-18
57.9	2.74941703075908E-17	-2.20240463951288E-17	0.997820549706037	-0.0948794585928603	0.997820549706036	-0.0948794585928606	2.85087402472367E-17	-1.78931911150858E-17
58	-9.07032133698247E-18	-1.58940572950113E-17	0.932291822508452	-0.293116143045934	0.932291822508452	-0.293116143045934	-1.21516301403096E-17	-2.03099097864168E-17
58.1	2.86597204610488E-17	8.37622132244938E-18	0.871363240779253	-0.368176432096798	0.871363240779252	-0.368176432096798	7.72179854879598E-18	7.50624837433273E-18
58.2	2.22422703385517E-17	-1.54091539172431E-17	0.84546244367868	-0.5170076747578	0.84546244367868	-0.517007674757799	1.16448837598748E-17	1.74444786745592E-17
58.3	-6.47675454542901E-18	3.30337147018439E-17	0.744236479304093	-0.644330360235214	0.744236479304093	-0.644330360235213	5.70363000547561E-19	1.36707243216174E-17
58.4	-7.42718087526632E-18	3.38920125385846E-18	0.645111887994338	-0.676570002131759	0.645111887994338	-0.676570002131759	1.25470455925844E-17	8.50871328117979E-18
58.5	-7.7950795384925E-18	-6.55644198537822E-18	0.582949336774281	-0.816798092833101	0.58294933677428	-0.816798092833101	2.8391281965188E-18	8.2599189032895E-18
58.6	1.30259570731627E-17	3.71776172896767E-19	0.428606213795287	-0.882106079938922	0.428606213795287	-0.882106079938922	4.21572729320341E-18	-5.43624814126545E-18
58.7	-1.86437769635972E-17	5.64485555755691E-18	0.295130565889997	-0.900686369304747	0.295130565889997	-0.900686369304747	-1.04906203503995E-17	-4.80204470217483E-18
58.8	3.95067558000198E-18	-5.40295434110169E-18	0.185728140425108	-0.949370935067405	0.185728140425107	-0.949370935067404	-2.82291853833689E-18	5.86176675193579E-18
58.9	1.41042107089286E-17	-1.50716200643268E-17	0.069808258475057	-0.984857662077236	0.069808258475057	-0.984857662077236	1.99681044925056E-17	-2.27931684878403E-18
59	-2.25623030053444E-17	-4.79364415756643E-18	-0.107255433219156	-0.957690358505925	-0.107255433219156	-0.957690358505925	-1.13984933052966E-17	7.27143065215541E-19
59.1	-5.9343269638266E-19	7.30873798390463E-18	-0.20539586933009	-0.937477638853041	-0.20539586933009	-0.937477638853041	1.24522163996223E-17	-9.24933806283107E-18
59.2	3.71396703737835E-18	-3.6148746369582E-18	-0.336324288433913	-0.937725665638228	-0.336324288433913	-0.937725665638228	-4.87654804824739E-18	2.20262956031428E-18
59.3	2.83200405372257E-18	6.46360878333906E-18	-0.488601322100277	-0.82651634050015	-0.488601322100277	-0.82651634050015	2.31027176278859E-17	-5.2156377791249E-19
59.4	6.97944918268748E-19	1.56534039108263E-17	-0.563701757849192	-0.78588454767855	-0.563701757849192	-0.78588454767855	8.70171844552053E-18	4.65797210672618E-18
59.5	-2.51076649439778E-18	1.19903269684023E-20	-0.696248710176471	-0.692931668939552	-0.696248710176471	-0.692931668939552	2.00741416282139E-17	-2.606689110145E-18
59.6	1.18751650797503E-17	-4.87773929512131E-18	-0.771337633047773	-0.57102398394518	-0.771337633047773	-0.57102398394518	5.17959216782279E-18	-4.92207415176485E-18
59.7	-7.27350162498806E-18	-1.7096456157722E-17	-0.854075640374751	-0.485064529812776	-0.854075640374751	-0.485064529812776	-5.8315222197871E-18	7.37509810693744E-18
59.8	5.01010935330446E-18	-8.03638313051197E-18	-0.921818525534827	-0.356120110585372	-0.921818525534827	-0.356120110585371	-2.56572807598193E-18	-3.4743987317271E-18
59.9	-1.48705920595667E-17	1.0204945403589E-17	-0.94979111621673	-0.237594408695318	-0.94979111621673	-0.237594408695319	-7.06701271255942E-18	-2.05359515844772E-21
60	1.11261169474863E-17	-2.64773286092303E-17	-0.970267779776861	-0.0810685827281929	-0.970267779776862	-0.0810685827281927	1.33986669887069E-17	-1.02524596406853E-17
60.1	1.99746210408108E-18	4.7034899441003E-18	-0.964387361490944	0.0385217703844725	-0.964387361490944	0.0385217703844725	-1.54315886096474E-17	-1.05182439225483E-17
60.2	-1.91094946634911E-18	2.39996529279947E-18	-0.978542295266097	0.153075625465269	-0.978542295266097	0.153075625465268	5.09045251584863E-18	1.94162547769878E-18
60.3	3.90372118115728E-18	-3.09928023939553E-18	-0.924091654855014	0.322228754585567	-0.924091654855014	0.322228754585567	1.70678672172672E-17	-1.8827451994486E-18
60.4	1.44367248801795E-17	-4.29994249150354E-18	-0.869141355530561	0.39820541424732	-0.869141355530561	0.39820541424732	4.85664452230721E-18	-1.41304171322636E-17
60.5	-2.22540164291219E-17	-5.74212225434174E-18	-0.82111991419042	0.544567892164644	-0.82111991419042	0.544567892164645	-2.67331215950291E-18	1.71517663413383E-17
60.6	2.05597557980452E-17	-3.98092411221526E-18	-0.734357138314761	0.644279898316899	-0.734357138314761	0.644279898316899	-1.31836790785629E-18	-2.67768176802314E-18
60.7	-2.01401278816332E-18	-2.20690492557474E-18	-0.636777631129995	0.741543838480137	-0.636777631129994	0.741543838480137	1.06963056767168E-18	1.51301939944317E-18
60.8	1.11585667011143E-17	-1.35975260775952E-17	-0.533746039752407	0.827703046596726	-0.533746039752407	0.827703046596726	4.20038572532366E-18	-3.98064675320704E-18
60.9	5.43969983930288E-18	-1.68387522453468E-17	-0.425832154068658	0.891366915512714	-0.425832154068658	0.891366915512714	6.86219421387802E-18	-3.05686037198739E-17
61	-5.29458901191165E-18	-1.31967960174644E-17	-0.287629732384397	0.941396178001822	-0.287629732384397	0.941396178001822	-5.61303841065814E-18	-7.83714630958121E-18
61.1	1.19489773797259E-17	-7.36364184039215E-18	-0.157130688205193	0.956546731271787	-0.157130688205193	0.956546731271787	-6.52105060486233E-18	3.38974490511303E-18
61.2	4.99299566806915E-18	9.59486491683369E-18	-0.0424839952028104	0.97704820424666	-0.0424839952028109	0.97704820424666	6.18273904555415E-18	-1.36174094796099E-17
61.3	1.58259413853849E-17	6.97246854660363E-18	0.0962815741085651	0.9910040973719	0.0962815741085651	0.9910040973719	1.59536744921601E-17	9.23160974935145E-19
61.4	7.99245236204709E-18	-9.53574039023146E-18	0.257661736641677	0.944161843316577	0.257661736641677	0.944161843316577	1.64040465208358E-17	-2.44011577375096E-18
61.5	4.52644272373636E-18	1.51664500081115E-17	0.333768207266883	0.902770194249024	0.333768207266883	0.902770194249024	-2.88436059981355E-18	2.25718184528384E-17
61.6	1.82879641491891E-18	1.36175177349309E-17	0.487012926283856	0.881434407139164	0.487012926283855	0.881434407139164	-1.70149625410412E-18	-8.86206422071586E-18
61.7	-1.45865549242259E-17	-1.18455075201667E-17	0.606054052550642	0.787712892301989	0.606054052550641	0.787712892301989	6.22240225113163E-18	-1.00945721462755E-17
61.8	-6.73785622231974E-18	1.77550051681875E-17	0.683771343739951	0.690812105378898	0.683771343739951	0.690812105378898	-7.57615336285558E-18	1.95902825259065E-17
61.9	6.52566602413407E-18	-2.57076084425744E-17	0.778886400911507	0.589884805077255	0.778886400911506	0.589884805077254	-1.77401034439541E-18	2.86497623981996E-18
62	1.65628171444305E-17	1.61046655541071E-17	0.85126351050646	0.504431269126204	0.85126351050646	0.504431269126204	8.03372208060909E-18	1.41064005331872E-18
