# GHZ S RI R 50
50	1.2873418368297E-17	2.14723302968115E-18	0.774849825726217	-0.544832515390351	0.774849825726217	-0.54483251539035	-2.9524403365299E-18	5.92533716132452E-19
50.1	2.0324819555105E-17	-1.99076690215723E-17	0.652734755699803	-0.651955807512605	0.652734755699803	-0.651955807512605	9.59155659865633E-18	4.44077266232404E-18
50.2	-5.9299084922136E-18	-9.09186026966993E-18	0.550367075661305	-0.74606164705974	0.550367075661305	-0.74606164705974	1.27169741074604E-17	7.52894440888816E-19
50.3	2.6361036441673E-17	4.5115004039993E-17	0.429492682357746	-0.854215835997583	0.429492682357746	-0.854215835997584	-1.63859293557044E-17	-6.09919312383111E-18
50.4	-3.81773717361227E-18	-1.3157528281679E-17	0.242536806021138	-0.876320577302438	0.242536806021137	-0.876320577302437	7.12928597032755E-18	-9.10353255919259E-18
50.5	2.38111831103889E-17	4.54383558369356E-17	0.132286639039192	-0.933868714909179	0.132286639039192	-0.93386871490918	-8.58243567741167E-18	-8.74839901516396E-19
50.6	-2.8839459383902E-17	-1.26884406163226E-18	-0.0404572144006152	-0.93097549333269	-0.0404572144006151	-0.93097549333269	3.84863841770169E-18	-7.89538740941407E-18
50.7	-3.13709550504746E-19	-8.69281451431844E-18	-0.177015908876853	-0.908554540283479	-0.177015908876853	-0.908554540283479	-3.87118787060759E-18	-1.63924257934768E-18
50.8	4.10631787551378E-18	1.86825635242015E-17	-0.343297553742784	-0.891040970116355	-0.343297553742783	-0.891040970116356	-2.74789229986135E-17	1.20658932005448E-17
50.9	4.19464600199129E-19	-9.75189827741725E-18	-0.464638807257063	-0.789241606164479	-0.464638807257063	-0.789241606164479	3.10386372755022E-18	-1.15904207061809E-17
51	-5.05906370263805E-18	-6.78786244575799E-18	-0.605481008342508	-0.723506290590976	-0.605481008342508	-0.723506290590976	4.83167327549516E-18	-7.0356278711773E-19
51.1	1.95931489017665E-17	-2.93608398198815E-18	-0.710182263137281	-0.611689201391672	-0.710182263137281	-0.611689201391672	1.02505014890944E-17	-1.38641433130798E-17
51.2	-9.87774807499849E-18	1.77365916883779E-17	-0.794088423530164	-0.484752580772269	-0.794088423530164	-0.484752580772269	4.65582423573063E-18	-4.0804829387138E-18
51.3	-5.8484594115465E-18	-4.61546659880787E-18	-0.867573138443849	-0.351717832984164	-0.86757313844385	-0.351717832984164	4.20224918330973E-18	-6.51418237228421E-18
51.4	1.38602487453633E-17	-2.27167027782851E-20	-0.930297109030994	-0.225111244351779	-0.930297109030994	-0.225111244351778	8.28430256682273E-20	4.50986688989973E-18
51.5	1.61603472822793E-18	2.54714823246146E-18	-0.92003310286406	-0.0415818580502624	-0.920033102864059	-0.0415818580502625	9.25948613420092E-18	3.7934943995031E-18
51.6	1.04080799029498E-17	-5.59661170539223E-18	-0.93942864895734	0.0759321211966636	-0.93942864895734	0.0759321211966635	5.48304689364412E-18	-9.47883791812119E-18
51.7	8.98252190092485E-18	-1.37133712566678E-17	-0.930164756617154	0.229501978092034	-0.930164756617154	0.229501978092034	-5.32478643115191E-18	-7.99424516954348E-18
51.8	-8.01212249250544E-18	-9.02692088153184E-18	-0.822720171472321	0.368895274310678	-0.822720171472321	0.368895274310678	-5.04011763476051E-18	2.95071979314226E-17
51.9	2.2331154550178E-17	-7.73740117894057E-18	-0.827198399470214	0.502385479914317	-0.827198399470213	0.502385479914316	-1.88000157125408E-17	-6.10640427160689E-18
52	-1.50915534584869E-18	2.78989712596625E-19	-0.675139480564469	0.634413903646406	-0.675139480564469	0.634413903646406	-2.18104864075367E-17	1.48652987605731E-17
52.1	4.53928176359226E-18	1.18034513378339E-19	-0.575585020718694	0.717763394452512	-0.575585020718694	0.717763394452512	2.02221069449637E-17	-1.72873076617345E-17
52.2	-8.02503441539436E-18	6.90549427603303E-18	-0.482582284041156	0.806064697994674	-0.482582284041156	0.806064697994674	9.30399175653662E-18	1.4122351396757E-17
52.3	1.39355264237228E-18	1.9564159155045E-17	-0.353602818062975	0.872882206826989	-0.353602818062975	0.872882206826988	-2.0380757197499E-19	-1.30540954129175E-17
52.4	-1.50895789977752E-17	-1.84896479968747E-17	-0.196047251663574	0.949092845303832	-0.196047251663575	0.949092845303832	1.6312500345541E-17	-2.1352619177639E-17
52.5	-2.40729109578813E-17	-4.09056289664075E-19	-0.0731674255011901	0.895754598039214	-0.0731674255011896	0.895754598039214	-1.60085812042635E-17	5.41676296386043E-17
52.6	-7.8121364439405E-18	9.27094649925026E-18	0.0643238370293159	0.967517036886865	0.0643238370293158	0.967517036886865	1.649609052824E-17	2.49478421767666E-17
52.7	4.90499594031974E-18	7.58076632431151E-18	0.275513197594453	0.932982083976578	0.275513197594453	0.932982083976578	9.32412428027571E-18	-1.58097801863191E-17
52.8	6.26923709595199E-18	-5.67653177645291E-18	0.300160292934066	0.77870245031452	0.300160292934066	0.77870245031452	-8.11413085591068E-18	3.42398821025825E-17
52.9	-1.22101728331732E-17	7.36511259341522E-18	0.585178606361448	0.868084814286899	0.585178606361448	0.8680848142869	-1.70346353393862E-17	2.1821124000393E-17
53	-2.29882171375364E-17	-5.7562185812609E-18	0.589919714045421	0.670876136252208	0.589919714045422	0.670876136252208	-2.25923628868185E-18	-4.13009186549312E-18
53.1	1.14776526122176E-17	-1.12055436746191E-17	0.710987397199481	0.636657155264819	0.71098739719948	0.636657155264819	-1.11604649498177E-17	-1.46620212513527E-17
53.2	7.26970062348787E-19	2.39567506901435E-17	0.854186117274238	0.501022329779046	0.854186117274238	0.501022329779047	-5.65152436414368E-18	1.77781039233441E-17
53.3	-1.78965312496746E-17	1.25299566587413E-18	0.867047670750065	0.378278546194111	0.867047670750065	0.378278546194111	5.20805055018992E-18	-2.17740627196403E-17
53.4	1.55443493346857E-17	-3.76404009498638E-17	0.8981516435154	0.178157699446968	0.8981516435154	0.178157699446968	-5.0925095960488E-17	-5.95828068334493E-17
53.5	7.18423217066289E-18	-1.36547318377018E-17	0.973556456077119	0.130087123149384	0.973556456077119	0.130087123149384	-1.97348969643732E-17	1.19741007427185E-17
53.6	2.82708383547455E-17	1.89999713732565E-18	0.963844762259258	-0.0792054300713572	0.963844762259258	-0.0792054300713574	-1.51661537286991E-17	-3.20248807858125E-17
53.7	-1.32245471700497E-18	-1.54729213678669E-17	0.871276727139744	-0.231061067508342	0.871276727139744	-0.231061067508342	-3.75132080465597E-18	-1.08417194296909E-17
53.8	-1.58634443744989E-18	-2.23583627822566E-18	0.977957078951133	-0.311692379794243	0.977957078951133	-0.311692379794243	1.08668971922369E-17	-9.95106118521653E-18
53.9	1.72959990413617E-17	-1.30181074502464E-18	0.830047149627181	-0.485179103049996	0.830047149627181	-0.485179103049996	1.97519143516468E-17	-2.20026377349697E-17
54	-1.03675416893149E-17	-7.12019063038448E-18	0.726989116184548	-0.598732943634187	0.726989116184548	-0.598732943634187	8.47100849147163E-18	4.79005994182052E-18
54.1	2.28972681064362E-17	-6.50252425764794E-19	0.65395853274876	-0.672793749518487	0.65395853274876	-0.672793749518487	2.99661387062521E-17	-2.07113022599311E-17
54.2	-7.10540760831943E-18	4.96266921392066E-18	0.555575360528728	-0.778692731684853	0.555575360528728	-0.778692731684853	-4.35794532299905E-18	1.66071934807429E-17
54.3	-9.24935558032178E-18	-5.3802325364141E-18	0.381956380625623	-0.87242124837983	0.381956380625624	-0.87242124837983	2.35710914443042E-18	1.06720550828418E-17
54.4	-9.53712540481646E-18	6.19841808437294E-18	0.329731242517844	-0.857911048035096	0.329731242517844	-0.857911048035096	1.55754410308893E-17	2.34292611485657E-19
54.5	-3.99240095306578E-20	-7.1884803795335E-18	0.119728053281614	-0.995348403950934	0.119728053281614	-0.995348403950934	-1.52038765639389E-17	3.4673592576101E-18
54.6	1.92639119747464E-17	-6.56543923329551E-18	-0.0139168548989714	-0.928638242212216	-0.0139168548989714	-0.928638242212215	1.6182964139733E-17	-9.46703437352286E-18
54.7	3.20414607531339E-18	1.47584723117361E-17	-0.131923343669993	-0.973871856588207	-0.131923343669993	-0.973871856588207	1.25327556575597E-17	1.3921957212446E-17
54.8	7.67299688429881E-18	6.64968325618705E-19	-0.300398400178694	-0.934280543484088	-0.300398400178694	-0.934280543484087	1.94467195308947E-17	1.27810407232268E-17
54.9	1.42104835094813E-17	6.09351125102558E-18	-0.430926170361676	-0.853097231189586	-0.430926170361676	-0.853097231189585	3.89125014701505E-18	1.07439066525834E-17
55	-8.3931665851597E-19	8.56144917181263E-18	-0.542920396831586	-0.809450020417423	-0.542920396831586	-0.809450020417423	-4.92524084012751E-18	3.32357058764293E-18
55.1	-1.4029654497243E-17	-3.60233308567613E-18	-0.674620620994266	-0.713037316782521	-0.674620620994267	-0.713037316782521	-6.12076712646645E-18	-1.03833488000294E-17
55.2	-2.05253348511874E-18	5.77008469050763E-18	-0.747628319107184	-0.605136427689447	-0.747628319107184	-0.605136427689448	-9.18571353060626E-18	-4.6066397312036E-18
55.3	4.20339185530044E-18	-7.02537373770156E-18	-0.849300302801153	-0.465535273263441	-0.849300302801154	-0.46553527326344	-1.12941057209043E-17	4.50807346805114E-19
55.4	1.41666572912584E-17	-6.98833090418672E-18	-0.904138662701005	-0.377358549696041	-0.904138662701004	-0.377358549696041	1.59675720707892E-17	-1.34544661359381E-17
55.5	-3.88178119109152E-18	8.55586259872639E-18	-0.9699166174173	-0.209736352168691	-0.9699166174173	-0.20973635216869	-2.49724576239428E-17	2.19658748361202E-17
55.6	5.01830577067267E-18	-4.08739652365234E-18	-0.964018899585967	-0.0813859958469225	-0.964018899585968	-0.0813859958469224	-1.47105886529823E-17	9.02687490475451E-18
55.7	7.56430527042641E-18	6.01071766135771E-18	-0.99064424785385	0.056502516155095	-0.99064424785385	0.0565025161550946	1.83734247107999E-18	6.66613743393357E-18
55.8	1.17541161505188E-17	-1.84127398771905E-18	-0.962853151346343	0.217053240313002	-0.962853151346343	0.217053240313002	1.06092323768911E-17	-1.29746316726799E-18
55.9	-4.95531585119456E-18	2.0332656155654E-18	-0.926325683468024	0.343984772114182	-0.926325683468025	0.343984772114182	-7.27470171563538E-18	-7.14685352791643E-18
56	-1.52559246639212E-17	9.85759617831078E-18	-0.840467875427432	0.479720332351805	-0.840467875427432	0.479720332351805	1.56407870601796E-17	5.46401189816924E-18
56.1	6.42456897266808E-19	1.26469376236883E-17	-0.795313416812177	0.591236451503519	-0.795313416812177	0.591236451503519	-2.54815485539301E-17	3.14729812016742E-17
56.2	-7.70619300021811E-18	-5.112458324557E-18	-0.703403023988349	0.714263120559677	-0.703403023988349	0.714263120559677	-1.00143835723058E-17	-2.77427332735168E-17
56.3	-5.70603963509966E-18	-2.08126502205686E-18	-0.541112406747638	0.805782058303357	-0.541112406747638	0.805782058303357	3.35463679468006E-17	2.15973029613774E-17
56.4	7.80929438228823E-19	3.61163404341341E-18	-0.478356400199247	0.876585862674727	-0.478356400199247	0.876585862674728	-1.99501142584751E-17	1.69498976770577E-17
56.5	4.620431728588E-18	-1.60439870165845E-17	-0.327905522386743	0.955908688792909	-0.327905522386743	0.955908688792909	9.30532207954049E-19	-1.27415755755451E-17
56.6	-1.48964843436303E-17	-2.63921036553497E-18	-0.178153278523651	0.958876172005003	-0.178153278523652	0.958876172005002	2.72424014716756E-17	2.10930351053238E-17
56.7	1.13476273706325E-17	-2.37029839183002E-18	-0.0458695404734871	0.990217889658309	-0.0458695404734869	0.99021788965831	1.06696030087118E-18	6.94678949114496E-18
56.8	-3.6094111728837E-20	2.24064358649312E-17	0.0792351822699756	1.00700536392901	0.0792351822699761	1.00700536392901	1.0548027165085E-17	2.70026599119824E-17
56.9	-1.51189978477889E-17	9.96056536361925E-20	0.229961639696034	0.959980367284286	0.229961639696034	0.959980367284285	3.72307954689915E-17	2.84820620593902E-17
57	2.89890112014522E-17	9.10479275431763E-18	0.38780943953336	0.884239576942192	0.387809439533361	0.884239576942193	-2.43243706586606E-17	-7.00817561291563E-18
57.1	1.19898253609486E-17	-2.46005153232022E-17	0.495863109681145	0.850358858396437	0.495863109681145	0.850358858396437	4.4115014182592E-18	-4.19260679769155E-17
57.2	-8.56025147400822E-18	-9.47221850561565E-18	0.620549762921788	0.797204751780141	0.620549762921787	0.797204751780141	2.91780097832827E-17	7.38594591038917E-18
57.3	-1.07678205810267E-17	2.09951272058523E-18	0.761294598495244	0.627193362977302	0.761294598495244	0.627193362977302	-3.73148030848002E-17	1.58734848982902E-17
57.4	-8.83487749293112E-18	-3.00586312583483E-17	0.774314707026979	0.549853858985539	0.774314707026979	0.549853858985539	-1.06675140148469E-17	-2.07642152158927E-18
57.5	-2.17144752834849E-17	-6.74469817155547E-18	0.9027916499598	0.448080051617143	0.9027916499598	0.448080051617143	-3.56714059655194E-17	1.71268352117402E-17
57.6	6.9992265448591E-18	4.70527586630762E-19	0.958856262691425	0.289412149841561	0.958856262691425	0.289412149841561	7.95114796665681E-18	-7.2535062731128E-18
57.7	8.14649233153403E-18	1.1033935907132E-17	0.946863894809478	0.150166788163469	0.946863894809478	0.150166788163469	-7.79803743188929E-18	-3.27171385409455E-17
57.8	-2.83657460846163E-17	-1.98613068587692E-18	0.9961062486844	0.0348303598307325	0.9961062486844	0.0348303598307327	-1.20371556719813E-19	1.71913612634038E-18
57.9	2.53781235747435E-17	-5.35792083363344E-18	1.00460009658646	-0.0919461741689465	1.00460009658646	-0.0919461741689465	1.75207794221293E-17	-2.33667092872607E-18
58	-1.21350250294461E-18	4.90591251231029E-18	0.939560557688846	-0.291497999006116	0.939560557688846	-0.291497999006116	-1.29563370232201E-17	3.15502462258194E-17
58.1	-5.52384897629603E-18	5.60196138239326E-18	0.878606226692138	-0.367549281437165	0.878606226692138	-0.367549281437165	1.80189047181447E-17	-8.74943568789219E-18
58.2	-1.3591668602626E-17	2.79595128367722E-17	0.852944687981733	-0.517412154498359	0.852944687981733	-0.517412154498359	2.64565485277247E-18	2.66847598570415E-17
58.3	5.61723461981429E-20	1.37954069072053E-17	0.751606540309759	-0.645943323542198	0.751606540309759	-0.645943323542198	4.39346365435219E-18	-6.22526784415964E-18
58.4	4.7334505946485E-18	2.88413654744701E-18	0.651954980258409	-0.679089393775091	0.651954980258408	-0.679089393775091	3.44801531072422E-18	9.09098201377885E-18
58.5	-2.352423467489E-17	-3.29986086776775E-18	0.589681098570747	-0.820325776785001	0.589681098570747	-0.820325776785	-6.71311069567305E-18	2.25660172524727E-18
58.6	3.87082612546038E-17	8.52620612224795E-18	0.434654446131796	-0.886698381643562	0.434654446131796	-0.886698381643562	1.29520858549442E-17	1.67143813529035E-17
58.7	2.72150331370164E-17	8.44373944829004E-18	0.300329764583968	-0.906068781838694	0.300329764583969	-0.906068781838695	-1.24550827937462E-17	9.44659026802241E-18
58.8	3.43134989706193E-18	6.76950554045972E-18	0.190216974653245	-0.955456792293671	0.190216974653245	-0.95545679229367	-6.82502591645795E-18	7.86404744309313E-18
58.9	3.58336498037062E-19	2.08595840095691E-17	0.0734948911978656	-0.9915498842651	0.0734948911978657	-0.9915498842651	3.89798393450806E-18	-2.88665609551634E-18
59	-1.27605559930598E-17	-9.60487877556143E-19	-0.104780913824252	-0.964940043651463	-0.104780913824252	-0.964940043651465	-2.19255512602837E-17	1.44397825509853E-17
59.1	1.72181289248777E-18	-7.00694903122809E-18	-0.203882444725696	-0.944929264523813	-0.203882444725696	-0.944929264523814	-7.06802778422307E-19	-1.92527353390436E-17
59.2	1.0409510527459E-17	5.88517918827272E-18	-0.335781287322524	-0.94547068765881	-0.335781287322524	-0.94547068765881	1.43751344755555E-17	7.30327389991664E-18
59.3	1.73744377420997E-17	-1.44581889478061E-17	-0.489463614652038	-0.834218087866014	-0.489463614652038	-0.834218087866014	1.91868965976982E-17	-1.43748774870211E-17
59.4	-2.01056029415757E-18	-6.79088514126106E-18	-0.5654456862279	-0.793389863256388	-0.565445686227899	-0.793389863256387	-2.63108120956811E-18	2.57560787221698E-18
59.5	1.68700411836423E-18	7.85843585942262E-18	-0.699186309722582	-0.700217343025317	-0.699186309722582	-0.700217343025317	-1.69911196553206E-17	3.58445356315563E-18
59.6	4.03584015313257E-18	2.18050321438052E-18	-0.775339355510651	-0.577727344282178	-0.775339355510651	-0.577727344282178	9.71901530642787E-18	-7.13205424751176E-18
59.7	6.24458271310931E-19	3.57400292418612E-18	-0.858961925577688	-0.491266843647382	-0.858961925577688	-0.491266843647382	7.32017769302908E-19	-4.30621231316323E-19
59.8	-4.85919999292954E-18	2.04352699773603E-19	-0.927621178086862	-0.361588442008781	-0.927621178086862	-0.361588442008781	-8.1260967757558E-18	-5.13452685491363E-18
59.9	1.67606688282713E-18	-1.01895811276813E-17	-0.956264403683197	-0.242182505589098	-0.956264403683196	-0.242182505589098	-6.23478830254201E-18	-1.1532061601921E-17
60	-1.9738894799672E-17	-3.44300602179825E-18	-0.977437071582193	-0.0846072302766543	-0.977437071582193	-0.0846072302766542	3.68189399720688E-18	3.18465477116697E-18
60.1	1.00618745505924E-17	2.54420269135419E-18	-0.971941594129952	0.036020085699168	-0.971941594129952	0.036020085699168	1.25773431882405E-17	3.18025336419274E-18
60.2	2.27321832337312E-18	2.90742426013751E-18	-0.986438353017	0.151515657473866	-0.986438353017	0.151515657473866	-2.56477814840171E-18	6.24086748877203E-18
60.3	8.72115570457271E-18	-2.55222901642113E-18	-0.9322147176642	0.322019700656155	-0.9322147176642	0.322019700656155	1.03406632258476E-17	-1.34736897246466E-17
60.4	-1.30563385313888E-17	-1.35160021288383E-17	-0.877059889297267	0.399011064527714	-0.877059889297267	0.399011064527714	-1.0381638899605E-17	-1.57068283433502E-18
60.5	1.04469983593644E-17	-1.78535755254798E-17	-0.829036541352744	0.546555780181687	-0.829036541352744	0.546555780181687	-4.29575976928077E-18	1.88022239842271E-18
60.6	-7.99614495888579E-18	1.5032938267384E-17	-0.741896373967481	0.647379627678797	-0.741896373967481	0.647379627678798	2.2358015007822E-18	-3.93805325919072E-18
60.7	1.16601688318568E-17	-1.71929193500923E-18	-0.64382792974265	0.745721620225439	-0.643827929742649	0.745721620225439	1.49583332015505E-19	6.78576018499026E-18
60.8	2.48404485539697E-17	-1.49841309855048E-18	-0.540192563316669	0.832867249841493	-0.540192563316669	0.832867249841493	-3.78869567653095E-19	6.48810593220794E-18
60.9	1.14016929096316E-18	3.49249079705934E-18	-0.431531195354075	0.897376825414008	-0.431531195354075	0.897376825414009	-7.39628013148523E-18	2.24264189613177E-17
61	9.89583729186882E-18	5.19392418662205E-18	-0.292393542705154	0.948228225491984	-0.292393542705154	0.948228225491984	5.77154595250615E-18	-8.46867142874358E-18
61.1	-2.88122001285375E-17	-7.91934620741748E-18	-0.160837292471851	0.9639587595544	-0.160837292471851	0.963958759554401	-1.25567114017672E-17	5.32415582552978E-18
61.2	6.34934729826059E-18	2.30218928883557E-17	-0.045204799742784	0.984907551904017	-0.0452047997427841	0.984907551904017	1.43605021603494E-17	-8.83951886146956E-18
61.3	-1.21294122233907E-17	-4.48362036514264E-17	0.094651030419585	0.999283768147555	0.0946510304195853	0.999283768147554	4.85838964540405E-18	-9.49217911771308E-18
61.4	8.88540667677725E-18	8.50727136881457E-18	0.257406324977087	0.952635701792287	0.257406324977087	0.952635701792286	3.01424774039496E-17	-9.50653350602959E-18
61.5	-1.28208038407104E-18	8.58951658814786E-18	0.334522283255808	0.91105140047824	0.334522283255808	0.91105140047824	-9.0769288896042E-18	1.70811332590806E-17
61.6	-4.10045758437345E-18	1.64611123665241E-17	0.488944003733176	0.88980205614854	0.488944003733176	0.88980205614854	5.04331523410949E-18	3.73298059325184E-18
61.7	-6.27316433918137E-18	-3.49961399262389E-18	0.609242936091401	0.795699310025069	0.609242936091401	0.79569931002507	1.23067308705149E-17	-5.47268076707018E-18
61.8	-1.16262579299888E-17	-2.87945383424087E-18	0.688009275403022	0.698184225550882	0.688009275403022	0.698184225550882	-8.36957049818812E-18	2.37752425476207E-18
61.9	6.44201252048498E-18	4.33368439297705E-18	0.784177156150211	0.596635845679499	0.784177156150211	0.596635845679499	1.19855788628273E-17	5.4208809801306E-18
62	-1.90168519483858E-18	-1.07574094272104E-17	0.857379953524189	0.51049205325227	0.857379953524189	0.510492053252271	5.69447682877361E-18	-3.08671218969865E-18
