# GHZ S RI R 50
50	-1.0688527459266E-17	-5.37806966211751E-18	0.745358264954766	-0.523860033156707	0.745358264954766	-0.523860033156707	-2.70938414337916E-18	-9.75364264346164E-19
50.1	-2.29803098287601E-17	-8.28418656404962E-18	0.628367637281691	-0.625624919729536	0.62836763728169	-0.625624919729536	6.84941905854782E-18	-6.78975589184233E-18
50.2	-4.56728994100915E-18	-1.73760609451009E-17	0.531165271781803	-0.716907617820373	0.531165271781803	-0.716907617820373	2.40114298972046E-17	1.72317347603842E-17
50.3	1.79604878500528E-18	-1.11757526692393E-17	0.414393066694771	-0.822652231772153	0.414393066694771	-0.822652231772154	-1.70840635744585E-18	2.6392468647202E-18
50.4	1.76216670983692E-17	7.97439668212382E-18	0.235186647933346	-0.841491214935759	0.235186647933346	-0.841491214935759	3.92757112310547E-18	1.01251836821438E-17
50.5	2.09907803791029E-19	1.2017121221628E-17	0.129310786150168	-0.899951511739585	0.129310786150168	-0.899951511739586	-6.87983909483998E-19	-2.0187573397681E-19
50.6	1.90944416886807E-18	6.15084429890566E-18	-0.0369344198925586	-0.896672261775709	-0.0369344198925586	-0.896672261775709	6.84703826393963E-18	-1.96689486206809E-18
50.7	-1.23227745874391E-17	6.38547175453401E-18	-0.167815861640178	-0.876318307873032	-0.167815861640179	-0.876318307873032	-1.43636436154748E-17	1.25227501675482E-18
50.8	-1.98446080951277E-17	-8.87037567555158E-18	-0.329695006655885	-0.859933014200657	-0.329695006655884	-0.859933014200657	-2.22048465946684E-17	6.11131881740124E-18
50.9	-9.20632597370041E-18	2.55908243786825E-18	-0.444861890855003	-0.762292334262963	-0.444861890855002	-0.762292334262962	-1.30948571187351E-17	-4.29416185351843E-18
51	2.42740390940131E-18	-2.11019445069365E-17	-0.582303474655409	-0.699405372411988	-0.582303474655409	-0.699405372411987	-4.23896520539314E-18	-7.81096741260818E-19
51.1	1.70423940032083E-17	-1.10466524471755E-17	-0.683364690333236	-0.592203506410208	-0.683364690333235	-0.592203506410208	-1.61374118220611E-18	-1.12324307014541E-17
51.2	-6.28144889589611E-18	-7.78917482085639E-18	-0.764495763459538	-0.470421189704585	-0.764495763459538	-0.470421189704585	2.47102572096395E-18	-7.51085089793772E-18
51.3	3.35213892469723E-18	1.17402416341252E-17	-0.836223616586978	-0.342328090578434	-0.836223616586978	-0.342328090578434	6.9687925966172E-18	-5.0653280599575E-18
51.4	-4.18457984262927E-18	2.00467022670728E-18	-0.898585978377158	-0.220155424789131	-0.898585978377158	-0.220155424789131	-1.20813214889286E-18	2.71906428516693E-18
51.5	-1.21049241755161E-17	6.94330469376286E-19	-0.887242411681245	-0.0437639122746337	-0.887242411681245	-0.0437639122746335	1.78148962099689E-18	9.80518360214067E-18
51.6	7.05738080529239E-18	-1.09311994275222E-17	-0.908650977650689	0.0698093472534849	-0.908650977650689	0.0698093472534849	1.94703237695296E-17	-1.90456157686742E-17
51.7	3.08933903204978E-17	-7.58150475731611E-18	-0.900645196696034	0.219023502413409	-0.900645196696034	0.219023502413409	1.03865065609057E-17	1.64410770366247E-17
51.8	3.81605269946586E-19	8.35821885752481E-18	-0.796493898674989	0.351412721281986	-0.796493898674989	0.351412721281986	3.1198010089736E-17	1.0673763471065E-17
51.9	4.14644084774254E-18	5.20998913372043E-18	-0.803096463869392	0.483927300715933	-0.803096463869392	0.483927300715934	3.64827133824088E-17	1.58305218405076E-17
52	1.62334153328077E-17	-3.01613036344068E-18	-0.655001222314153	0.609779045603845	-0.655001222314154	0.609779045603845	-1.47293669527613E-17	-3.74421258160762E-17
52.1	1.56320041923875E-17	1.42403122269266E-17	-0.560366394834146	0.690927574324116	-0.560366394834146	0.690927574324116	2.37509551360493E-17	-1.37801147879369E-17
52.2	-1.37135129543604E-17	-1.22801114171078E-17	-0.471372949951682	0.778333797596233	-0.471372949951682	0.778333797596233	-1.44428534307751E-17	9.57662119043514E-18
52.3	-1.20799159796629E-17	3.37749184137245E-17	-0.346996316620536	0.844029538714024	-0.346996316620536	0.844029538714024	1.24094937669986E-17	2.85376600647351E-17
52.4	-3.72213855087378E-18	8.67639671111707E-19	-0.193163374687787	0.918675086240127	-0.193163374687787	0.918675086240127	-2.26125383778196E-17	1.34337644283103E-17
52.5	-2.09504940135043E-17	4.90882334743488E-18	-0.0777503269055117	0.867597686763975	-0.0777503269055115	0.867597686763975	-1.26481627794251E-17	7.07769323209755E-18
52.6	-2.38783782811263E-18	5.72078580874877E-18	0.0582123669473057	0.939734343635611	0.0582123669473058	0.939734343635611	3.21035356408136E-17	5.87686169207143E-17
52.7	-1.45106973711334E-17	2.02066379024615E-17	0.263768873402355	0.904483370698584	0.263768873402355	0.904483370698583	3.91106542331135E-18	1.75940410154788E-17
52.8	1.33020162472546E-17	-5.45576346236022E-18	0.281729056455922	0.758849257417016	0.281729056455922	0.758849257417016	-3.5553996223006E-17	-2.03819504971924E-17
52.9	-1.03717706166537E-18	7.30930537357015E-18	0.567288558599208	0.842823420192344	0.567288558599207	0.842823420192344	5.97177411514205E-17	2.42640288428435E-17
53	2.00984033718341E-18	4.23629904505428E-18	0.566274134120934	0.654980985355732	0.566274134120934	0.654980985355733	2.76652440352616E-17	2.6546980374892E-17
53.1	-6.63987055115989E-18	-6.46915546258013E-18	0.687461889866232	0.622858474481282	0.687461889866231	0.622858474481281	-1.12238918770972E-17	7.85991504894756E-18
53.2	-1.72139518028799E-18	1.86079248287238E-18	0.827445398488633	0.489412851153067	0.827445398488633	0.489412851153067	-2.24047197352124E-17	-4.15079945240133E-18
53.3	-2.82180529709491E-18	4.53001005606845E-18	0.840306200819049	0.372940559777377	0.840306200819049	0.372940559777377	5.17812105340756E-18	-2.05018405703352E-17
53.4	-1.57902195720168E-17	2.29285871836386E-17	0.868855623817268	0.178698686686691	0.868855623817267	0.178698686686691	-1.34669496818378E-18	3.13541239159159E-18
53.5	-3.01475947221974E-18	1.6469657272587E-17	0.947506208578711	0.131590665590313	0.947506208578712	0.131590665590313	7.11593767221412E-18	1.27394901441388E-17
53.6	-2.73743323831485E-18	-2.67389569521531E-18	0.936572968513202	-0.0720885005384223	0.936572968513203	-0.0720885005384222	-1.64445059328782E-17	-3.6176059305748E-17
53.7	-1.49795349237535E-17	1.12447443428392E-17	0.846395265881996	-0.217037854493087	0.846395265881997	-0.217037854493088	1.66637151608732E-18	2.02375631505335E-17
53.8	2.75666718533275E-17	3.64412716059804E-17	0.955210110072234	-0.300486776169159	0.955210110072233	-0.300486776169159	2.29539386863885E-17	-9.66307247399068E-18
53.9	-3.93581088893084E-18	-2.27785359021879E-18	0.809785439794497	-0.466963303788398	0.809785439794498	-0.466963303788398	-9.39019083800753E-18	-1.93183325448369E-18
54	-1.09795667149835E-17	-1.49210562619629E-17	0.710465150192619	-0.577044171075432	0.710465150192619	-0.577044171075431	-1.55784600441347E-17	-1.06877471940344E-17
54.1	7.44268373929564E-18	1.51084370120563E-17	0.641764941922817	-0.650361033989857	0.641764941922817	-0.650361033989858	8.5150321339557E-18	-1.31482737975716E-17
54.2	-1.56457805120021E-17	1.14915144237202E-17	0.546339604334727	-0.754920186675051	0.546339604334726	-0.754920186675051	-2.63085193105627E-19	6.43004513560541E-18
54.3	-3.97598068035592E-18	-4.4191999309884E-18	0.376630890477895	-0.845488043202052	0.376630890477895	-0.845488043202052	-5.96397102053388E-18	-6.6287998964826E-18
54.4	-5.99028848156979E-18	-1.77702930835776E-18	0.329557425009509	-0.834747010837915	0.329557425009508	-0.834747010837914	-5.82689443953705E-18	-2.64948577775165E-17
54.5	1.48345035697662E-17	-4.75572696399093E-18	0.120848089423267	-0.968140239771084	0.120848089423267	-0.968140239771084	2.47749333101799E-17	1.65042911977064E-17
54.6	9.28861363325823E-18	5.54127505006066E-18	-0.00622018911687492	-0.903820711183331	-0.0062201891168747	-0.903820711183331	5.82409766397928E-18	1.12580951708294E-17
54.7	-4.25778890258188E-18	-5.26893465047381E-19	-0.122997104534202	-0.950465147400801	-0.122997104534202	-0.950465147400802	2.14832249731722E-18	-1.37466026361226E-17
54.8	1.09133145984054E-17	-3.7648695412439E-18	-0.287335616380428	-0.91190094670485	-0.287335616380428	-0.91190094670485	1.45495950501426E-17	1.43237295734854E-18
54.9	-3.52258319345979E-18	-3.35949707964681E-18	-0.413818852535123	-0.833689640083847	-0.413818852535123	-0.833689640083847	-8.54463451844999E-18	-3.65638902649647E-18
55	7.21216823859694E-19	3.06719346649255E-19	-0.524382582896336	-0.792843253030459	-0.524382582896336	-0.792843253030459	-1.22687738659702E-18	2.88486729543878E-18
55.1	-4.20559528766911E-18	3.3467333881088E-18	-0.653341889187537	-0.699011475056766	-0.653341889187536	-0.699011475056765	3.81178147947219E-18	-9.29256480087454E-18
55.2	-8.53798595931688E-18	2.08042334210156E-18	-0.724986947542941	-0.595461598754758	-0.724986947542941	-0.595461598754757	-2.99553359103984E-18	5.9338491938142E-19
55.3	1.37650428875484E-17	1.78204565868866E-17	-0.824436761758601	-0.459088529372439	-0.8244367617586	-0.459088529372439	-1.52871020441813E-17	1.49212962535373E-17
55.4	-4.25565776682806E-19	-7.30401513120281E-18	-0.880271656908484	-0.374234935787562	-0.880271656908484	-0.374234935787562	1.14588914768505E-17	1.76112676333691E-17
55.5	-3.38112567496486E-18	-4.27214321385249E-18	-0.944587896860181	-0.210064060153041	-0.944587896860181	-0.210064060153041	-1.90318741694489E-17	-5.3185519873756E-18
55.6	1.72670969765968E-18	6.60874552654645E-18	-0.940161629784181	-0.086158172766936	-0.94016162978418	-0.0861581727669355	4.51088110980273E-18	1.81301385961482E-17
55.7	4.95198198714935E-19	4.86007104914554E-18	-0.967624747932862	0.0491689102241246	-0.967624747932863	0.0491689102241242	1.11155444164831E-17	8.68847918430162E-18
55.8	4.84061995594496E-19	-3.76438215178567E-18	-0.940903678759599	0.205820561593077	-0.940903678759599	0.205820561593077	-3.0430234601541E-18	4.94017882099023E-18
55.9	1.0901292483072E-17	1.29908368556071E-17	-0.906715035831623	0.330033195054636	-0.906715035831623	0.330033195054635	-4.94889023070745E-18	4.15287332688458E-18
56	6.67123119172863E-18	-4.98959807591536E-18	-0.82354732931767	0.462108214985659	-0.823547329317669	0.462108214985659	-8.89658773190469E-19	-2.22931417796865E-17
56.1	1.93934458699828E-18	6.11313798437694E-19	-0.78091748266512	0.572637219380073	-0.780917482665119	0.572637219380073	-4.24969852339388E-18	-8.16210683339512E-18
56.2	-9.54841350774373E-18	6.68685993429119E-18	-0.691504548952459	0.693674244519749	-0.691504548952459	0.693674244519749	-1.16182619780819E-17	1.00218178563779E-17
56.3	-1.17266773609035E-17	-5.42153046380292E-18	-0.533421832747498	0.782064168982069	-0.533421832747498	0.78206416898207	-4.61662530502268E-17	-4.53534329213258E-17
56.4	6.48665006602777E-18	-2.10543380242304E-18	-0.473262355266472	0.854115034241017	-0.473262355266472	0.854115034241016	1.15672756403492E-17	-1.89380954163981E-17
56.5	-2.769243734965E-18	2.11884615742036E-18	-0.325894343364014	0.932097411740168	-0.325894343364015	0.932097411740168	4.14928311654072E-18	-3.77818216844186E-17
56.6	3.07287373094245E-18	-1.31070060600712E-18	-0.180985732870845	0.935454625046796	-0.180985732870845	0.935454625046795	2.92529735468488E-17	-5.21365779017685E-18
56.7	-4.56682640159909E-18	4.42658684220893E-18	-0.0514519983464857	0.967576748356501	-0.0514519983464854	0.9675767483565	-9.7167842087703E-18	-1.03633262922294E-18
56.8	-9.44378066949871E-19	5.27485334719329E-18	0.0713930360511334	0.985779099663742	0.0713930360511334	0.985779099663743	3.78201346117978E-18	-4.1649439969619E-17
56.9	1.44054205963355E-17	7.3425917586267E-18	0.218174790364811	0.940461106227242	0.21817479036481	0.940461106227241	-3.53141441885441E-18	-1.08740061774811E-17
57	-1.8820375182849E-17	1.0841353489793E-17	0.371848036947432	0.8665801878903	0.371848036947432	0.8665801878903	-3.81032852137536E-18	2.19185598093192E-17
57.1	-1.44517016156521E-17	-1.03251917162956E-17	0.478846359444054	0.835266497326307	0.478846359444054	0.835266497326307	-5.14882679806755E-18	3.42531266219523E-17
57.2	-1.25649664428694E-18	1.41991836112933E-18	0.602309839993353	0.784106536991179	0.602309839993353	0.784106536991179	-2.45780001992736E-17	-6.55844956466735E-18
57.3	-1.54595469829452E-17	9.31974711975006E-18	0.738438428273426	0.617111751956057	0.738438428273425	0.617111751956058	-3.70649216174503E-17	-6.37158339989158E-18
57.4	4.57089790321513E-18	-1.72740073889242E-17	0.752801212390978	0.54491265918986	0.752801212390978	0.544912659189861	-7.79879052036493E-18	-4.53244864806472E-18
57.5	5.41116418872241E-18	-1.89996083855787E-18	0.880308902112515	0.444195399478153	0.880308902112515	0.444195399478154	1.84921513850847E-17	-1.47068262213096E-17
57.6	-1.47135883116876E-17	6.05100897561833E-18	0.935288187347801	0.289252154186748	0.935288187347801	0.289252154186748	6.5702265185041E-18	-9.60634400643435E-18
57.7	-7.27894915589922E-18	-1.86286875614392E-17	0.924382662444125	0.154871261698235	0.924382662444126	0.154871261698235	4.42080731331776E-18	-8.14742123613337E-18
57.8	1.06286503348697E-17	-3.24302030821693E-18	0.974648056683136	0.0411342808951231	0.974648056683137	0.0411342808951234	3.2777940953111E-18	1.02174138363126E-17
57.9	1.92130458973213E-17	-9.50373270496853E-18	0.984604418466412	-0.0833221545446266	0.984604418466412	-0.0833221545446266	7.06515350940027E-19	-1.60137749948867E-17
58	5.49293812328698E-18	2.03912161859563E-17	0.919960602689731	-0.277727820759106	0.919960602689731	-0.277727820759106	-5.69786563444657E-18	2.03730746544791E-17
58.1	-4.58142853934093E-18	-1.87064506115238E-17	0.863244295044499	-0.351762943060834	0.863244295044499	-0.351762943060834	8.88004547158859E-18	-1.69657460103253E-18
58.2	4.68086843169369E-18	-3.13005513997081E-17	0.838497024045188	-0.500236054056893	0.838497024045188	-0.500236054056893	4.36574154584631E-18	2.35666251906012E-18
58.3	1.12669465498689E-17	-1.79347343148266E-17	0.739762295460405	-0.6260559234311	0.739762295460405	-0.6260559234311	-6.93238183723607E-18	-3.25500118266285E-17
58.4	-3.43031110953305E-17	-1.69950239022739E-17	0.64532673325582	-0.658954940007374	0.645326733255819	-0.658954940007374	-7.7467765390779E-18	-1.75500493124522E-17
58.5	1.76222119004315E-17	1.04206085811732E-17	0.583512949555566	-0.799744417796074	0.583512949555566	-0.799744417796074	2.81052898407117E-17	-1.25776347382689E-17
58.6	1.23200306655674E-17	2.92047460617469E-18	0.432409270970602	-0.864604850209505	0.432409270970603	-0.864604850209504	-1.73452852448477E-17	-4.21837428629192E-18
58.7	1.95819414889648E-17	-1.1669469987823E-17	0.302451234701881	-0.884388127070703	0.302451234701881	-0.884388127070703	6.57232905035941E-18	-3.53546726744649E-18
58.8	1.61758685426479E-17	-1.53801183875543E-17	0.194527440290586	-0.934718330597984	0.194527440290586	-0.934718330597983	6.75098872258266E-18	-1.94806035042353E-17
58.9	-1.11115887647436E-17	6.5248154440356E-18	0.079771021530991	-0.971959634337352	0.0797710215309907	-0.971959634337352	-1.19392298754966E-17	-3.64527038532664E-18
59	-1.96639606078568E-17	5.55523221730232E-18	-0.0942097567202244	-0.945804122477225	-0.0942097567202245	-0.945804122477224	2.75156390722951E-19	5.33989535006854E-18
59.1	-1.44328416938906E-18	-5.3211868156737E-18	-0.191503724961517	-0.928591034269705	-0.191503724961517	-0.928591034269705	-2.55037674931021E-18	4.9191114787831E-18
59.2	-7.40387007034232E-18	-1.07592269572609E-17	-0.322383627705718	-0.930335625766207	-0.322383627705719	-0.930335625766207	-7.54884936484939E-19	-4.35588483333566E-18
59.3	-9.95574452952116E-18	3.93777504752409E-18	-0.47189838772421	-0.821451987081545	-0.47189838772421	-0.821451987081546	9.80485205163491E-18	-5.99695781272249E-18
59.4	4.62246724118303E-18	1.94252771902957E-17	-0.548083961180573	-0.783735414747442	-0.548083961180573	-0.783735414747442	-6.24855504275179E-18	-1.4107108291731E-17
59.5	7.31293307057035E-18	2.17539158586083E-18	-0.679922731026759	-0.692403636608821	-0.679922731026759	-0.692403636608821	-1.54421322202454E-18	-4.92976094889805E-18
59.6	5.00340315984791E-18	-1.11030888766373E-17	-0.75491598223656	-0.573555277231359	-0.754915982236559	-0.573555277231359	-4.96736812680854E-19	9.8492351672554E-18
59.7	6.25660914756808E-18	7.73687251985989E-18	-0.83883667875247	-0.489202430900963	-0.838836678752469	-0.489202430900963	4.10248087021271E-18	1.43785998361473E-18
59.8	-2.807872062056E-17	7.17111398459013E-19	-0.907124444956712	-0.362245727972613	-0.907124444956712	-0.362245727972613	-7.04955979674247E-18	-9.90668842908582E-19
59.9	1.27622179443952E-17	3.86817078358512E-18	-0.936751489010666	-0.245877302216199	-0.936751489010667	-0.245877302216199	-4.06924538757268E-19	8.17606633477294E-18
60	-4.58102396327428E-18	-1.70179548308002E-18	-0.958060023005245	-0.0915512606427136	-0.958060023005244	-0.0915512606427138	7.0716826696712E-18	-2.72707310356707E-18
60.1	-1.32457801604879E-17	3.90324523807442E-18	-0.954415584958732	0.0264807525099528	-0.954415584958733	0.0264807525099532	-1.57019041862334E-17	2.45581460809002E-18
60.2	4.69591156274412E-18	5.56769607139659E-18	-0.970480023525188	0.140847868613631	-0.970480023525189	0.140847868613631	-1.13120791010773E-17	1.46642725254724E-17
60.3	-1.49788463207665E-17	-9.03541542608615E-18	-0.917344159907108	0.307826976160384	-0.917344159907109	0.307826976160385	-7.45684913123239E-18	3.60314196528166E-18
60.4	-1.29717746751862E-17	-3.35705070246487E-18	-0.865885205644891	0.383791827441564	-0.86588520564489	0.383791827441564	-3.09813796800174E-18	-7.00889565684868E-18
60.5	-2.02933803821947E-18	4.51589385358062E-18	-0.818926029961507	0.529806818710242	-0.818926029961508	0.529806818710242	5.49246139126188E-18	-1.15036936735257E-18
60.6	-5.44745611264146E-18	1.39405135155422E-17	-0.734588187625131	0.629451670215894	-0.73458818762513	0.629451670215894	-1.20317235763379E-17	-1.86583041023724E-18
60.7	9.43678485653564E-18	1.59869386350655E-17	-0.639095453016308	0.726877794105385	-0.639095453016307	0.726877794105385	7.14904774378435E-18	1.09568831384171E-17
60.8	4.71111632158864E-18	-1.05253198177963E-17	-0.537896153277541	0.813621324548936	-0.537896153277541	0.813621324548936	2.27362663589973E-17	-4.52320446144277E-18
60.9	4.28962102919371E-19	-2.05323649967845E-17	-0.431804593105502	0.878393814048894	-0.431804593105502	0.878393814048894	-1.8795845632849E-18	-3.79736634545907E-18
61	-1.5491103243501E-17	-2.37758200955575E-18	-0.295554948767956	0.929153664493261	-0.295554948767957	0.929153664493262	-1.6258155059452E-18	8.6971721628894E-19
61.1	1.98256504065785E-17	1.69234611541647E-18	-0.167067395147114	0.945888943038861	-0.167067395147114	0.945888943038862	3.09421602956814E-19	-2.01662744395564E-18
61.2	-4.22552106104667E-18	-2.11878773702628E-17	-0.0532988575095237	0.96828827862406	-0.0532988575095236	0.968288278624059	5.04862534616352E-18	6.30199987856717E-18
61.3	2.89729505000764E-18	-3.07658711752518E-18	0.0847415208529099	0.983506655860838	0.0847415208529098	0.983506655860838	-7.67697322342844E-18	5.19319480750021E-18
61.4	9.58058770382565E-18	1.18478039420296E-18	0.244164066629756	0.938106902726398	0.244164066629756	0.938106902726398	3.61406346203163E-18	-1.27529265917784E-17
61.5	4.45512951024387E-18	4.52335466281211E-19	0.320488900245993	0.899974095876361	0.320488900245993	0.899974095876362	-4.59917087788624E-18	-1.56580233632097E-17
61.6	-8.0693605709055E-18	1.54039549386091E-17	0.473806079398255	0.879188331764671	0.473806079398255	0.879188331764671	-6.25672807509478E-18	-3.08321928894123E-18
61.7	-5.24343774306451E-19	2.00115042936329E-17	0.592177496858766	0.787586437274197	0.592177496858766	0.787586437274196	2.3513580386155E-17	2.7836259184311E-17
61.8	5.11730886753207E-18	-8.09976552876207E-18	0.670274677997363	0.693372858136065	0.670274677997363	0.693372858136065	-8.55416561700863E-18	-9.57197145576242E-18
61.9	4.16929841529447E-18	3.13663833349203E-18	0.765775477173886	0.594152757641316	0.765775477173887	0.594152757641316	2.24728526363232E-18	1.20416028944408E-17
62	2.3730597980151E-17	9.37243690636165E-18	0.839595588154074	0.510087873899953	0.839595588154074	0.510087873899953	1.72015309837108E-17	-1.38570637816347E-18
