# GHZ S RI R 50
50	7.73176917889268E-18	1.48486368323755E-17	0.823983784772038	-0.592368574466872	0.823983784772037	-0.592368574466871	1.45712781366442E-19	-1.83571280975829E-18
50.1	6.30225360194678E-18	-3.53039369368974E-18	0.692661621347654	-0.70712733386543	0.692661621347654	-0.707127333865429	-2.40849721811753E-18	6.85002946988978E-18
50.2	-2.11012303324761E-18	2.33254245129086E-17	0.580350186280536	-0.807350274880875	0.580350186280537	-0.807350274880875	-4.35785505426933E-18	-7.58152342394474E-18
50.3	-1.78940962634531E-17	-1.25447295214865E-17	0.448444077564923	-0.920260815950875	0.448444077564923	-0.920260815950875	9.83363584223523E-18	9.6181826604799E-18
50.4	6.58461061978706E-18	8.4979556724894E-18	0.249507180869484	-0.944014928251875	0.249507180869484	-0.944014928251874	-8.02254086593962E-18	-9.31514401534074E-18
50.5	-5.42909063453172E-18	-1.78800056369286E-17	0.127876234841817	-1.00245275635969	0.127876234841817	-1.00245275635969	9.11530498268976E-18	-1.04475199193964E-17
50.6	1.03369629792942E-18	-6.21907775261076E-18	-0.0567199430287799	-0.997589640305244	-0.0567199430287798	-0.997589640305244	-5.88937519213084E-19	-5.16237021103406E-18
50.7	-8.9805994973331E-18	-1.19279796272947E-17	-0.204175879713536	-0.971588006805314	-0.204175879713536	-0.971588006805315	-9.39139875357411E-18	4.12950582080593E-18
50.8	1.99446172445243E-17	-2.78724813213064E-18	-0.381356619134087	-0.948817555515732	-0.381356619134087	-0.948817555515732	1.93709586191612E-17	-6.00673623591473E-18
50.9	4.82967975761322E-20	-3.74777428739435E-18	-0.511387848463493	-0.83948970922633	-0.511387848463493	-0.83948970922633	1.48945035544251E-18	7.68873576509323E-19
51	-6.11014436248509E-18	-7.17603935750793E-18	-0.660630363276688	-0.765359148795417	-0.660630363276688	-0.765359148795417	6.29892935394655E-18	-6.23967802905737E-18
51.1	-7.52412573009286E-18	-1.19823964367249E-17	-0.771584999909152	-0.643720955114696	-0.771584999909152	-0.643720955114696	6.89289504770668E-18	-1.25570903696685E-18
51.2	-1.13355168430078E-18	9.52052255534432E-18	-0.859980948034726	-0.506084901037059	-0.859980948034726	-0.506084901037059	-1.10718011276333E-17	-5.70533075654685E-18
51.3	6.80996615962751E-18	9.72600535649739E-18	-0.936359675153679	-0.361719377557685	-0.936359675153678	-0.361719377557685	-6.76024855206789E-18	9.44189874074095E-19
51.4	4.63191532715845E-18	-1.09173916380603E-17	-1.00049998935071	-0.223570639641416	-1.00049998935071	-0.223570639641416	-5.54896490397028E-18	2.42675739861524E-18
51.5	-3.66747656556006E-18	1.95280699012267E-17	-0.988121545308348	-0.0283271782048559	-0.988121545308347	-0.0283271782048561	2.63565910263489E-18	-1.54669623284636E-18
51.6	8.11196541302414E-18	-5.69682307429297E-18	-1.00542373536352	0.100148406974477	-1.00542373536352	0.100148406974477	9.36386256319016E-18	-1.18197988268018E-17
51.7	1.2911206820376E-17	-3.20620388637753E-18	-0.991631234503136	0.264699766159626	-0.991631234503136	0.264699766159626	-4.31669717001738E-19	-3.03141683279095E-17
51.8	1.99900579761762E-18	-2.15931677672555E-17	-0.876689506959067	0.412762996469217	-0.876689506959066	0.412762996469217	-6.18516366744535E-17	-2.99922577352881E-17
51.9	5.48245917587144E-18	-1.38950167343731E-17	-0.874675308850144	0.556063979388708	-0.874675308850144	0.556063979388707	-2.65756312161533E-17	4.01035101955635E-18
52	-2.03287240275828E-18	-2.15025222871574E-17	-0.711984168926677	0.694286734622901	-0.711984168926676	0.694286734622901	-2.05070488215922E-19	8.1463500105339E-18
52.1	-1.30574852992592E-17	-1.62513080764704E-17	-0.602701795642168	0.782884865598877	-0.602701795642168	0.782884865598877	-2.53524582577656E-17	2.33475440732716E-17
52.2	5.40868867132367E-18	-7.29656941241793E-18	-0.499240791220052	0.875583856822998	-0.499240791220052	0.875583856822999	-5.59401168475054E-18	-3.71330905110499E-17
52.3	8.8243674316738E-18	7.31462012427013E-19	-0.35886233757074	0.94450374187361	-0.35886233757074	0.94450374187361	2.61861362839566E-17	1.85189975530521E-17
52.4	-1.39053762234281E-20	1.05088416262945E-17	-0.188614212203402	1.02113850961529	-0.188614212203402	1.02113850961529	2.16337102544143E-17	6.271513028041E-18
52.5	-1.84180286161476E-17	-2.97454880187267E-18	-0.0563541044299224	0.964958730614544	-0.0563541044299222	0.964958730614544	-9.64641103000291E-18	2.66114345027843E-17
52.6	-1.44967125961018E-17	-1.16347216234003E-18	0.0936751319922673	1.03503748622438	0.0936751319922674	1.03503748622438	-1.59228905273832E-17	-3.7600653773747E-18
52.7	-2.25089052495607E-17	-1.8708388334601E-17	0.316410599005765	0.993338082889358	0.316410599005764	0.993338082889358	-9.22808579296079E-18	6.54273922170142E-18
52.8	8.92539802220686E-18	-2.88997773593768E-17	0.345427802365354	0.832319309392926	0.345427802365354	0.832319309392925	-1.69737074725507E-17	-2.88642049153961E-17
52.9	-3.61315936254396E-19	-1.85353548300107E-17	0.645960949638482	0.912987142661199	0.645960949638482	0.912987142661198	-3.75517959367963E-17	2.81645987956071E-17
53	1.38788801374372E-17	7.56047855318207E-18	0.65214841315501	0.706933382226962	0.65214841315501	0.706933382226962	-5.20325842609713E-18	-1.53120579755149E-17
53.1	-3.39904122578054E-17	6.47907244501675E-18	0.780638969824749	0.663383629595683	0.780638969824749	0.663383629595683	1.40111365766517E-17	1.80013509712676E-17
53.2	-4.96917750288116E-18	-6.1093170880536E-18	0.928144648235036	0.514488572738675	0.928144648235036	0.514488572738675	1.01462048399049E-17	5.17803883789423E-18
53.3	-3.53410944612735E-18	1.77873400955088E-17	0.941694136235716	0.381834973073914	0.941694136235716	0.381834973073914	9.22527268537888E-18	2.39301721343873E-17
53.4	3.24779998638132E-19	9.0603686926314E-18	0.970546197789782	0.168937565602816	0.970546197789782	0.168937565602816	1.07659551496605E-17	2.98019792717637E-17
53.5	2.9748754477875E-17	8.27993446441803E-18	1.04799796630058	0.109937107440743	1.04799796630058	0.109937107440743	-3.1761826128379E-17	1.04915256777197E-17
53.6	-7.41915353820642E-18	5.45317541279849E-18	1.03217374672283	-0.111709705864286	1.03217374672283	-0.111709705864286	1.00457311179956E-17	-2.20022278542235E-18
53.7	-7.80366389270919E-18	1.85605936557264E-17	0.932162558598651	-0.272033259734698	0.93216255859865	-0.272033259734698	1.81762720976348E-17	-1.25665127521202E-17
53.8	-8.24501878679499E-18	-1.69324467240415E-17	1.03723367219071	-0.365655539604109	1.03723367219071	-0.365655539604109	-3.26873846421779E-17	2.63171594308863E-17
53.9	1.65232383698544E-17	-6.30071412601283E-18	0.877244733476876	-0.545526781787212	0.877244733476876	-0.545526781787211	-2.90674064918432E-17	-1.63972660837732E-17
54	4.70927456267993E-18	1.45866290359896E-17	0.764152346816573	-0.665106403056296	0.764152346816573	-0.665106403056296	3.03549878218625E-18	4.01778443610552E-18
54.1	2.06823151893531E-17	-7.13982320174128E-18	0.682152364552645	-0.744557938527349	0.682152364552645	-0.744557938527349	-1.54450541521805E-19	-1.76213890115987E-18
54.2	-4.63538084760301E-18	1.2836712604882E-17	0.572183267381069	-0.855021613464584	0.572183267381069	-0.855021613464583	1.26464195341771E-17	1.86176192194011E-17
54.3	9.80109600357146E-18	9.50422118837746E-18	0.384725290612943	-0.949389192754723	0.384725290612942	-0.949389192754722	8.07865846182367E-18	-1.87904523721347E-17
54.4	7.45878835336275E-18	1.54895506904832E-18	0.325043177736258	-0.936109841869215	0.325043177736257	-0.936109841869214	6.26491968553446E-18	-1.89281631980287E-17
54.5	1.55796226203048E-18	4.72662049515674E-17	0.0973245079147511	-1.07180944472393	0.0973245079147512	-1.07180944472393	2.26025358384674E-17	3.27360033411241E-17
54.6	-3.83684301127628E-18	-1.36154578923798E-17	-0.0446912197038779	-0.999926203873361	-0.0446912197038782	-0.99992620387336	-7.54418022083582E-18	-6.30384123195847E-18
54.7	-1.79257031586128E-18	-9.6297755957082E-18	-0.175109122142312	-1.04218609372143	-0.175109122142311	-1.04218609372143	7.31755927897584E-19	2.4346125777411E-17
54.8	6.26644038191654E-18	-7.60271826091952E-18	-0.353975009912053	-0.994256764760252	-0.353975009912053	-0.994256764760252	-1.48137502457153E-17	-2.87976024652338E-18
54.9	7.68376102852373E-18	-5.22225725942921E-18	-0.492081171741774	-0.904013921363786	-0.492081171741774	-0.904013921363786	2.30715924617257E-17	-8.61022818141135E-18
55	-4.50941484552022E-18	-7.55850626808695E-18	-0.612362247208269	-0.85185252932671	-0.612362247208269	-0.85185252932671	5.41432003995743E-18	7.86265985401033E-18
55.1	-7.73850110660374E-18	4.60658081296607E-19	-0.750167225186417	-0.743653941614541	-0.750167225186417	-0.743653941614542	4.21957645258847E-20	4.83870594529467E-18
55.2	-2.8542430251896E-18	2.74433663519591E-18	-0.826634091583333	-0.625145826971306	-0.826634091583332	-0.625145826971306	-1.40388303269557E-18	-1.53917746148652E-18
55.3	3.92867453992564E-18	-9.01643541492233E-18	-0.930328857326293	-0.471986187783929	-0.930328857326293	-0.47198618778393	4.82976792979412E-18	-9.38349391304805E-18
55.4	2.1110545862638E-17	1.98803323354539E-17	-0.987326285468878	-0.37280196534651	-0.987326285468878	-0.372801965346511	-1.21848700418718E-17	2.14158899948736E-18
55.5	2.78540270567753E-18	-7.41136651227727E-18	-1.05098111829805	-0.190973380875657	-1.05098111829805	-0.190973380875657	-2.92723696084309E-17	-6.50797168664342E-18
55.6	3.28651478868245E-18	3.29945444902831E-19	-1.04178653028556	-0.0521633048774501	-1.04178653028556	-0.0521633048774504	1.6894681964455E-18	2.06654870490588E-18
55.7	-1.45147759286268E-18	-7.79377605116277E-18	-1.06435786742868	0.0982658054610149	-1.06435786742868	0.0982658054610154	5.12452095030591E-18	-9.01846027014065E-18
55.8	-1.26633493094465E-17	1.95093275555211E-17	-1.02882071727113	0.269586951034726	-1.02882071727113	0.269586951034726	5.98811157112865E-18	1.46429272068858E-17
55.9	-1.46312708683607E-18	2.22603450058192E-17	-0.984684091291067	0.406016426412516	-0.984684091291067	0.406016426412516	-7.67813558598931E-18	7.62892713377477E-18
56	9.30539091480961E-18	-1.69076147352966E-18	-0.888302274907842	0.548928988939794	-0.888302274907841	0.548928988939794	1.69026524869795E-18	1.35350238352082E-17
56.1	6.50210787416379E-18	-8.70183525807555E-18	-0.833680488114394	0.668624013567859	-0.833680488114394	0.668624013567859	1.33242130296573E-17	-5.1548346208097E-18
56.2	-2.39596428520683E-17	-1.2099065039742E-17	-0.729382843544915	0.797350659365849	-0.729382843544914	0.797350659365848	-2.17598593186089E-17	-3.8734704637225E-17
56.3	-1.24944624498357E-18	-4.69067317107071E-18	-0.553421904973705	0.8895486349179	-0.553421904973705	0.889548634917901	-2.71512260028592E-17	-1.63395180754833E-17
56.4	1.09489944229751E-17	1.69658608561776E-17	-0.479665708365613	0.964705213753491	-0.479665708365613	0.964705213753492	-5.0716996628423E-18	3.66696893376117E-17
56.5	-4.57878767634865E-18	-4.27462076067409E-18	-0.314661901873719	1.04319735926189	-0.314661901873719	1.04319735926189	-2.22700433085323E-17	3.75965438049609E-18
56.6	1.85765474065372E-17	5.09663323096558E-18	-0.153679335235822	1.04234019398215	-0.153679335235822	1.04234019398215	8.13358036033062E-18	-1.36385717700284E-17
56.7	1.60014506580224E-19	-9.93681447484732E-18	-0.00861770382946236	1.07037889289415	-0.0086177038294626	1.07037889289415	9.93681447484732E-18	1.60014506580224E-19
56.8	2.41729715921926E-19	1.00239057738943E-18	0.128703717571194	1.08270138985973	0.128703717571194	1.08270138985973	2.21761143698923E-18	-2.59912115847218E-17
56.9	9.36029759402758E-18	5.84731463890133E-18	0.289059300178541	1.02690914776236	0.289059300178541	1.02690914776236	1.4051931820505E-18	6.08304489317156E-18
57	1.21512712303928E-17	5.98721402186796E-18	0.455172050466474	0.940004260476137	0.455172050466473	0.940004260476137	3.52023834138526E-18	-4.45335088272864E-18
57.1	1.19363107882103E-17	2.30260733715479E-18	0.572286721729191	0.897530906577226	0.57228672172919	0.897530906577225	2.24610463140833E-17	1.69561674259871E-17
57.2	3.41638284125763E-19	-2.03825778420381E-18	0.70513302348219	0.833158834249462	0.70513302348219	0.833158834249462	3.39786776837641E-17	-2.68681859080305E-18
57.3	-1.22835630411385E-17	-1.50355525702466E-17	0.847340486998239	0.646842674722899	0.847340486998239	0.646842674722899	1.39961740735609E-17	-1.60867429441647E-17
57.4	-1.50144751996556E-18	-2.95091560227125E-17	0.863025944560749	0.561674549702579	0.863025944560749	0.561674549702579	-1.5454150519929E-17	-3.48969081321129E-17
57.5	8.88209167588851E-18	-2.43756942148468E-18	0.995059974129293	0.443952707687369	0.995059974129293	0.443952707687369	-2.03353049714413E-18	3.9009421485435E-18
57.6	8.23943389819535E-18	-1.17173727087004E-17	1.04851810201613	0.271152086570109	1.04851810201613	0.27115208657011	1.73686653689965E-17	-2.29415498788803E-17
57.7	-2.67269180490421E-18	5.14163309117557E-18	1.03221869994069	0.121529878423589	1.03221869994069	0.12152987842359	-7.34618733215947E-19	-4.99193682764373E-18
57.8	-6.66425869833425E-18	-6.97509406026425E-18	1.07901233318962	-0.00767970988709501	1.07901233318962	-0.00767970988709502	5.13519886887501E-18	5.98686621680026E-18
57.9	-2.66822390237658E-18	-1.54930145923526E-17	1.08212916860009	-0.146649935215286	1.08212916860009	-0.146649935215286	-2.73698514621602E-17	-5.85590291266967E-18
58	6.30528673902411E-19	-1.19201694797792E-17	1.00412281016788	-0.35604336774593	1.00412281016788	-0.35604336774593	2.76951772645329E-18	2.88784975547811E-19
58.1	-1.17645832519873E-17	-6.16909335103179E-18	0.936454120248068	-0.439003011012842	0.936454120248068	-0.439003011012842	-4.64359359057726E-17	-4.84604945726366E-18
58.2	-3.36681290999419E-17	2.55008877952185E-17	0.899279445729055	-0.599715637456653	0.899279445729055	-0.599715637456653	-1.18431015755937E-17	1.92190614647911E-17
58.3	1.31490901341196E-17	-9.1441555188731E-18	0.784490995937873	-0.733545816460976	0.784490995937873	-0.733545816460976	3.91805889421117E-18	1.63076202794928E-17
58.4	2.17097428355502E-17	1.187119311907E-17	0.676165293362871	-0.769079406335356	0.676165293362871	-0.769079406335356	4.01492561180025E-18	-1.15240256864085E-17
58.5	1.01329592714726E-17	2.35806482975407E-18	0.598335036449489	-0.917312445510106	0.59833503644949	-0.917312445510106	1.8430659673619E-17	-1.4938035926995E-17
58.6	-1.34262490657458E-17	-1.74314327038662E-17	0.429022424242245	-0.981971286678761	0.429022424242245	-0.981971286678762	-2.10589996242134E-17	-2.21897441331782E-18
58.7	9.41074757988388E-18	-1.61598280894434E-17	0.283062493327501	-0.998768912188962	0.283062493327501	-0.998768912188962	2.54471855054324E-18	-5.01959915256653E-18
58.8	-1.20427740984809E-17	2.88470821378901E-17	0.159291039772357	-1.04688426672613	0.159291039772357	-1.04688426672613	-7.65003637467405E-18	9.84133160423561E-18
58.9	6.44327633120838E-18	-6.74880794089724E-18	0.0289543228519558	-1.0798078896779	0.0289543228519556	-1.0798078896779	8.41024739560822E-18	-5.6297316241951E-18
59	1.71654989578596E-17	6.22792238240486E-18	-0.160863826280694	-1.04305524657815	-0.160863826280695	-1.04305524657816	-3.49131359270798E-18	-1.42982721504811E-18
59.1	-2.7047501662708E-22	-7.7435293806581E-18	-0.270110323397454	-1.01704622546893	-0.270110323397454	-1.01704622546893	0	0
59.2	3.04655109188463E-18	9.68121321171883E-18	-0.414546368834739	-1.00865633726112	-0.414546368834739	-1.00865633726112	-7.39641022534035E-18	2.05623202500582E-18
59.3	1.02479463512782E-17	4.16020474363104E-18	-0.573645550105734	-0.882706107613429	-0.573645550105733	-0.88270610761343	1.16143393734083E-17	4.63600571796456E-18
59.4	-1.08160123911511E-18	9.7854104084949E-18	-0.657515034149851	-0.833043058087835	-0.657515034149851	-0.833043058087835	-8.20382399353498E-18	-1.40118119143681E-17
59.5	-4.24343248748631E-18	8.48545549381735E-18	-0.796646672986711	-0.724428662829082	-0.796646672986711	-0.724428662829082	-5.62568053989929E-18	4.576203718731E-18
59.6	-1.28546423731188E-17	4.17759196798233E-18	-0.874009704706793	-0.588538677351574	-0.874009704706793	-0.588538677351574	-4.99179430258484E-18	3.06514203454268E-18
59.7	8.33311849263364E-19	-1.80706482596371E-17	-0.96077701717439	-0.488019561857895	-0.96077701717439	-0.488019561857895	6.538886474278E-18	-7.27052191334999E-18
59.8	-5.30284254534439E-18	3.66465948168806E-18	-1.02822491690214	-0.343218168094126	-1.02822491690214	-0.343218168094126	6.93252464438525E-18	-2.44027266625355E-18
59.9	1.26727990354464E-17	-1.99747678794767E-17	-1.05429962702077	-0.210965670179152	-1.05429962702077	-0.210965670179151	1.17264878480624E-17	-1.24931373441376E-17
60	-1.20927959829665E-17	2.09179008896341E-18	-1.06880014206818	-0.0394006551407734	-1.06880014206818	-0.0394006551407732	-7.32807478617504E-18	4.93072368087788E-18
60.1	1.40512639703912E-18	-2.00960036505211E-17	-1.05735073342352	0.092846441462786	-1.05735073342352	0.092846441462786	-3.27155048145457E-17	-2.22441622284313E-17
60.2	-2.91022895303166E-17	1.93775362494705E-17	-1.0655060312001	0.221655548984258	-1.0655060312001	0.221655548984258	-3.80999612086334E-18	-6.18502887128137E-18
60.3	-8.74341654928693E-18	-2.50121855874137E-17	-0.997738088067916	0.402013554673833	-0.997738088067915	0.402013554673833	9.00867211708079E-18	-2.53784840633225E-17
60.4	1.75894772809354E-17	-4.13295909185268E-18	-0.934567249941557	0.486329721419945	-0.934567249941558	0.486329721419945	-2.64154727192437E-18	-1.26304367127323E-18
60.5	-9.18860540026628E-18	-2.20305869685457E-17	-0.872116986656578	0.643387416258151	-0.872116986656577	0.643387416258151	1.23780136826562E-18	6.77978613663478E-18
60.6	-1.58248100901375E-18	1.95274431916629E-17	-0.771710516891165	0.749180706388693	-0.771710516891164	0.749180706388692	-4.04144637237998E-18	8.84049514255791E-19
60.7	-9.1727581046321E-18	-1.94253050974641E-17	-0.659023413383028	0.851028446430033	-0.659023413383027	0.851028446430033	-1.50888446136653E-18	-5.83749373477384E-18
60.8	-2.03476838794692E-17	2.48442021425839E-17	-0.540301315994428	0.940231410638333	-0.540301315994429	0.940231410638333	-3.5804625075999E-18	2.97201982941121E-18
60.9	-7.53455351320263E-18	3.31629418771395E-17	-0.417091426829179	1.00494669823274	-0.417091426829179	1.00494669823274	5.06733671471084E-18	1.08985847962584E-17
61	-7.62492043464174E-18	-5.2170213699698E-18	-0.262747518902612	1.05225774687331	-0.262747518902612	1.05225774687331	-3.73905719127777E-18	-5.45928633221931E-18
61.1	-8.94167292436063E-18	3.58114330492705E-18	-0.118128001530734	1.06298132313062	-0.118128001530733	1.06298132313062	8.94167292436063E-18	-3.58114330492705E-18
61.2	7.15777740963866E-18	4.14511789543949E-18	0.0111901733274472	1.07906014956982	0.0111901733274474	1.07906014956982	1.22121244261705E-17	4.29284061106048E-18
61.3	-1.90863720911575E-18	1.3184657460174E-17	0.165305064353001	1.08515379809468	0.165305064353	1.08515379809468	-3.55389909676119E-18	1.49293883824796E-17
61.4	4.32398333708551E-17	-5.54130468684141E-19	0.33829824759551	1.02546148460613	0.338298247595511	1.02546148460613	7.60069156634919E-18	-2.48140350981544E-18
61.5	-7.91663976426937E-18	-1.81580878627909E-17	0.423956867238789	0.976393051137995	0.423956867238789	0.976393051137995	-1.41561727091399E-18	-1.61186311112887E-17
61.6	-1.42152298734213E-17	9.76743147509074E-18	0.590433065753188	0.940533559683701	0.590433065753188	0.940533559683701	6.87516538588917E-18	-4.40205058439414E-18
61.7	3.44725831294811E-17	9.4055902413911E-18	0.715694657100477	0.831358832604237	0.715694657100476	0.831358832604236	4.17519681755845E-17	3.11170551661361E-18
61.8	-1.5613967367689E-17	4.98538923316046E-18	0.797605380360654	0.720735184018203	0.797605380360654	0.720735184018204	5.78089386469853E-18	-2.60185958381145E-18
61.9	-9.52928908725248E-19	-2.34514164878567E-18	0.896337762435646	0.603291382232326	0.896337762435646	0.603291382232326	-8.25192415388336E-18	3.89957240116803E-18
62	1.67703002464559E-17	2.11090903406452E-18	0.971975882984289	0.502359141420224	0.971975882984289	0.502359141420225	-2.05124723053277E-17	-2.0033619463575E-18
62.1	9.95911446109878E-19	-1.52989734956027E-17	1.04858103935628	0.35507374690138	1.04858103935628	0.355073746901379	-1.3753295172081E-17	1.35757247156516E-18
