# GHZ S RI R 50
50	-3.59719701248813E-18	2.47333639406324E-17	0.866500634302657	-0.61769258605725	0.866500634302656	-0.617692586057251	-6.50161351339854E-18	-1.64929697948384E-19
50.1	-2.13547872577107E-17	-2.39309164037782E-18	0.727521844808848	-0.741858884055817	0.727521844808847	-0.741858884055816	9.13616802804661E-20	4.68131214275657E-18
50.2	-4.46545562576319E-18	-4.43780495994156E-18	0.606901720651627	-0.844793637286687	0.606901720651628	-0.844793637286687	1.36866904081213E-17	1.12350657209662E-17
50.3	3.07119362665411E-17	2.19508215013522E-17	0.471127106797174	-0.959022681520321	0.471127106797175	-0.959022681520323	-1.10275341109006E-17	1.16428810629625E-17
50.4	1.67123224877863E-17	-2.03780311664209E-17	0.260080087920268	-0.991188204049612	0.260080087920268	-0.991188204049612	-1.58266206839431E-19	1.14113546944402E-17
50.5	1.2498325197836E-17	9.20796031248513E-18	0.1335500372403	-1.04404027677688	0.133550037240299	-1.04404027677688	3.75294029064849E-20	-3.96176250141787E-18
50.6	1.43761621637863E-17	2.58744991716632E-17	-0.0598224108195871	-1.04104925942163	-0.0598224108195871	-1.04104925942163	-1.65778621168289E-18	2.08992717692083E-18
50.7	-1.92177063052351E-17	-2.48927265364585E-17	-0.215210470065613	-1.01066848252057	-0.215210470065614	-1.01066848252057	2.44621703716583E-18	9.36962932114351E-19
50.8	2.00144462839436E-17	3.94533397229667E-18	-0.395081363878731	-0.986999690834102	-0.39508136387873	-0.986999690834103	1.27060223679003E-17	-9.40401201080594E-18
50.9	-9.02756250598602E-18	2.18855202533298E-17	-0.535972298006998	-0.871455430154261	-0.535972298006998	-0.871455430154261	1.46727948909452E-17	-1.29286275091084E-17
51	-1.87829804476819E-17	-3.71205677896191E-18	-0.686615517744699	-0.794285525980029	-0.686615517744699	-0.79428552598003	1.89212800864139E-18	2.76599277464121E-19
51.1	-9.91477195507207E-19	4.98131550814012E-18	-0.801987603084248	-0.666480325615113	-0.801987603084249	-0.666480325615114	5.78003683419967E-18	1.04363242422622E-17
51.2	3.3139872582396E-18	2.47920115842389E-17	-0.893588053724864	-0.522012821478288	-0.893588053724864	-0.522012821478288	-7.05905157862613E-19	2.53084197054332E-18
51.3	9.16341205733707E-18	3.47092708317621E-17	-0.971008568307823	-0.372114929857688	-0.971008568307824	-0.372114929857689	1.95129959052997E-18	-7.68588896376295E-19
51.4	1.72285814283085E-17	-5.86606978821584E-18	-1.03279342385887	-0.230063312723485	-1.03279342385887	-0.230063312723485	-6.04549590667476E-19	1.86159264673229E-18
51.5	-1.83419906254453E-18	9.72149581782059E-18	-1.0248070736461	-0.0245194211311513	-1.0248070736461	-0.0245194211311512	-2.29532667543712E-18	-9.23484328862175E-18
51.6	2.68937027834289E-19	-6.77541074599332E-18	-1.03541654235543	0.1066637443664	-1.03541654235543	0.1066637443664	-1.65598383531332E-17	-2.31106322488587E-18
51.7	-1.78801521743538E-17	-1.94217960949179E-18	-1.01971383193214	0.273751887793128	-1.01971383193214	0.273751887793128	-1.78311637417828E-17	-1.0907254491733E-17
51.8	-2.46820758515622E-18	-1.08473400674675E-17	-0.901466375634811	0.434608789855619	-0.901466375634812	0.434608789855619	1.82427171815885E-18	-2.98906741196294E-18
51.9	2.52009676231434E-18	6.16348287829641E-18	-0.895367693219917	0.570492020487263	-0.895367693219917	0.570492020487263	6.90200056442349E-18	-1.94341500751305E-17
52	-9.48012537619158E-18	2.45159239981621E-17	-0.730598233145712	0.720241658680146	-0.730598233145712	0.720241658680147	2.18165498490545E-17	6.70255476019215E-18
52.1	5.89730141791149E-18	1.1364116528993E-18	-0.613847718681333	0.809562601424825	-0.613847718681333	0.809562601424825	4.3266942359959E-18	-4.46702795888036E-18
52.2	-1.18395502952744E-17	7.17827521150632E-18	-0.506194402164694	0.898868898452382	-0.506194402164694	0.898868898452382	1.46829428326224E-17	-2.5633649033262E-17
52.3	5.54934326731202E-18	-4.72560305400673E-17	-0.361657257360282	0.967156343735173	-0.361657257360283	0.967156343735173	-4.46020847114568E-17	-1.91724972083946E-17
52.4	1.79881003375393E-19	1.05500208057658E-17	-0.192076578492553	1.04527940956508	-0.192076578492553	1.04527940956508	1.78755195692941E-17	2.60641369933559E-18
52.5	1.90813144673168E-18	-2.36226038156105E-18	-0.0450416497598993	0.984367336454656	-0.0450416497598993	0.984367336454655	-1.48584312804433E-17	-1.32030934229567E-17
52.6	2.74881572860887E-17	-1.5948970181074E-17	0.0973618716676751	1.05090664777866	0.0973618716676747	1.05090664777866	2.35741048679929E-17	-2.11146672705051E-17
52.7	8.82996811715913E-18	2.20464762775472E-18	0.324169203052943	1.0163738457761	0.324169203052944	1.0163738457761	1.50007059536443E-17	-3.00241671195691E-17
52.8	7.88969879816254E-18	-2.60807399569501E-17	0.371661070895756	0.835396958636461	0.371661070895756	0.835396958636461	-3.56771061224917E-17	-4.82501852617434E-18
52.9	-1.68684933462985E-17	3.33666023671866E-18	0.65025390422082	0.935916656117717	0.65025390422082	0.935916656117716	1.67068571381539E-17	-7.07104180895478E-17
53	-2.30620865718349E-17	-4.55287500303815E-18	0.673581480332108	0.710272409259409	0.673581480332108	0.710272409259409	2.18069410927908E-17	2.82060910463764E-17
53.1	9.64203869995265E-18	-2.05317077412873E-17	0.791903077088374	0.666413646231354	0.791903077088373	0.666413646231354	5.40792829642449E-18	9.43529719020141E-18
53.2	-1.60724688008347E-17	-2.20066978782668E-17	0.941752575389826	0.523033180942471	0.941752575389825	0.52303318094247	-8.31870975864293E-18	-1.93491829562512E-18
53.3	-1.80975031921725E-17	-1.21085219960908E-17	0.953345095266627	0.379818157609789	0.953345095266626	0.379818157609789	-2.49207907582319E-17	-1.35386722288626E-17
53.4	-2.38008559853759E-17	1.59421586188135E-17	0.990210178460892	0.162300949376343	0.990210178460892	0.162300949376343	2.21266333031264E-17	7.65682208303089E-17
53.5	1.74777948511603E-17	-1.71470767421519E-17	1.05191925389396	0.109235756500266	1.05191925389396	0.109235756500267	1.70267097714259E-17	-1.97199479607356E-17
53.6	3.26139166578996E-17	-2.49777889480522E-17	1.04364915221705	-0.115883939113926	1.04364915221705	-0.115883939113926	-2.82905289288806E-17	-2.99085405180766E-17
53.7	1.13433972825792E-17	2.28493057468624E-17	0.94271887702309	-0.288186247445178	0.94271887702309	-0.288186247445178	2.44703716157489E-17	-3.28682301404963E-18
53.8	8.83959879810964E-18	-2.30839222939508E-18	1.03762864995196	-0.359969159621885	1.03762864995196	-0.359969159621885	-8.65415800783415E-18	2.28165728990796E-17
53.9	2.34086216962594E-18	-1.34682803782538E-17	0.881376754079869	-0.552830586318383	0.881376754079869	-0.552830586318384	1.3709943750135E-17	-1.10995781480548E-17
54	-1.48427828003945E-17	-1.96196660666025E-17	0.76531561457849	-0.675339921261619	0.76531561457849	-0.675339921261618	-6.8354168230377E-18	-3.58921309919835E-18
54.1	1.98793316530463E-18	2.02049157712829E-18	0.676850359953364	-0.75006904149457	0.676850359953365	-0.750069041494571	2.46083768802731E-17	-2.03324290964633E-17
54.2	1.67643099862398E-17	-5.1089114023458E-18	0.567929194174583	-0.857357476450835	0.567929194174583	-0.857357476450835	2.04126230572146E-17	1.52628123117098E-17
54.3	-2.47422402648875E-18	5.28458257071088E-18	0.382376422804646	-0.957856334554223	0.382376422804646	-0.957856334554223	-2.03685137432413E-17	-5.348516623073E-18
54.4	-7.98710269463834E-18	-6.04716474261494E-18	0.312354115536744	-0.930021665431543	0.312354115536743	-0.930021665431543	2.0728078163876E-17	-5.24895150091065E-18
54.5	-1.10626974223782E-17	4.10621086411167E-18	0.0997686713820349	-1.07547105123359	0.0997686713820352	-1.07547105123359	-1.59134399304061E-17	-2.97812657566499E-18
54.6	1.45847453978017E-17	5.42679211961977E-18	-0.0537700543412714	-1.00003059080932	-0.0537700543412712	-1.00003059080932	-8.51330429528587E-18	1.84174898051802E-17
54.7	9.1934910117671E-18	8.72357230886161E-19	-0.17495359824944	-1.03732257636713	-0.174953598249439	-1.03732257636713	1.78808556222428E-18	9.53988937399368E-18
54.8	1.09061024918115E-17	-6.43794127160684E-18	-0.35430165821091	-0.992259613722758	-0.35430165821091	-0.992259613722757	2.56090805063369E-17	3.92468814881795E-18
54.9	8.48167956488377E-18	-1.62575406465058E-18	-0.495549031979795	-0.900214135257399	-0.495549031979794	-0.900214135257398	6.91484512242398E-18	1.30494893883061E-17
55	2.83561314693463E-18	3.4267565784593E-18	-0.610006441610529	-0.84559471313865	-0.610006441610529	-0.845594713138651	6.86097792470084E-18	3.27430524071423E-18
55.1	4.87727217671288E-18	7.89466952687031E-18	-0.747418712532571	-0.739825936743763	-0.747418712532572	-0.739825936743763	-1.71277955194706E-18	2.01634664643583E-17
55.2	-5.13019680053172E-18	-6.15106409373937E-18	-0.822365955125061	-0.617451186600405	-0.822365955125062	-0.617451186600405	-1.12246992462496E-17	-2.47008338980761E-18
55.3	5.57574491115164E-18	-8.20299074432744E-18	-0.927745570153132	-0.467569622990513	-0.927745570153133	-0.467569622990513	-5.86720261801839E-19	3.92826860501308E-18
55.4	-1.76287012872691E-18	-6.58363839422194E-18	-0.976748486581152	-0.368301117752458	-0.976748486581152	-0.368301117752458	-2.23328925653682E-17	6.7940906399754E-18
55.5	3.55362280128165E-18	-3.87621287985226E-18	-1.04376717498534	-0.190743132016584	-1.04376717498534	-0.190743132016584	1.98586922132919E-18	-5.25199250036178E-18
55.6	1.04188174237984E-18	-3.6129560427639E-18	-1.03092834627103	-0.0492171292156886	-1.03092834627103	-0.0492171292156885	3.15085779844126E-18	5.87052996931796E-18
55.7	5.56410742796869E-19	-5.02041472016935E-18	-1.05189186271748	0.0954981233130268	-1.05189186271748	0.0954981233130269	1.28157366425931E-17	5.52332834220552E-18
55.8	-1.10582623771947E-17	1.17153586826084E-17	-1.01840246263911	0.266210817788821	-1.01840246263911	0.26621081778882	1.02490614318025E-19	2.14652103178674E-18
55.9	-1.14696358735559E-17	-1.0230370266563E-17	-0.972387184991939	0.399719528672149	-0.972387184991939	0.399719528672149	3.48052671196554E-18	-1.69292321285627E-17
56	-4.07955799080556E-18	1.2409260023626E-17	-0.876705331766658	0.54433859112761	-0.876705331766658	0.54433859112761	-2.38973553707216E-18	2.14900509551481E-17
56.1	2.06597112283833E-17	-1.30295371032468E-17	-0.821768035123479	0.656461590123322	-0.821768035123479	0.656461590123322	3.74324981462557E-18	8.47797125015172E-19
56.2	-2.60777212038203E-18	-1.75674187221308E-18	-0.720989495899609	0.782607549057979	-0.720989495899609	0.782607549057978	-3.92978492723219E-18	1.21476503751933E-17
56.3	-5.83257247123659E-18	8.18735071421249E-19	-0.545822875080135	0.880759963319564	-0.545822875080134	0.880759963319564	1.83063097880022E-17	7.54104149398059E-18
56.4	-4.67496861640397E-18	8.32225168261382E-18	-0.474033574812987	0.944824745079524	-0.474033574812987	0.944824745079524	-5.80714965878066E-18	-2.92351725396722E-18
56.5	-1.45754170992184E-17	-1.04799172432681E-17	-0.314574334090176	1.0249105264114	-0.314574334090176	1.0249105264114	-1.47731132685231E-17	-2.08505672831744E-17
56.6	3.59818183942608E-18	7.39321987365261E-18	-0.150848801435458	1.02415459399256	-0.150848801435458	1.02415459399256	2.92089298734657E-17	-6.73646619101192E-18
56.7	9.70484244465081E-18	-6.4911312013067E-18	-0.0111363848905997	1.05006886201889	-0.0111363848905995	1.05006886201889	1.13942669387242E-17	4.06856639339922E-18
56.8	-2.08765241088484E-18	8.57109264268746E-18	0.119569687534289	1.0596327574603	0.119569687534289	1.0596327574603	-1.83506801320762E-17	8.24175536016973E-18
56.9	-1.09792108689697E-17	1.10535452816087E-17	0.280269172940676	1.00526553667619	0.280269172940676	1.00526553667619	1.85353161728521E-17	1.97023685833068E-17
57	-5.60696073849865E-18	1.00902733407238E-17	0.44827079537492	0.922159562689438	0.44827079537492	0.922159562689439	-4.40249637548739E-18	1.74140490632034E-17
57.1	-5.49659668831926E-18	7.26625592477282E-18	0.557230812862784	0.878346861172121	0.557230812862784	0.878346861172122	-2.41780935135319E-17	7.28598525332519E-18
57.2	1.45228967068953E-17	2.62900896072009E-18	0.682760443841545	0.817454109690114	0.682760443841545	0.817454109690113	-7.57872396935411E-18	-1.33709900059963E-17
57.3	-1.91623987675451E-17	1.70805744645556E-17	0.834014646572546	0.638258623630952	0.834014646572546	0.638258623630952	1.04636267763763E-17	1.30249116810562E-17
57.4	-3.08266557863636E-18	-1.00641139756568E-17	0.840857815869243	0.544443984171008	0.840857815869244	0.544443984171009	-1.77215183859345E-17	-1.39916964097973E-17
57.5	1.29240383626961E-18	1.47584084116399E-18	0.96847424852556	0.439229191107945	0.96847424852556	0.439229191107944	-6.50579223206941E-18	-1.47375464066176E-18
57.6	-1.66063426233005E-17	1.74576183436583E-17	1.02467190459365	0.270081546812515	1.02467190459365	0.270081546812514	-3.72787577348233E-18	4.60444258664763E-18
57.7	1.25799156514098E-17	2.96584219666083E-18	1.00695747003824	0.117095081643382	1.00695747003824	0.117095081643382	-3.25890797733681E-18	-1.72527737447354E-17
57.8	2.77756773255762E-17	1.32779011310058E-17	1.04986272812884	-0.00201225047229441	1.04986272812884	-0.00201225047229459	9.58211637542074E-18	5.69942917267672E-18
57.9	-1.916812001212E-18	-1.95031366086379E-17	1.05118952618391	-0.134182612186838	1.05118952618391	-0.134182612186839	2.9241912695458E-17	-1.91616933944076E-17
58	-6.71999628661095E-18	-2.84559644066004E-17	0.983041833943056	-0.346376663908363	0.983041833943056	-0.346376663908362	-1.12481890772604E-17	-2.29985180566507E-17
58.1	2.06285313984587E-17	-1.12301560648758E-17	0.90752654971393	-0.426713447732961	0.90752654971393	-0.426713447732961	-8.33288521648937E-18	-2.04940707619171E-17
58.2	2.55198401204641E-17	-1.81916808858278E-17	0.877082283500348	-0.577744044210276	0.877082283500348	-0.577744044210275	7.41695929242006E-18	-5.14366265912295E-18
58.3	-1.56149470458513E-17	-1.17729978756335E-18	0.766954594546484	-0.711306311468767	0.766954594546484	-0.711306311468768	-1.48563608232344E-17	-4.92706574451024E-18
58.4	-1.09550306917553E-17	-5.37694590668148E-18	0.650929467562375	-0.742861776304168	0.650929467562375	-0.742861776304169	4.5884040130367E-18	-4.02213995260215E-18
58.5	1.83518383672807E-17	-2.66728615372506E-17	0.586515638755358	-0.88169950615464	0.586515638755359	-0.88169950615464	5.1263089322861E-18	-1.79670840419667E-17
58.6	9.04862795525705E-18	1.83084275277001E-17	0.420282825563499	-0.949439592478588	0.420282825563499	-0.949439592478588	3.00623539803934E-17	8.06602589041029E-18
58.7	6.68204527971059E-18	4.121179774463E-18	0.27359679301086	-0.964801104663976	0.27359679301086	-0.964801104663977	-2.20286019307859E-18	2.74084347017898E-18
58.8	1.89720093070308E-17	-1.47814674508008E-17	0.157791838137814	-1.00819813667504	0.157791838137814	-1.00819813667504	1.32597964337955E-17	-1.47171914436215E-17
58.9	-3.28763366181332E-19	4.66545200881292E-18	0.036521815370702	-1.03784094780091	0.036521815370702	-1.03784094780091	-2.33398130205195E-17	-1.47728351288191E-17
59	-1.58053353002234E-17	1.2900841846171E-17	-0.152248368124525	-1.00751345449994	-0.152248368124525	-1.00751345449994	-3.56994073260997E-18	3.69639928948975E-18
59.1	-1.91546620236341E-18	1.82945684900616E-17	-0.254818251532424	-0.97684947959678	-0.254818251532423	-0.97684947959678	-3.42492932414891E-18	2.93037584517832E-18
59.2	-3.80451963685599E-19	1.6673265300698E-18	-0.387159025655638	-0.971500480786937	-0.387159025655639	-0.971500480786938	1.20341380547771E-17	7.87344110926358E-18
59.3	-2.44002870229754E-18	2.69185387484986E-18	-0.55009845348614	-0.852148023441744	-0.55009845348614	-0.852148023441744	-4.99771684019776E-18	2.39311926363713E-18
59.4	3.55135216431451E-18	5.50506365486816E-18	-0.622785059009224	-0.800632442285475	-0.622785059009223	-0.800632442285474	-1.66332690771062E-18	-1.88364380152212E-17
59.5	-7.26415070502707E-20	-9.23094446845151E-19	-0.758714569398888	-0.701354291505251	-0.758714569398887	-0.701354291505251	6.91258577893445E-18	-6.58124596089565E-18
59.6	-1.63579301367139E-18	-1.73231781530725E-18	-0.835174639452332	-0.568042012045033	-0.835174639452332	-0.568042012045033	-5.81165401894948E-18	1.41887339345791E-17
59.7	7.89069053472057E-18	1.21554048040271E-18	-0.914580064673095	-0.475355577621547	-0.914580064673094	-0.475355577621547	-4.09171032534779E-18	-1.06386244837363E-17
59.8	-9.91529328675266E-18	5.40989969350215E-19	-0.981055753673511	-0.338407026366742	-0.98105575367351	-0.338407026366742	6.0122445348231E-18	2.92823025352265E-18
59.9	1.72426739961558E-17	1.60539011756982E-18	-1.00384131584025	-0.211123308827738	-1.00384131584025	-0.211123308827738	-8.50491354232678E-18	5.73019894467227E-18
60	1.61854346114652E-17	2.36388226834293E-18	-1.02175682596304	-0.0457675314791554	-1.02175682596304	-0.0457675314791554	-7.30092356825747E-19	8.13327799222291E-18
60.1	1.07358576866005E-17	1.0855648948304E-17	-1.00827726649307	0.0806320893643547	-1.00827726649307	0.0806320893643549	-1.85699357313611E-17	7.48341118093711E-18
60.2	1.13582523411069E-17	-6.58723112839445E-18	-1.01563535612183	0.197249678961411	-1.01563535612183	0.197249678961411	1.22034839887085E-17	-1.19345519709312E-17
60.3	-1.88265021953977E-17	5.24074182402276E-17	-0.956426316398247	0.375131696022226	-0.956426316398246	0.375131696022226	-6.94815814064037E-18	2.95360345237627E-17
60.4	-8.2625324801955E-19	1.43398894951248E-17	-0.888908631610522	0.452599970600587	-0.888908631610523	0.452599970600587	6.2170562285026E-18	1.19928769996193E-17
60.5	2.07571165433746E-18	-1.4840573121185E-17	-0.836504728566631	0.601290980033968	-0.836504728566632	0.601290980033969	-1.6245207768514E-18	9.1653585226751E-18
60.6	1.92908787047519E-18	-1.93510890452343E-17	-0.740529296270835	0.702368422774945	-0.740529296270835	0.702368422774945	-5.27035534495009E-18	-2.99336925644669E-18
60.7	5.92921560295132E-18	-1.4390353892019E-17	-0.634741276037974	0.800050594841576	-0.634741276037975	0.800050594841576	4.08288167197784E-18	5.54937909522919E-18
60.8	3.31162031441889E-17	-4.01859929888589E-18	-0.524226705901131	0.885014111573308	-0.52422670590113	0.885014111573307	1.80423376261526E-17	1.28743871939184E-17
60.9	1.18578255883267E-17	2.33551562121635E-17	-0.408739921527309	0.945523294438027	-0.408739921527309	0.945523294438027	-3.59089769379593E-19	1.17085420360439E-17
61	-5.58420298056955E-18	-6.85860753851553E-18	-0.262472431259556	0.993509844962911	-0.262472431259556	0.993509844962911	-7.54808225799566E-18	-8.50079584409454E-18
61.1	-1.76888522226054E-17	1.28772851461868E-18	-0.123613383740716	1.00350945329488	-0.123613383740717	1.00350945329488	-2.01086255477376E-17	3.65302553938861E-18
61.2	-4.70056300120887E-18	2.39827532659765E-17	-0.00445710514606978	1.01753074407551	-0.00445710514606954	1.01753074407551	-1.19457117862187E-17	3.087948514361E-17
61.3	-1.01391050028982E-18	5.1068842420034E-18	0.138266287747261	1.02698012159576	0.138266287747261	1.02698012159576	-1.45110771304537E-17	-9.70053758681569E-19
61.4	-1.92099220424583E-17	-4.79571927606428E-18	0.307779978570985	0.974860576714058	0.307779978570984	0.974860576714058	-2.09821548714748E-17	1.6653219235615E-17
61.5	-1.34008294409852E-17	1.10806622525889E-17	0.384575291045858	0.921689521160036	0.384575291045858	0.921689521160037	-1.32644502770054E-17	-2.16479687141095E-17
61.6	-4.5942301408148E-18	-1.96855639177809E-17	0.538859350042775	0.897687688830605	0.538859350042775	0.897687688830604	-3.98563717630039E-19	-1.74500527164989E-17
61.7	9.76752988828986E-19	4.90462634223717E-18	0.661379177141747	0.795763584698788	0.661379177141747	0.795763584698788	-6.96435890342201E-18	-1.33390347564156E-17
61.8	1.55756262994714E-20	2.20627656464211E-19	0.738859834137422	0.688537549061819	0.738859834137422	0.688537549061818	1.60720987810169E-17	1.5260867840086E-18
61.9	2.03779576664872E-17	-6.81883098462146E-18	0.833540426822478	0.580501484849838	0.833540426822479	0.580501484849838	1.74433792715539E-17	1.62111661795812E-17
62	-6.86470012350716E-18	2.83580981752918E-18	0.901682595786108	0.488909723415419	0.901682595786108	0.488909723415419	1.73243447425188E-18	1.52050529715873E-17
62.1	9.01777478471389E-18	3.84335641244523E-18	0.978361023510193	0.353996085432363	0.978361023510194	0.353996085432363	1.05772294093436E-17	-4.63253741353732E-18
