# GHZ S RI R 50
50	-1.65935306434713E-18	-8.5915168345574E-18	0.802699888717701	-0.569132198457471	0.802699888717701	-0.569132198457471	6.61516263907401E-18	5.87966431288707E-18
50.1	-5.90096491784186E-18	8.83116644688206E-18	0.674970293506346	-0.681315797201635	0.674970293506346	-0.681315797201635	-1.61788173971847E-18	-2.37830146622195E-18
50.2	-1.49369971335776E-18	2.15838239000701E-17	0.56680924128945	-0.7778966364672	0.56680924128945	-0.7778966364672	1.05077826952052E-19	-1.01632746486772E-17
50.3	1.26749745869629E-17	2.96502965685839E-18	0.441224517866833	-0.887833530387228	0.441224517866832	-0.887833530387228	-4.6335537165984E-18	-6.11595026796254E-18
50.4	-1.55999706420739E-17	-8.63857242755449E-18	0.246432258197906	-0.91265019981346	0.246432258197906	-0.91265019981346	1.00986121533806E-17	-3.96790944118591E-19
50.5	1.429443946472E-17	7.38636433326891E-18	0.131286346377254	-0.968589681434522	0.131286346377254	-0.968589681434522	-6.03263920181897E-18	5.34150212543977E-20
50.6	-1.2855765021287E-18	-1.2901076098518E-17	-0.0479797272731157	-0.965361361557748	-0.0479797272731159	-0.965361361557746	3.54666315016167E-18	2.90387489909732E-18
50.7	2.31355137955109E-18	-1.0938823501474E-17	-0.1902804451349	-0.940193110683761	-0.190280445134901	-0.94019311068376	-5.42398727332014E-18	-4.64112133421178E-18
50.8	8.52411835801456E-19	-6.56879572738481E-18	-0.360807823069108	-0.920657572211378	-0.360807823069108	-0.920657572211378	1.09246833923378E-17	-3.18127679202004E-18
50.9	-2.88792580172706E-17	7.60696445947854E-18	-0.488041196798716	-0.814200121188048	-0.488041196798716	-0.814200121188048	-2.01555947488433E-17	2.11313382052359E-17
51	-4.37333844710467E-18	-1.41419418811295E-17	-0.6318748262037	-0.744831337721346	-0.6318748262037	-0.744831337721347	-4.08929358336652E-18	-5.70787307944256E-18
51.1	3.33355385300972E-17	1.1474629405317E-17	-0.739715198085496	-0.627863600980874	-0.739715198085496	-0.627863600980874	1.55443413279024E-17	1.3990680101711E-17
51.2	9.52227543574097E-19	2.2284071153544E-17	-0.825807987144486	-0.495334321300222	-0.825807987144486	-0.495334321300222	2.08097673393898E-18	-2.93395093154608E-18
51.3	-2.63007335492975E-18	8.13849220779817E-18	-0.900351439076428	-0.356975936037293	-0.900351439076427	-0.356975936037293	-1.49746212733847E-18	7.52839209094852E-18
51.4	2.61089764619613E-17	-1.73404580263412E-17	-0.962671931504553	-0.225582785558001	-0.962671931504553	-0.225582785558001	3.33359910512335E-18	-9.70476110883407E-18
51.5	-4.30065964465588E-18	4.72296029867588E-18	-0.952760077762983	-0.0350440751021278	-0.952760077762983	-0.035044075102128	8.64912348718069E-18	6.37119789068432E-19
51.6	-4.33313242381141E-18	9.54474688535761E-18	-0.96935022953403	0.0865720222128898	-0.96935022953403	0.0865720222128899	1.65788258137705E-18	8.04867649948051E-18
51.7	-1.39035921402682E-17	3.72311404089882E-18	-0.957973427464145	0.244344526668147	-0.957973427464145	0.244344526668147	-8.869981417213E-18	1.44972699110395E-17
51.8	-2.10150879480557E-18	-9.72882273368801E-18	-0.846748935906656	0.390294328839074	-0.846748935906656	0.390294328839074	-1.13708927492496E-17	-1.78052220814309E-18
51.9	1.01201905534586E-17	-8.68494472391773E-18	-0.848114420653769	0.52451378855653	-0.848114420653769	0.52451378855653	2.70079192082834E-17	1.15557244996531E-17
52	-2.24397543955951E-18	3.29282231386567E-17	-0.691706772092195	0.661954891496745	-0.691706772092196	0.661954891496746	1.09279739636713E-17	4.85766046874154E-18
52.1	5.84018388343672E-18	7.43663645519438E-18	-0.586753172483991	0.746964151211274	-0.586753172483992	0.746964151211274	1.1238140579315E-17	-6.76685650130768E-18
52.2	4.82560967908033E-18	1.95388679941604E-18	-0.489231062405559	0.835496956747649	-0.489231062405559	0.835496956747648	-1.59974073388432E-17	8.0439793569957E-18
52.3	8.09588447953543E-18	2.48370408827906E-17	-0.355368995782834	0.902654823402142	-0.355368995782834	0.902654823402142	2.5787157427339E-17	1.064049122754E-17
52.4	-1.34687133649949E-17	-1.72422217490556E-17	-0.193938284773415	0.979438632627264	-0.193938284773414	0.979438632627264	-2.21146928927058E-17	2.64244594563619E-17
52.5	-1.34516117087786E-17	-3.6506375436764E-19	-0.0637149463255217	0.923351382928134	-0.0637149463255209	0.923351382928133	2.33739746159809E-18	3.18293366934002E-17
52.6	-2.66837932999826E-18	3.96153923952402E-17	0.0753707745633907	0.993660048841391	0.0753707745633905	0.993660048841391	4.86657321874197E-17	4.48521873262252E-17
52.7	-1.11183022730583E-17	-9.39035113759264E-19	0.291627871766527	0.958893054071664	0.291627871766527	0.958893054071664	2.41614160123902E-17	-1.50982535460835E-18
52.8	8.64010550542884E-19	2.72788829469526E-18	0.322715049062686	0.795951998504065	0.322715049062686	0.795951998504065	-1.16940497434839E-17	-4.70045135330092E-18
52.9	6.8288699962675E-19	1.75319158334156E-17	0.606491911020929	0.889063444206744	0.606491911020929	0.889063444206744	2.09829240019979E-17	1.25386777097878E-17
53	4.67849765161906E-18	-2.47203076090738E-18	0.616415620828321	0.682666786843488	0.616415620828321	0.682666786843489	1.66338729554807E-17	-1.83990307338073E-17
53.1	3.25449084813218E-17	1.75184050629987E-17	0.736741488122615	0.645595776203225	0.736741488122614	0.645595776203224	4.17904016933441E-17	1.12564213506507E-17
53.2	4.31857835798727E-18	1.09956112075953E-17	0.88209749769857	0.507343129431733	0.88209749769857	0.507343129431734	6.52064583655955E-18	7.63640576111186E-18
53.3	-1.1029486963004E-17	2.72719017650397E-18	0.894314492775717	0.378278964440664	0.894314492775717	0.378278964440665	3.95611523759921E-17	-1.5603621320338E-17
53.4	1.50661589846853E-17	-9.06714611775996E-18	0.926971347167939	0.172511626187947	0.926971347167938	0.172511626187947	-1.04022200580415E-17	-7.31644707852349E-18
53.5	3.41086188302427E-18	-1.36218764695656E-17	0.998354267023689	0.123091826721553	0.998354267023689	0.123091826721553	1.80891953511774E-17	1.08626849122823E-17
53.6	-2.34302570388387E-17	-4.33627618501091E-18	0.988861596891161	-0.0913189737860225	0.98886159689116	-0.0913189737860224	1.41225297315855E-17	1.04206317252645E-17
53.7	-1.29243219653273E-17	7.82797785161786E-18	0.8933429532121	-0.249445738457351	0.893342953212099	-0.249445738457351	3.11800427588552E-17	4.6690080437657E-18
53.8	-4.13520753999761E-17	1.14756362900743E-17	0.996829890625649	-0.327397410811743	0.996829890625648	-0.327397410811743	-1.13386024068957E-17	2.96922098055234E-17
53.9	4.30722042023561E-18	8.04345409300635E-18	0.845931396211416	-0.50686967086476	0.845931396211417	-0.50686967086476	3.39026833922788E-18	-1.34923281256847E-17
54	-5.68483146376305E-18	-1.00119999090018E-17	0.738694706804479	-0.623125595663106	0.738694706804479	-0.623125595663106	-9.67729389378502E-18	-1.06945457773093E-17
54.1	-1.27275494622511E-17	1.88504017425345E-18	0.660929565724974	-0.697312940454634	0.660929565724974	-0.697312940454634	-8.27450023661504E-19	1.44765497270959E-17
54.2	-9.99390612029435E-18	-7.82328597027562E-18	0.559211649457832	-0.803678774605515	0.559211649457832	-0.803678774605515	2.91687074391011E-18	6.92293810073009E-19
54.3	1.43218765786781E-18	-1.52005119422469E-17	0.381638469069718	-0.899437492779522	0.381638469069719	-0.899437492779522	-9.88157304750024E-18	-4.26875491094157E-18
54.4	-3.32757070711076E-17	1.0795739760805E-17	0.324195150311533	-0.880716314424897	0.324195150311533	-0.880716314424897	-3.11895612586271E-17	-1.05063327298557E-17
54.5	-9.54087289685211E-18	9.11164353709507E-18	0.112943586868871	-1.02072852563236	0.112943586868871	-1.02072852563236	2.33644427487335E-17	2.96079268894893E-17
54.6	-1.73232798148675E-17	1.35576194858741E-17	-0.0267569971216229	-0.951044165980333	-0.026756997121623	-0.951044165980333	-1.53916500096653E-17	3.38947382938705E-17
54.7	-7.16812226454679E-18	-3.33342156750319E-18	-0.145829006919072	-0.993943111419086	-0.145829006919072	-0.993943111419087	-6.0373255377972E-18	7.29361373430152E-18
54.8	-2.27343025291027E-17	6.1329903452016E-18	-0.317767555220875	-0.952507291144312	-0.317767555220875	-0.952507291144311	-2.79870832126451E-17	-5.2330656391031E-18
54.9	1.57885604194301E-17	-1.13227850410141E-17	-0.451581090408342	-0.867806091882685	-0.451581090408342	-0.867806091882685	1.94507856467445E-17	-4.6154596240092E-18
55	4.41893327698201E-19	8.46420185061501E-18	-0.564374196536412	-0.820769660920435	-0.564374196536412	-0.820769660920436	-4.00450491640506E-18	1.04462893769305E-17
55.1	-1.29671644194213E-17	-4.41692546301995E-18	-0.697883003757989	-0.721317971386817	-0.697883003757989	-0.721317971386816	-1.45802894153166E-18	-8.79021587163435E-18
55.2	-3.92207094555141E-18	-3.80039377205087E-18	-0.771418822273938	-0.608885632001839	-0.771418822273937	-0.608885632001839	-1.15167034109837E-17	1.30857217091893E-17
55.3	-8.71109877847406E-18	6.87662321777295E-18	-0.874231172842817	-0.465921915247482	-0.874231172842818	-0.465921915247482	-1.50917726314454E-17	5.01015010739211E-18
55.4	-1.2954966216698E-17	-4.0602517122901E-18	-0.927291742950211	-0.374336838646338	-0.927291742950211	-0.374336838646338	-1.40486771847957E-17	3.32046580925655E-18
55.5	-9.8407673925724E-18	-4.20709390002759E-18	-0.993407526201582	-0.203443237095102	-0.993407526201582	-0.203443237095102	-9.54053644090114E-18	4.16581430305372E-18
55.6	-4.78295678442097E-18	-2.40356424166775E-18	-0.985269543026588	-0.0710208945667346	-0.985269543026588	-0.0710208945667347	-3.59326051304436E-18	1.18969627137661E-18
55.7	5.57141571978571E-18	4.61961945353914E-18	-1.01014704357534	0.0690884478726855	-1.01014704357534	0.0690884478726857	9.73385105943527E-18	2.25246559721676E-18
55.8	-1.13978324670394E-18	1.53663163398334E-17	-0.980468238521013	0.232872261274934	-0.980468238521014	0.232872261274934	4.7637123695797E-18	1.33805389078473E-17
55.9	-4.08870719332793E-18	-1.7685545784449E-17	-0.940952626958308	0.361876980138259	-0.940952626958308	0.361876980138259	3.92621819132269E-18	-3.54413472628858E-18
56	9.04374168740961E-18	1.16538903468754E-18	-0.851901309737731	0.50036572598996	-0.851901309737731	0.50036572598996	-2.81465996905009E-18	1.20015299886284E-17
56.1	9.44291195793831E-18	-1.76000604101568E-17	-0.803712684943461	0.61214857134756	-0.803712684943461	0.61214857134756	3.79028206854762E-17	-4.24539053056174E-18
56.2	-1.46906347341511E-18	9.12213852663277E-18	-0.708935894807388	0.736196314196575	-0.708935894807388	0.736196314196575	9.13910787198067E-18	-2.21049842175582E-17
56.3	-1.12050066809946E-18	7.00328188613736E-18	-0.54245387304366	0.829669598385989	-0.54245387304366	0.829669598385989	-5.66333022599106E-18	-8.6850568504125E-18
56.4	1.77030802747882E-18	-1.42008150579956E-17	-0.476929861296545	0.898486405315449	-0.476929861296545	0.898486405315449	-1.49551800242446E-17	-2.88534056426038E-18
56.5	4.91893887232854E-18	8.81374130000561E-18	-0.323512793981022	0.978028548650398	-0.323512793981021	0.978028548650398	-8.06381247189765E-18	4.79007074323115E-17
56.6	6.07732746775535E-19	3.40254162070275E-18	-0.169385488133519	0.979720342542455	-0.169385488133519	0.979720342542455	5.88546781985866E-18	3.91833054483386E-18
56.7	-2.25142461110856E-18	6.9398219981025E-18	-0.0347008261767416	1.00938153660083	-0.0347008261767417	1.00938153660083	-3.09828897547335E-17	1.2056811837677E-17
56.8	2.115500018888E-17	3.61192396422622E-18	0.0922319207211316	1.02394418405269	0.0922319207211318	1.02394418405269	-2.54415125505309E-18	1.16433451129934E-17
56.9	1.21718089950885E-19	3.91680261392215E-18	0.246092830402115	0.974516153490106	0.246092830402115	0.974516153490105	-2.55100866000237E-17	1.17703867126579E-17
57	-1.59218676038118E-17	1.56688517316584E-17	0.407123762616952	0.896310975270521	0.407123762616953	0.896310975270522	-4.9974763879302E-17	9.8646877197061E-19
57.1	6.12062914398661E-19	2.10595865150317E-17	0.515538309439472	0.859360609569096	0.515538309439472	0.859360609569097	3.36137300354643E-17	-3.78724553170875E-18
57.2	-4.21832139235273E-17	-8.71292928215415E-18	0.640596609278834	0.803743677115011	0.640596609278834	0.803743677115012	-4.59296276937682E-17	-2.93088924673393E-17
57.3	-3.95796116891475E-17	1.23143121222893E-17	0.784540278945709	0.630585409937222	0.784540278945708	0.630585409937222	-1.72663649723581E-17	7.40113917947306E-18
57.4	-8.97272299906589E-18	-1.21787540341647E-17	0.795596907938427	0.548262693112445	0.795596907938428	0.548262693112446	-1.70059644659935E-17	3.72407763249584E-17
57.5	-1.48189621570806E-18	-6.98499007801053E-18	0.923940887849662	0.445228870481747	0.923940887849663	0.445228870481748	1.56576208821412E-17	7.94006907886082E-18
57.6	1.31064699907694E-18	7.22813574164671E-18	0.979978300126714	0.283161168536623	0.979978300126714	0.283161168536623	-1.56067619384682E-18	7.55157097829756E-18
57.7	4.1816146000732E-18	1.50227008021178E-17	0.966102100290753	0.139653589462216	0.966102100290753	0.139653589462216	6.16012134698804E-18	-3.3515424339541E-18
57.8	-1.16154851201398E-17	3.64349109246951E-19	1.01344717364421	0.0230166254972726	1.01344717364421	0.0230166254972726	-2.75212132980927E-17	-2.26641295911958E-17
57.9	-1.79574845035556E-17	-1.40538663442219E-17	1.0197131925351	-0.105530993793922	1.0197131925351	-0.105530993793922	4.91987957646431E-18	-2.98994307212056E-17
58	3.18587662292409E-19	-3.45887231103553E-18	0.953453795522436	-0.309091525215797	0.953453795522436	-0.309091525215798	3.04002122109876E-19	-2.63136937306289E-17
58.1	-3.32673689050537E-18	3.5715416917908E-18	0.888010401867782	-0.386416947031685	0.888010401867782	-0.386416947031685	5.41856184260815E-18	-1.05167683652394E-17
58.2	8.01588434278237E-19	3.92708678314819E-19	0.860778420682608	-0.536821394169381	0.860778420682608	-0.536821394169381	-2.09186719554013E-17	2.95109309620832E-17
58.3	-5.25180182374724E-18	-6.63957291814836E-19	0.756560337374704	-0.66693460757125	0.756560337374704	-0.66693460757125	-1.30796241337252E-18	-3.72252031310311E-18
58.4	3.63690092453527E-17	1.96924458361306E-17	0.651883286139738	-0.699515840610043	0.651883286139738	-0.699515840610043	2.9594040032743E-17	1.38107980475216E-17
58.5	2.44887173266967E-17	8.59101609982283E-18	0.588778226992783	-0.840203063007625	0.588778226992783	-0.840203063007625	1.55340673145353E-18	1.49770041664405E-17
58.6	1.85523579823162E-17	2.54675877532984E-17	0.430134542391697	-0.906923603920128	0.430134542391697	-0.906923603920128	3.62047626467318E-17	1.66865114707068E-17
58.7	7.756667988147E-18	-2.5348312486957E-18	0.291939471670712	-0.924983962753323	0.291939471670712	-0.924983962753324	1.84547828421075E-17	-5.00070496337029E-18
58.8	7.07920632223531E-18	9.98193886033193E-18	0.179952558174713	-0.972566030573491	0.179952558174713	-0.972566030573491	1.98084118689278E-18	7.59009804640633E-19
58.9	-6.76261964722584E-18	1.16134617097849E-17	0.0616955800095859	-1.00669188976269	0.0616955800095862	-1.00669188976269	3.53039057794321E-18	1.46577686980182E-17
59	-1.97521806565506E-17	1.14324032440881E-17	-0.119926255891529	-0.978761824474289	-0.119926255891529	-0.978761824474289	-7.10349016511633E-18	-4.09909896005662E-18
59.1	-6.53318446294624E-18	1.80177283253909E-17	-0.220156936860014	-0.955472760193134	-0.220156936860014	-0.955472760193134	-7.17247327540603E-19	1.47235813758084E-17
59.2	-1.26065702551948E-18	-4.23529305065088E-18	-0.352369163386442	-0.954153642054993	-0.352369163386443	-0.954153642054994	-9.38799324638677E-18	-4.07388492195569E-18
59.3	1.27518951352399E-17	-1.36225894009174E-18	-0.508907591238738	-0.840180583997934	-0.508907591238738	-0.840180583997934	1.59377718335131E-17	-1.58588089228435E-18
59.4	-1.03176177162955E-17	1.35926468041523E-17	-0.583966314419003	-0.796068291906198	-0.583966314419003	-0.796068291906197	-1.01999528203692E-17	5.65243570134112E-18
59.5	1.06713698591394E-17	7.38230463741587E-18	-0.71845615461661	-0.700826359211406	-0.71845615461661	-0.700826359211406	1.39535906220437E-17	-1.22070113361397E-18
59.6	-1.43018729627433E-17	1.5254241853664E-17	-0.794680283586939	-0.574881609757317	-0.794680283586938	-0.574881609757316	-2.79676959448768E-18	7.51037560039575E-18
59.7	4.06645238780509E-18	5.68922732235137E-18	-0.877086325419945	-0.486382343849033	-0.877086325419945	-0.486382343849033	8.32070472025242E-18	5.09004545557681E-18
59.8	-1.26365079353539E-17	-1.64381049636706E-18	-0.945067350495144	-0.354302759456615	-0.945067350495144	-0.354302759456615	-5.82235027717136E-18	-2.73437165176938E-18
59.9	4.0692550548439E-18	-3.6405393682611E-19	-0.971894218391717	-0.232372047472854	-0.971894218391717	-0.232372047472854	2.88285261045802E-18	3.88999986978106E-18
60	4.59649261110497E-18	4.14183845676802E-18	-0.991974271872215	-0.0722501198581753	-0.991974271872215	-0.0722501198581753	1.53277194466802E-18	-4.54499311383023E-18
60.1	6.86116742181711E-19	6.70090559391741E-18	-0.983985156312596	0.050244580778055	-0.983985156312597	0.0502445807780552	-1.66464666635333E-17	1.10148016398634E-17
60.2	1.35910679896037E-17	1.77880455375494E-17	-0.996274825564704	0.16624481243903	-0.996274825564704	0.16624481243903	-3.19773992824758E-18	1.79380658394144E-17
60.3	1.26596517699477E-17	-3.74129504189358E-18	-0.940327276764962	0.339118407042927	-0.940327276764962	0.339118407042927	1.65106836602333E-18	5.38605271630573E-18
60.4	-8.01511779756867E-18	1.68815797651911E-17	-0.881359178052187	0.416297611081568	-0.881359178052186	0.416297611081567	-2.15569352062277E-17	-4.92486425425485E-18
60.5	-7.81031209458209E-18	6.65976421199186E-19	-0.831822927653231	0.564338017635729	-0.831822927653231	0.56433801763573	-4.07165015259084E-19	-1.61958981304593E-19
60.6	-4.03195430093023E-18	5.19125699064999E-18	-0.7418438212472	0.665287402070627	-0.7418438212472	0.665287402070627	-5.60410816866795E-18	3.72015258805236E-18
60.7	-3.50187499364338E-18	4.9909525999866E-18	-0.641254244476942	0.763469688656892	-0.641254244476942	0.763469688656892	-5.81757313968585E-19	6.66743621649113E-18
60.8	-2.73307235032579E-17	7.26715711517399E-18	-0.535350099185008	0.84998315704979	-0.535350099185008	0.849983157049791	6.32016205207717E-18	-9.09218023542484E-18
60.9	8.42812578429733E-18	-2.34367577681032E-17	-0.424451365975001	0.913285269807484	-0.424451365975001	0.913285269807484	1.12212474145751E-17	-7.16300682688444E-18
61	9.84546324661122E-18	2.34792936234585E-17	-0.282959426888581	0.963215302168849	-0.282959426888581	0.963215302168849	6.87912641565789E-18	1.27378282356118E-17
61.1	5.4583082042973E-18	-8.94869578696371E-18	-0.149043677770992	0.977135580367891	-0.149043677770993	0.977135580367891	-4.19511829937323E-18	4.90427506616448E-18
61.2	-1.31581340790998E-17	1.66251214826721E-17	-0.0321851140053721	0.995941452315803	-0.0321851140053718	0.995941452315803	-8.01541299966827E-18	1.71736148028314E-17
61.3	1.06994534827011E-17	-2.42651421276716E-17	0.108725725794883	1.00873046560925	0.108725725794883	1.00873046560925	4.86458959405684E-18	6.59221658264099E-18
61.4	-1.40661438910318E-18	-4.21526819605187E-18	0.27365440358939	0.960231680172829	0.27365440358939	0.960231680172829	-3.86272471069224E-18	-2.94598873142379E-18
61.5	3.51113696344845E-17	-5.79317257363546E-18	0.350744915587104	0.915079147625091	0.350744915587104	0.915079147625091	1.82110062405545E-17	-9.64502965258604E-18
61.6	-3.75584294358791E-18	-4.38477967103482E-18	0.505307485471568	0.892816927678361	0.505307485471568	0.892816927678361	-1.47884093726137E-17	-1.79304263966843E-17
61.7	9.96119394670635E-18	4.2442800411941E-18	0.626329432873931	0.796146199068158	0.626329432873931	0.796146199068158	1.36337887050084E-18	1.93282431234355E-18
61.8	-2.20394310283178E-17	5.49809829040268E-18	0.704724030092498	0.695539707608721	0.704724030092498	0.695539707608721	1.35991940190359E-17	-6.03624030538726E-19
61.9	6.90704525293014E-18	-1.85256175641158E-17	0.800473369749291	0.591829454740148	0.800473369749291	0.591829454740148	4.5346244156223E-18	-1.60001124427303E-17
62	-1.74450928769786E-18	4.98016626026779E-19	0.87218474723504	0.503870244637624	0.87218474723504	0.503870244637624	-2.89607969428525E-17	-2.29181030226876E-17
