# GHZ S RI R 50
50	1.89901006776715E-17	3.52795618256309E-17	0.860739597315153	-0.612209339693351	0.860739597315153	-0.61220933969335	-1.02211477220835E-17	3.62054672091048E-18
50.1	1.73053990152124E-17	-1.87584982141305E-17	0.722589584406621	-0.735648512283754	0.722589584406621	-0.735648512283754	-4.5611001513939E-18	2.84897699808689E-18
50.2	-5.55769039809041E-18	-6.42089418767009E-18	0.602978240161483	-0.837560738400875	0.602978240161482	-0.837560738400875	-4.67676950132238E-18	-2.33194216622907E-18
50.3	-5.83305914128937E-18	-2.44076596823487E-17	0.468789701288702	-0.950950758475747	0.468789701288702	-0.950950758475748	1.36084973712834E-17	4.91668300002415E-18
50.4	1.90435162683209E-17	-1.91049576710297E-17	0.258745544855113	-0.983287693473875	0.258745544855114	-0.983287693473876	7.73599750870588E-18	1.36451511377391E-17
50.5	1.24624881806612E-17	-6.4978252160715E-18	0.133893387080974	-1.03540877703316	0.133893387080974	-1.03540877703316	-4.7645228829478E-20	3.89778865620715E-18
50.6	-7.06488193418752E-18	3.5994278936771E-18	-0.0581184722291779	-1.03273930320205	-0.0581184722291777	-1.03273930320205	7.16900217181566E-18	-2.6772725627931E-18
50.7	-3.69944401968725E-18	6.43147291024161E-19	-0.212155578157531	-1.00247768753026	-0.212155578157531	-1.00247768753026	2.95154502766301E-18	6.66100178245875E-18
50.8	-1.36336977773051E-17	-3.69347180616575E-19	-0.390294049243183	-0.979566244810864	-0.390294049243182	-0.979566244810864	4.79026158108761E-18	-5.52413375649453E-19
50.9	2.00363310526326E-17	-1.18405801713307E-17	-0.530410435118716	-0.864663565872917	-0.530410435118716	-0.864663565872917	1.1324812501853E-17	-2.22765281737819E-17
51	-6.18844862355015E-18	-9.47904608219021E-18	-0.67961520150698	-0.788659920999254	-0.67961520150698	-0.788659920999254	-1.30170072565075E-17	-1.94419748026196E-18
51.1	-2.44731652657894E-17	-1.01304080860917E-17	-0.794116909678717	-0.66199578146901	-0.794116909678717	-0.66199578146901	-8.78574503157929E-18	3.49255406917255E-18
51.2	-7.08768436769866E-18	-1.17246983935493E-17	-0.88504659038817	-0.518795153109577	-0.88504659038817	-0.518795153109577	-1.08274744389813E-18	-5.67099552124281E-18
51.3	-2.51232512551148E-18	5.18296941956787E-18	-0.961917809498973	-0.37041077777458	-0.961917809498972	-0.37041077777458	-9.07496723528554E-18	1.41582053778344E-17
51.4	-1.34304756959599E-17	-9.52863448679975E-18	-1.02316385413211	-0.230081821959775	-1.02316385413211	-0.230081821959776	-3.17043703598577E-18	-3.61291616384772E-18
51.5	-4.00775877092145E-18	8.31392196603923E-18	-1.01570372634317	-0.0257360800998134	-1.01570372634317	-0.0257360800998133	5.00268798954896E-18	7.42601856796281E-18
51.6	-1.00814288461055E-17	-1.01817117973714E-17	-1.02606865041231	0.103662783485291	-1.02606865041231	0.103662783485291	-1.9123966091259E-17	2.02096255278807E-18
51.7	1.2234740152937E-17	-9.19487032958417E-18	-1.01091392991533	0.268995033422251	-1.01091392991533	0.268995033422251	1.74444851430909E-17	3.59489568066932E-17
51.8	-3.86135588172656E-18	3.45937087902011E-18	-0.893521122328433	0.429248291239279	-0.893521122328433	0.429248291239279	9.31476043734759E-18	7.45737031780405E-18
51.9	-2.60158130689508E-18	-1.2289094839642E-18	-0.888261858685889	0.562788064760527	-0.888261858685889	0.562788064760527	-1.19752999042984E-17	2.08605712348162E-17
52	4.98510358102165E-18	2.20428669880308E-17	-0.725019511768431	0.712257923909265	-0.72501951176843	0.712257923909265	2.40795578536803E-17	6.47628173892673E-18
52.1	-3.94201049695839E-18	-4.37596542661552E-18	-0.609349045907031	0.800587559196974	-0.609349045907031	0.800587559196975	8.17332428035486E-18	3.20661357084843E-18
52.2	-3.80149565437554E-18	3.33619655415944E-18	-0.503199117481089	0.888774730245217	-0.503199117481089	0.888774730245217	1.48964292664442E-17	1.42749371523181E-17
52.3	-4.06847231295199E-18	1.15020147509295E-17	-0.360313098166785	0.956543296449819	-0.360313098166785	0.956543296449819	2.11272583120386E-17	8.90108072508837E-18
52.4	-4.90011715174058E-18	2.33418645980454E-17	-0.192957728025174	1.03463322150135	-0.192957728025174	1.03463322150135	4.24458696746935E-17	2.87629365618706E-17
52.5	2.19586457789412E-17	-4.52068535380545E-18	-0.0465095052418626	0.973658571527431	-0.0465095052418624	0.973658571527432	8.7300345794188E-19	-2.64096640982682E-17
52.6	-1.75987010712018E-17	-1.63005409080224E-18	0.0931329705284472	1.04022580949053	0.0931329705284476	1.04022580949053	-1.89833659576621E-17	2.26538640573941E-17
52.7	-1.72939752041195E-17	-4.41833373877526E-18	0.31826615288555	1.00735351538774	0.31826615288555	1.00735351538774	-2.35704798300829E-17	4.72958377889213E-17
52.8	2.0947017314438E-17	-2.03222465032044E-18	0.366100587217093	0.825860417575061	0.366100587217092	0.825860417575062	9.30990967815183E-18	-1.44890752012945E-17
52.9	1.40158927633035E-17	-8.85267057226183E-18	0.640548991735229	0.929446571355937	0.640548991735229	0.929446571355937	3.34403024288411E-17	-6.29505413648249E-17
53	9.55162899742595E-18	3.80191607385514E-18	0.664675673827658	0.703729422092494	0.664675673827659	0.703729422092494	-1.92191404463606E-17	-5.57528195607696E-18
53.1	3.84585723223832E-17	-1.23990410641806E-17	0.780926642379991	0.661501687390209	0.78092664237999	0.661501687390209	-6.42337846290854E-18	-1.6428833406306E-17
53.2	3.71704770951106E-18	1.73761146532252E-17	0.930160409503852	0.520759227877479	0.930160409503852	0.520759227877479	-3.24215411420535E-17	3.69265135250003E-18
53.3	7.62705281711703E-18	2.36719022986825E-18	0.941348609406292	0.378493209376378	0.941348609406292	0.378493209376378	1.8937521838946E-17	-6.10164225369362E-17
53.4	-1.2868237790634E-17	2.17857162690491E-17	0.979059460933047	0.162783139265438	0.979059460933046	0.162783139265438	-2.11451160097814E-17	9.02237355478936E-18
53.5	-6.80069553239027E-18	-4.3949839959055E-18	1.03926008775103	0.112135681084503	1.03926008775103	0.112135681084503	-2.98996196409716E-17	3.65708026698097E-18
53.6	1.45046515348236E-17	6.70327614825823E-19	1.03247657288248	-0.111118175044254	1.03247657288248	-0.111118175044254	-5.1378715772964E-18	-3.23847108119993E-17
53.7	1.03224165740847E-18	5.25388985819526E-18	0.932604789519041	-0.282771886546024	0.932604789519041	-0.282771886546024	-6.27558141114638E-18	9.14357058940803E-18
53.8	-1.10129608169893E-18	8.59947782463977E-18	1.02713184033606	-0.350685870977483	1.02713184033606	-0.350685870977483	-3.68192012803987E-17	2.58765374063933E-17
53.9	7.38094605709329E-18	-4.55375949683468E-19	0.873106607305043	-0.543308496344585	0.873106607305043	-0.543308496344584	-9.97690803651176E-18	1.19570687992466E-17
54	4.2906720245365E-19	1.69691821048149E-17	0.758499050212284	-0.66490241061879	0.758499050212284	-0.664902410618789	-1.85537971307233E-17	-7.79142134563572E-18
54.1	-1.33052582714213E-17	-1.21730108135868E-17	0.671119836612861	-0.738267424755353	0.671119836612861	-0.738267424755353	-3.4051516169977E-17	6.72136436977544E-18
54.2	1.53554025581182E-18	-1.03203785133276E-17	0.564252915881044	-0.844479513125032	0.564252915881044	-0.844479513125031	-4.9837122874077E-18	1.36855873070448E-17
54.3	3.38808717424034E-18	1.07684949770145E-17	0.381168378254281	-0.945219234475853	0.381168378254282	-0.945219234475853	1.0911998432187E-17	4.25541029635003E-18
54.4	3.66171294217454E-18	5.89442663721898E-18	0.311802175990278	-0.916050770393328	0.311802175990279	-0.916050770393329	1.88283619494065E-17	-2.44537722063565E-17
54.5	-2.77373899712193E-18	-1.6658856974024E-17	0.103264056951588	-1.06243907658018	0.103264056951587	-1.06243907658018	-1.39943828286038E-17	-1.08035830506165E-17
54.6	-7.42918615586931E-18	-6.07005639789209E-18	-0.0495870059847533	-0.987512942153667	-0.0495870059847528	-0.987512942153668	-4.38265107867191E-18	7.25929493612216E-18
54.7	5.4062871349653E-18	2.12841572117746E-18	-0.167948301901697	-1.02494236658425	-0.167948301901697	-1.02494236658425	-2.86874900667961E-18	-1.8779219294414E-17
54.8	1.90837129367377E-18	8.7562971003138E-19	-0.345499868678726	-0.981439528964636	-0.345499868678726	-0.981439528964636	3.24192831821125E-18	7.03185429290492E-18
54.9	7.72116904007861E-18	6.66170724700855E-18	-0.485590372135437	-0.890758717082944	-0.485590372135437	-0.890758717082943	2.51768898501962E-18	2.68509177046924E-18
55	-5.33763053898725E-18	-4.25767612840559E-18	-0.598150030107482	-0.837408500623267	-0.598150030107481	-0.837408500623267	-4.6176707956707E-18	-3.52530583703304E-18
55.1	3.74280466872864E-18	3.96999779322619E-18	-0.734415896002999	-0.733795098960305	-0.734415896002999	-0.733795098960304	-7.47098385840991E-18	9.35493643492975E-18
55.2	1.0091749012964E-17	-7.00436768062756E-18	-0.80857311154028	-0.612964311994	-0.80857311154028	-0.612964311994	1.36938622501123E-17	9.14265031842079E-18
55.3	1.60173855962857E-17	1.42933323968717E-17	-0.913643127984209	-0.465618191830423	-0.913643127984208	-0.465618191830423	5.9801044818468E-19	8.58363649553587E-18
55.4	1.34091421643268E-17	7.09133301541096E-18	-0.961653022175006	-0.368259045562617	-0.961653022175006	-0.368259045562616	1.16003382578092E-17	3.38925235423386E-17
55.5	2.90014534660564E-18	8.2760761181987E-18	-1.02918646628423	-0.193439577736343	-1.02918646628423	-0.193439577736343	6.09470785680932E-18	7.80291136107104E-20
55.6	-4.9854302181533E-18	-4.14231553932756E-18	-1.01658483953862	-0.0535668821628613	-1.01658483953862	-0.0535668821628613	-9.40407131745828E-18	-1.3647920709374E-17
55.7	8.8292354851345E-18	1.34816557735413E-18	-1.03807363339653	0.0885683511084059	-1.03807363339653	0.088568351108406	5.62510604029419E-18	-4.78801582380891E-18
55.8	3.35918170152682E-18	2.93423783563459E-19	-1.00598631090038	0.257338792789018	-1.00598631090038	0.257338792789017	5.97585561546224E-18	3.12569137083009E-18
55.9	3.30688969835236E-18	-6.05503128013275E-19	-0.961100411663596	0.388955646265711	-0.961100411663595	0.388955646265711	-4.47491533002722E-18	-8.64519190250299E-18
56	-3.19159739247592E-18	-3.63425682861177E-18	-0.867224225608905	0.532382936713831	-0.867224225608905	0.532382936713831	-4.01662693774574E-18	-2.41157308007544E-20
56.1	-5.71027499918216E-18	1.58955566314592E-17	-0.813866970078173	0.642522982655924	-0.813866970078173	0.642522982655924	2.70486469238968E-17	-8.88661388735583E-18
56.2	-8.79420770021311E-18	-1.27823561781768E-17	-0.715428380989599	0.767438915505149	-0.715428380989599	0.767438915505149	-2.00874045009621E-17	-4.070350145492E-17
56.3	-9.17024186970877E-19	8.49375020544241E-18	-0.542648762024931	0.865783431118632	-0.542648762024931	0.865783431118633	-8.04799096316767E-18	-4.15152399369078E-18
56.4	1.5230120599446E-18	-1.10691317149811E-18	-0.472890555287073	0.928287389150624	-0.472890555287073	0.928287389150625	1.81974013793369E-17	1.70318738505346E-17
56.5	5.94776465921794E-18	2.53861472468258E-17	-0.316314338929335	1.00853676213044	-0.316314338929335	1.00853676213044	2.00579497661489E-17	4.5826851443427E-17
56.6	-1.14152996016875E-17	2.04703215235892E-19	-0.154370156293507	1.00836558006034	-0.154370156293507	1.00836558006034	-8.40794728983871E-18	8.71500211269255E-18
56.7	1.05200298213469E-17	-8.94181987897362E-18	-0.0172450174120506	1.03463623425296	-0.0172450174120507	1.03463623425296	1.65843093423661E-17	4.27004135341119E-18
56.8	-1.67106715650328E-18	1.33790726110564E-18	0.110880950877851	1.04471943598135	0.110880950877851	1.04471943598135	2.26864789641299E-18	-1.22368471435773E-17
56.9	1.41260246924429E-17	2.32933647428151E-18	0.269882413091042	0.991897302159272	0.269882413091042	0.991897302159272	1.44180559299298E-18	-2.97350799099759E-18
57	1.39914492212576E-18	-7.39094931391997E-18	0.436512146831936	0.910908446929984	0.436512146831936	0.910908446929984	1.71610988087371E-17	-1.0049650797382E-17
57.1	-1.83163901539994E-17	2.00139390238338E-19	0.543310852449462	0.868450354098058	0.543310852449461	0.868450354098057	-2.7890936302797E-18	-3.17217243482338E-17
57.2	-1.89563811010168E-18	-5.23206422254479E-18	0.66688245746105	0.809679740007653	0.66688245746105	0.809679740007653	-7.17224497131702E-18	-1.30690248966943E-17
57.3	-9.05810118218345E-18	-5.33722505008181E-18	0.818382850410405	0.633745302194395	0.818382850410405	0.633745302194395	6.29795522661605E-18	-1.62788330779446E-18
57.4	-2.5600144125203E-18	-1.54241013539311E-17	0.824113999544412	0.540724233914241	0.824113999544412	0.540724233914241	-1.01149946346207E-17	2.0931886345116E-18
57.5	-7.5762533119691E-18	-2.29324799116406E-18	0.950740574686508	0.439059277930326	0.950740574686508	0.439059277930326	-4.84071648250568E-18	-2.74908307124853E-18
57.6	-1.59192264887776E-17	1.03987069005148E-17	1.00747892281486	0.272609445063219	1.00747892281486	0.272609445063219	-5.71726562054413E-18	9.79110407728191E-18
57.7	1.6347112429549E-17	9.40139602388013E-18	0.990341985634962	0.121232585004373	0.990341985634961	0.121232585004373	1.88803155518963E-17	2.42663651813021E-17
57.8	-3.63931830389039E-18	-6.52027509325225E-18	1.03334191567506	0.00519988094046964	1.03334191567506	0.00519988094046941	-1.20211975507185E-17	-1.97345749125763E-18
57.9	-1.33985918820563E-17	1.22473280672074E-17	1.03540922551685	-0.124385323542104	1.03540922551685	-0.124385323542105	-1.55820096847234E-17	2.37024451245644E-17
58	-1.14186042392872E-19	1.16986704087569E-17	0.970076806210113	-0.33497697759657	0.970076806210114	-0.334976977596571	1.91587197856845E-18	8.36549784763143E-18
58.1	-6.17270076419368E-18	1.24694962596466E-17	0.895180025065683	-0.413889489642418	0.895180025065684	-0.413889489642418	1.68715251794531E-17	1.43449684861185E-17
58.2	4.98504612846645E-18	1.97441878798721E-19	0.867096752343129	-0.562351523821262	0.867096752343129	-0.562351523821262	-7.37636365009539E-18	2.10566527081203E-17
58.3	1.21024584785146E-18	1.95361173241678E-18	0.75956544177323	-0.69489203050441	0.75956544177323	-0.694892030504409	5.00415968034096E-18	5.98321741395168E-18
58.4	3.19921297661938E-17	6.0714959426984E-18	0.6445504340547	-0.725715852497563	0.6445504340547	-0.725715852497562	6.00461947730814E-17	-7.13851677677091E-18
58.5	-3.84681964575863E-18	-4.54029165547845E-18	0.583635249953193	-0.862648407370815	0.583635249953194	-0.862648407370815	5.58049967005818E-18	-1.64274865976143E-17
58.6	1.14102994217458E-17	1.99599207187004E-18	0.420092317547471	-0.930788864792966	0.420092317547471	-0.930788864792965	3.15176710434651E-18	8.38151420689055E-19
58.7	-1.4838299511694E-18	7.04553563037458E-18	0.275402572349734	-0.946429324578122	0.275402572349734	-0.946429324578122	-1.031675889519E-18	6.33440144969666E-18
58.8	-2.35368304476917E-17	2.33633432904201E-17	0.16247986371638	-0.989665985193304	0.16247986371638	-0.989665985193303	-1.33281250625893E-17	2.31252188850138E-17
58.9	2.32422702369564E-17	3.83064870219456E-18	0.0441612476712412	-1.01956475989811	0.0441612476712416	-1.01956475989811	9.50538937674107E-18	-1.5495992488421E-17
59	6.28806600475536E-18	-6.37880730436201E-18	-0.142462556674633	-0.991327824677643	-0.142462556674633	-0.991327824677642	-1.65957810176792E-17	2.1504706311351E-18
59.1	-3.72270407752008E-18	2.97763935946585E-18	-0.242814379448186	-0.961355183303442	-0.242814379448186	-0.961355183303444	-1.0263727155261E-17	1.95881323995084E-17
59.2	2.52544511144526E-18	8.86015160326212E-18	-0.372166210193917	-0.957656900692595	-0.372166210193917	-0.957656900692595	5.23710090181267E-20	6.1588434974703E-18
59.3	8.59808645471607E-18	-1.37468712419884E-17	-0.534295042577227	-0.841245510915141	-0.534295042577227	-0.84124551091514	1.48438632039666E-17	-1.53934702211597E-17
59.4	1.53443554315676E-17	2.02123900510498E-17	-0.604867575664377	-0.79110017590145	-0.604867575664376	-0.79110017590145	2.25560368204739E-17	-1.00336919550053E-18
59.5	3.15148684614917E-18	-6.9091452593571E-18	-0.739548510274469	-0.695050773705079	-0.739548510274469	-0.695050773705079	-6.09061959922572E-19	-9.80858000176504E-18
59.6	-9.22088712299394E-18	9.40212696443358E-18	-0.815653805693186	-0.564229436309723	-0.815653805693186	-0.564229436309723	-2.14017183947031E-18	3.99789255940401E-18
59.7	-2.05497098520018E-18	5.68164866115974E-18	-0.89396362596993	-0.474445702064647	-0.893963625969929	-0.474445702064646	-7.44666106969544E-18	-7.83327250524809E-18
59.8	1.20636132000578E-17	5.14744770019548E-18	-0.960484762388969	-0.340625070183502	-0.960484762388969	-0.340625070183502	-4.50075159343875E-18	-1.71568398168815E-19
59.9	-1.36157611942301E-17	1.27226853821897E-17	-0.983434382899534	-0.215898980247936	-0.983434382899535	-0.215898980247936	-3.07743647173444E-19	-3.53115781140058E-18
60	-1.33274120453566E-17	-2.34085036565413E-17	-1.00262576864115	-0.053416385774989	-1.00262576864115	-0.0534163857749889	-1.431608357902E-17	-5.92664071736021E-18
60.1	-8.5762471727168E-18	6.4075508088783E-18	-0.989985806337002	0.0705633083554095	-0.989985806337002	0.0705633083554093	-8.82112716634157E-18	-1.32545422067426E-18
60.2	1.38204420491494E-18	-1.39218066386178E-17	-0.998297645661334	0.184084423893602	-0.998297645661334	0.184084423893601	9.85358911993546E-18	-1.42858778275503E-17
60.3	-1.17960901872154E-17	-1.27743379637131E-18	-0.941912475031575	0.359984159048785	-0.941912475031575	0.359984159048785	-1.48244135659168E-17	-8.62757062028278E-18
60.4	1.37236103175532E-17	1.2451591047087E-17	-0.875486999119511	0.435725071033019	-0.875486999119511	0.435725071033019	-3.48566076486801E-18	4.84826037803796E-19
60.5	-7.62801820788853E-18	2.91932971150258E-18	-0.826129018886138	0.582134479050515	-0.826129018886137	0.582134479050515	-4.40949449190335E-18	-3.45671787116882E-18
60.6	1.23532497926866E-17	-2.16228067488389E-18	-0.73270521816288	0.681969712153479	-0.73270521816288	0.681969712153479	2.47592580421157E-18	1.920385562533E-18
60.7	-7.5338126032575E-18	-1.94872770868049E-18	-0.629861912866066	0.778683343331477	-0.629861912866066	0.778683343331477	-1.60372345472038E-18	-1.16678560770518E-17
60.8	6.07309354212872E-18	-7.90827050813141E-18	-0.522458557775261	0.862921717288164	-0.522458557775261	0.862921717288164	-1.20261535954033E-17	8.12403638221383E-19
60.9	5.61241704675658E-18	-2.34812090788914E-17	-0.409969183603206	0.923039152244508	-0.409969183603206	0.923039152244508	5.84481097890658E-18	-4.08924382655573E-18
61	1.78272672750797E-18	1.07896376594592E-17	-0.266876632562253	0.97157384036808	-0.266876632562253	0.971573840368081	1.84279499027964E-17	9.92570545101025E-18
61.1	4.17936539413209E-18	-2.39784521645644E-18	-0.130682439335325	0.982320642209107	-0.130682439335326	0.982320642209107	9.59195777774953E-18	-4.46165539959869E-18
61.2	-3.12693586429842E-18	-1.10901724449259E-17	-0.0145466618736053	0.996967005750889	-0.0145466618736055	0.996967005750889	-3.91967641160133E-18	-1.34856234683344E-17
61.3	-7.59046625087439E-18	2.83379987453212E-18	0.124941092031797	1.00794464509941	0.124941092031797	1.00794464509941	-1.19303042295186E-17	3.00382711614424E-18
61.4	1.02626006307956E-17	-1.21504948101927E-17	0.292340265721608	0.958497913747769	0.292340265721608	0.95849791374777	1.1048904251939E-17	-1.55658805544724E-17
61.5	-1.87642502944038E-17	-2.94944855806692E-19	0.367098124936526	0.906333772262554	0.367098124936526	0.906333772262554	-1.46872216227349E-17	1.52872279650138E-18
61.6	-1.23194268129983E-17	1.82174517931883E-17	0.518414690085473	0.885467522319738	0.518414690085472	0.885467522319738	-2.175203307489E-17	-1.53504861169473E-17
61.7	2.83573031234579E-18	-4.87474027647274E-18	0.639786029040277	0.786589274656438	0.639786029040277	0.786589274656438	-1.0042495402896E-17	-1.30186861474536E-17
61.8	1.63891376103445E-17	-1.21177245129345E-17	0.716374775184928	0.681841949415584	0.716374775184928	0.681841949415584	2.68857987108751E-18	2.84002638156274E-18
61.9	-1.18286211146972E-17	-7.94281870356125E-18	0.810240648051561	0.577123314666956	0.810240648051561	0.577123314666956	-5.80326840384509E-18	2.91507871889353E-18
62	-7.8978050263214E-18	3.86267508915631E-18	0.877403792095962	0.4886272733946	0.877403792095963	0.4886272733946	-1.99632042559833E-17	-1.64479923134031E-17
62.1	1.13505972719812E-17	-2.05559867980107E-18	0.954295931059655	0.35751017411958	0.954295931059654	0.35751017411958	1.19331779975818E-17	-7.52217164537552E-18
