# GHZ S RI R 50
50	2.48772525500291E-17	1.46843069234025E-17	0.850702231326489	-0.604091614905991	0.850702231326489	-0.60409161490599	-9.09669510847618E-18	5.82558419848629E-18
50.1	-2.71643073660454E-17	2.30818465704458E-18	0.713213486994131	-0.726711737901479	0.713213486994131	-0.726711737901479	1.03734616681261E-17	1.60434428139935E-18
50.2	-1.60917513274615E-17	-2.96760557413852E-17	0.594649799411079	-0.826094031467839	0.594649799411079	-0.826094031467839	1.53458067371043E-17	5.49623162165023E-19
50.3	-6.19903276298147E-18	-4.21434238230886E-18	0.463612761694469	-0.937136241971691	0.463612761694468	-0.937136241971691	8.68744443649407E-18	-4.24573756986158E-18
50.4	1.28450685437194E-18	-2.28305263348503E-18	0.254299351477042	-0.970598605291106	0.254299351477042	-0.970598605291107	1.88347978955361E-17	1.46046318673275E-17
50.5	-1.25984115813581E-18	2.62313224806569E-17	0.132832051514906	-1.01965306410075	0.132832051514906	-1.01965306410075	-1.02745862792271E-17	2.96935734382931E-18
50.6	1.00200819280908E-17	-2.37888004516592E-17	-0.0569565167931069	-1.01754523108264	-0.0569565167931069	-1.01754523108264	1.38835284297889E-18	-3.78207911008638E-18
50.7	1.41574624429208E-18	1.19109537783432E-17	-0.208620893269233	-0.986514064428207	-0.208620893269234	-0.986514064428206	-6.2663272973213E-18	-1.08338680448732E-18
50.8	-1.08073275148299E-17	-1.42105672076222E-17	-0.382628852140095	-0.964872718486113	-0.382628852140095	-0.964872718486113	9.92715472794625E-18	-3.59945216903997E-19
50.9	-3.95460091809441E-18	1.54238243571069E-17	-0.52201586096704	-0.850342880952956	-0.52201586096704	-0.850342880952956	6.22987716753124E-18	-8.45873232105386E-18
51	-1.15968896401748E-18	7.64192150494257E-18	-0.667496526640771	-0.776433706607612	-0.667496526640772	-0.776433706607612	1.34052982180354E-17	-3.48422159216596E-18
51.1	7.37885571391956E-18	-9.5300434567043E-18	-0.780032077834307	-0.651478175414696	-0.780032077834307	-0.651478175414696	2.40155154180186E-18	3.20692998184864E-18
51.2	-6.18210162962934E-18	1.15255144342011E-17	-0.869280409113484	-0.510285677699718	-0.869280409113485	-0.510285677699719	-5.00562265757217E-19	6.33521355108182E-18
51.3	-3.79792665536511E-18	-4.46017421616557E-19	-0.944441889018073	-0.36476738277718	-0.944441889018074	-0.36476738277718	-5.80300829223226E-18	-2.86679696319038E-18
51.4	1.95882596291473E-17	4.2965271553956E-18	-1.00353024392552	-0.22810672558612	-1.00353024392552	-0.22810672558612	-5.99013080708415E-18	7.31572505010709E-18
51.5	5.21580192252866E-18	-3.44277107424239E-17	-0.997459823687807	-0.0254390042603121	-0.997459823687807	-0.0254390042603121	-8.69407903041324E-18	-1.60073843835462E-17
51.6	-1.89038293183215E-17	-9.7675335558573E-18	-1.00583597891929	0.0998159411317671	-1.00583597891929	0.0998159411317669	5.38545930230412E-18	-4.69463850223182E-18
51.7	3.31715243669305E-18	1.69712653640149E-17	-0.991299037852605	0.260935270692628	-0.991299037852605	0.260935270692628	-6.58443466739985E-18	-1.30289723415199E-17
51.8	-4.72821383383291E-18	-6.35232075579411E-19	-0.875207999420345	0.42106257787342	-0.875207999420345	0.421062577873421	-1.91782702433174E-18	-1.53183545994669E-18
51.9	1.04439862825188E-17	1.58669755983432E-18	-0.871050921641063	0.547516331513557	-0.871050921641063	0.547516331513556	6.00928239248229E-18	1.71555365334156E-17
52	1.19919559218882E-17	2.81502012485216E-18	-0.711054922943646	0.697340615480768	-0.711054922943647	0.697340615480768	-3.1893344555609E-18	-1.29693868543607E-17
52.1	-2.68571459319969E-18	2.9168245043663E-18	-0.5968513092965	0.782866644146296	-0.5968513092965	0.782866644146296	1.18558946726787E-17	-7.6145070885406E-18
52.2	-2.33076712882489E-19	-1.39285676234583E-17	-0.493695019274635	0.867359986549439	-0.493695019274635	0.867359986549439	-1.22223504175555E-17	-2.77752377207372E-19
52.3	9.67740020789142E-18	-1.22116254730134E-17	-0.354280789145767	0.933245574822136	-0.354280789145768	0.933245574822136	-2.33619978745014E-18	-3.90436123098002E-17
52.4	-4.63892533664206E-18	-8.25315364277237E-18	-0.192530880390742	1.01087765314092	-0.192530880390742	1.01087765314092	-4.36206876193735E-17	1.04122791551263E-17
52.5	-1.76619168115878E-17	3.79481539031679E-18	-0.0457687094962883	0.948707095266768	-0.0457687094962882	0.948707095266767	-2.45449998245312E-17	1.80656583931251E-17
52.6	5.44588897365632E-18	-5.48853459082767E-18	0.0859406908623297	1.0143335898598	0.0859406908623296	1.0143335898598	7.91001889758884E-18	-1.77626174468288E-17
52.7	4.07556585830507E-17	1.34654815165002E-17	0.307102669322642	0.985998530135831	0.307102669322642	0.985998530135831	5.02550687063498E-17	-3.46684200730689E-17
52.8	-6.01740907502593E-18	1.07216435710723E-17	0.357795438535588	0.800455082655855	0.357795438535587	0.800455082655854	-8.62329294920846E-18	-3.63548101956855E-17
52.9	5.09541909387669E-18	-7.06098302283249E-18	0.618756671871787	0.913541068784324	0.618756671871787	0.913541068784325	1.88145359810745E-17	-2.43216554813056E-17
53	3.34035355972085E-18	-4.43319361764945E-18	0.646631665896957	0.685079813965732	0.646631665896958	0.685079813965732	1.24732038974498E-17	-2.36332218414391E-18
53.1	-2.32103713007759E-17	7.11987118963553E-18	0.756014588625519	0.646570876291091	0.756014588625519	0.646570876291091	-7.28976703234048E-19	1.74918215700401E-17
53.2	2.89766336550435E-17	3.39420627133116E-17	0.90340673860886	0.512916803868369	0.90340673860886	0.51291680386837	4.273230274184E-17	-1.2420467524203E-17
53.3	2.73928959856304E-17	2.32061090345159E-17	0.912878849966253	0.371680357406268	0.912878849966253	0.371680357406269	4.76632546307024E-18	-5.76040332999363E-20
53.4	2.31027251318458E-18	2.30833487978458E-17	0.953109235628055	0.160007019957102	0.953109235628056	0.160007019957102	1.49380949154212E-17	1.63036205015623E-17
53.5	-5.11916778478591E-18	-9.43478994035612E-18	1.00710569560302	0.116080649297747	1.00710569560302	0.116080649297747	1.02905342759879E-17	-1.27003446762512E-17
53.6	-8.29082604669582E-19	-2.14966798502181E-17	1.00440787516782	-0.102652881954913	1.00440787516782	-0.102652881954912	-3.12370778768857E-17	2.36061888686863E-17
53.7	1.16635855928506E-17	-7.7514990371416E-18	0.906661220492891	-0.273802806839945	0.906661220492892	-0.273802806839945	3.22995885673258E-20	-2.24416688234823E-17
53.8	-7.76746066362368E-18	1.52896658097845E-17	0.998436747222414	-0.329268437116715	0.998436747222415	-0.329268437116716	-1.16511909954355E-17	2.29344987146768E-17
53.9	-1.23228029554551E-18	1.38960127146519E-17	0.850152094861722	-0.522310965710154	0.850152094861723	-0.522310965710154	1.38038040079042E-17	1.8609980247756E-17
54	-8.21873320320372E-19	-1.1618882597633E-19	0.738557360182236	-0.641490746789242	0.738557360182236	-0.641490746789243	-1.57403334505495E-17	-7.25501644144882E-18
54.1	-2.50460390424059E-17	9.02076958164237E-19	0.652903084209434	-0.710436438030572	0.652903084209434	-0.710436438030572	-3.79426131445057E-17	1.1312064649442E-17
54.2	-2.82928325904227E-17	1.03789672902369E-17	0.551126275905892	-0.813035311226078	0.551126275905892	-0.813035311226079	2.84269060418604E-19	2.33088625331372E-17
54.3	4.22615072343648E-18	4.15794716249388E-18	0.374437334510112	-0.914474343394293	0.374437334510111	-0.914474343394293	4.86886000446604E-18	9.54285269195321E-18
54.4	8.42400238818997E-18	-5.81197690159217E-18	0.305496142949086	-0.879878079107669	0.305496142949086	-0.879878079107669	1.85902297179318E-17	-3.3257829465912E-17
54.5	-7.00469138802617E-18	6.09727160725293E-18	0.108985515471754	-1.02898175254981	0.108985515471754	-1.02898175254981	-1.94539014606917E-18	9.08063211861804E-18
54.6	-2.00930972964504E-18	1.29046256299015E-17	-0.0432285233718172	-0.95452274757211	-0.0432285233718175	-0.95452274757211	9.75259427479013E-18	-1.51977063888973E-17
54.7	-1.12967952879597E-17	1.2731077355352E-17	-0.153249073159294	-0.991173760276925	-0.153249073159293	-0.991173760276924	-2.29827065858835E-18	2.45239296602949E-17
54.8	-2.15187202298624E-18	-2.77223742422E-18	-0.325938043639343	-0.951461320210247	-0.325938043639343	-0.951461320210247	1.38611871211E-18	-1.07593601149312E-18
54.9	-2.01984531529481E-18	-3.82686216903982E-18	-0.463040418092492	-0.863664202443594	-0.463040418092492	-0.863664202443594	-7.40280714314885E-18	-6.91960277540975E-18
55	2.63040805519013E-18	2.77309155604514E-18	-0.569735449602935	-0.812874196357531	-0.569735449602935	-0.812874196357531	-7.88501366159039E-18	1.68433378769258E-18
55.1	-2.4705447590803E-18	-8.31940402859957E-18	-0.702512925831003	-0.714709696046312	-0.702512925831003	-0.714709696046312	-6.86298762992185E-18	-6.2168876860337E-18
55.2	2.65502759995939E-18	3.58865245895802E-18	-0.773995969498796	-0.59719748283437	-0.773995969498796	-0.59719748283437	-3.20735413720122E-18	8.41080425087019E-19
55.3	-1.06818442690742E-17	-3.39911025416666E-18	-0.877846281373065	-0.456546958895429	-0.877846281373066	-0.456546958895429	1.10514660798183E-17	-1.08627427587894E-17
55.4	3.23257661153957E-18	6.52340610586047E-18	-0.921933439837871	-0.363939447259231	-0.921933439837871	-0.363939447259231	-4.53550980144139E-18	8.5918863061051E-18
55.5	1.21087512180166E-17	-2.46639870755916E-17	-0.990493012449322	-0.196637485929257	-0.990493012449323	-0.196637485929257	3.62446854053176E-19	-1.01386374078317E-17
55.6	-6.1285937769756E-22	-8.38619776244525E-18	-0.977597361366888	-0.0608271509095998	-0.977597361366888	-0.0608271509095998	1.69290882728208E-17	2.55960189064428E-17
55.7	-9.56437100571943E-18	-2.10202216808882E-18	-0.999671626789483	0.0739311172131859	-0.999671626789483	0.0739311172131861	-1.45211663271955E-17	-1.36482656624181E-18
55.8	9.65498967494669E-18	-2.0907893964462E-18	-0.970872137346878	0.237336221055057	-0.970872137346877	0.237336221055057	-8.79384886528048E-18	-1.69116569320896E-17
55.9	-1.89936290205657E-19	4.87189739134348E-18	-0.928219030833234	0.363460391481428	-0.928219030833235	0.363460391481428	1.08193169128686E-17	4.08127969647034E-18
56	5.70093075446361E-18	-1.95329913986809E-17	-0.838678072285476	0.503542329092499	-0.838678072285475	0.503542329092499	6.03506079245906E-18	-3.25203974267143E-17
56.1	1.2125755577808E-17	-2.12869714566256E-18	-0.788948250196129	0.607372060689453	-0.788948250196129	0.607372060689453	1.93607585775772E-17	-1.26667006702018E-17
56.2	-3.03210437917684E-18	-8.68317207919264E-18	-0.696591795991464	0.728300208863843	-0.696591795991464	0.728300208863843	9.63071820701657E-20	-1.76406624416819E-17
56.3	-1.21667563575976E-17	-1.7435437923883E-17	-0.529944670556277	0.827124574661181	-0.529944670556276	0.82712457466118	-2.09260178177875E-17	-1.42894781597973E-18
56.4	-1.32995889460678E-17	1.96283560619288E-17	-0.465402250382284	0.88395946041492	-0.465402250382284	0.88395946041492	8.37014014646067E-18	1.52529369611694E-17
56.5	1.05231857195907E-17	1.88488306842928E-17	-0.31681539430665	0.964118611747765	-0.316815394306651	0.964118611747766	0	0
56.6	-4.87570885818436E-18	4.03937159335362E-18	-0.159324688893751	0.964920211291994	-0.159324688893751	0.964920211291994	-2.31784447987067E-17	1.66618471761602E-17
56.7	1.3523454317746E-17	2.5158386300264E-18	-0.0295381121913404	0.991292240787816	-0.0295381121913405	0.991292240787817	-1.19219124954455E-17	-7.11119739342412E-19
56.8	-2.7913974145973E-18	2.37145570624183E-17	0.0910830781587708	1.00185761515872	0.0910830781587708	1.00185761515872	1.61195311793989E-18	2.8261715822903E-17
56.9	1.18363193147209E-17	-4.61218272758185E-18	0.245351559920278	0.952691976876204	0.245351559920279	0.952691976876204	-1.90590551092901E-17	-6.74271425367241E-18
57	-1.82773781853771E-18	2.23376579772898E-17	0.408127726734843	0.877125633198648	0.408127726734843	0.877125633198648	1.75158636673388E-17	-1.07212475657437E-17
57.1	8.76815082069141E-18	-3.48557544353188E-17	0.508143697013278	0.837602253243304	0.508143697013277	0.837602253243303	2.46421685046328E-17	-4.06062559744801E-18
57.2	-1.87932740831943E-17	-7.87028060557349E-18	0.62542504178561	0.784259559949657	0.62542504178561	0.784259559949657	-1.88673162776055E-17	-1.14679853082129E-17
57.3	-2.00450260872808E-17	8.18245378817576E-18	0.777702054731533	0.617336795220848	0.777702054731533	0.617336795220848	-2.83648445157711E-17	-1.62208540105385E-17
57.4	6.83883589072706E-18	-3.4173679499204E-17	0.77930047135788	0.525405729585878	0.779300471357881	0.525405729585878	2.87306304091458E-17	-2.53045246503228E-18
57.5	5.90286942176275E-18	5.29846054742045E-18	0.902207866923247	0.433948454305682	0.902207866923247	0.433948454305682	4.15427246025407E-17	4.64046501957476E-18
57.6	3.11381177335895E-18	-4.17330740586562E-18	0.959942792800209	0.27493212196929	0.959942792800209	0.274932121969289	1.47331080704401E-18	9.0744143761526E-18
57.7	-1.24725424332003E-17	-5.06729036646643E-18	0.943655268150577	0.127594521043353	0.943655268150577	0.127594521043354	6.27488487420559E-18	9.12706514712936E-19
57.8	-7.90116911190757E-18	7.26709651027728E-18	0.985885278580991	0.0205972786811738	0.985885278580991	0.0205972786811736	1.36915115970999E-17	1.5767111968169E-17
57.9	1.61752211592151E-17	-1.38603900367946E-17	0.989125002643493	-0.10139937258792	0.989125002643493	-0.10139937258792	1.21790873003611E-18	5.87776794827305E-18
58	-8.66988236893814E-18	-1.88672674157729E-18	0.931537974035219	-0.30750752520464	0.931537974035219	-0.30750752520464	-8.69217768654245E-18	1.63095384522437E-17
58.1	-1.08540431870078E-17	-1.07810790937887E-17	0.857182736044982	-0.382141102247189	0.857182736044983	-0.382141102247189	-8.3536268927467E-18	-1.77781808005726E-17
58.2	4.73333935537599E-19	-2.59901223843263E-17	0.835342140655307	-0.522505628209361	0.835342140655307	-0.522505628209361	-2.31135444008295E-17	-1.31202264624597E-17
58.3	7.66147125942053E-19	-1.33904263804633E-17	0.734724520808133	-0.651734413736846	0.734724520808133	-0.651734413736846	1.91052744128943E-17	2.29541614434759E-18
58.4	-3.45883028884614E-18	-5.60072239046938E-18	0.621527934468867	-0.679862700211961	0.621527934468867	-0.679862700211961	1.3343336882562E-17	-1.59772132570078E-17
58.5	-1.52469719129586E-17	-7.20951176525755E-18	0.570594233247738	-0.810263150797786	0.570594233247738	-0.810263150797786	-9.10059846183374E-18	1.5019058935001E-17
58.6	-8.94026728555792E-18	-1.59875399458795E-17	0.414407461413322	-0.879044558034393	0.414407461413322	-0.879044558034392	-4.99140572291054E-18	-8.62569959227398E-18
58.7	2.70550144226059E-19	-7.16406599164708E-18	0.274979869681644	-0.894721538488644	0.274979869681644	-0.894721538488644	-9.72483438122307E-18	3.50201910602426E-18
58.8	1.25181428728155E-17	-8.72406150963655E-18	0.170341780338499	-0.936479213555712	0.170341780338499	-0.936479213555712	7.37327208638937E-18	-1.4018241622561E-17
58.9	7.4678449861772E-18	-7.25035707754272E-18	0.0606707512709185	-0.966112756317089	0.0606707512709181	-0.966112756317089	1.53212212355613E-17	1.93192848528765E-18
59	-8.30474973304945E-18	-3.93164115157141E-18	-0.119771718401051	-0.943341967619236	-0.119771718401051	-0.943341967619236	-1.80057568930637E-17	-3.85790663133792E-18
59.1	-2.07348742335648E-18	4.43494006152349E-18	-0.213457495423904	-0.914297284075049	-0.213457495423904	-0.91429728407505	-5.34456439186931E-18	9.0349417630433E-18
59.2	1.53008326423712E-17	8.61167448306891E-18	-0.333530834406509	-0.914577434536176	-0.333530834406509	-0.914577434536176	1.0585759177729E-17	7.47589495651418E-18
59.3	-6.8550423795416E-18	1.08504319836776E-17	-0.493157435294367	-0.806169062511649	-0.493157435294367	-0.806169062511649	1.15541665987243E-18	6.2466602910184E-18
59.4	-5.48839842450483E-18	3.91344368079127E-18	-0.556827748933589	-0.759089186539979	-0.556827748933589	-0.759089186539978	-5.03755920869466E-18	-3.19789513920715E-18
59.5	5.7961697872138E-18	8.28675700114819E-18	-0.68722348618944	-0.672030509882821	-0.68722348618944	-0.672030509882821	1.66052650711243E-18	2.5679339265801E-18
59.6	-1.27973192935894E-17	2.65353096722304E-19	-0.761678704542629	-0.547907622734144	-0.761678704542629	-0.547907622734144	-2.24792408130724E-19	8.93474291606416E-18
59.7	1.99674202289443E-19	-5.72575381374842E-18	-0.835832364663618	-0.466243000714314	-0.835832364663618	-0.466243000714314	6.69889787931164E-18	7.06877329224302E-18
59.8	1.101424283824E-17	1.18865437751339E-17	-0.901666640049012	-0.341347977480883	-0.901666640049012	-0.341347977480882	5.36674738699688E-18	3.66723062944186E-18
59.9	-9.616429785376E-18	4.97363272930988E-18	-0.924168297818026	-0.223877526347406	-0.924168297818026	-0.223877526347406	-9.52670099134386E-18	4.79930041512458E-18
60	-9.2113745960753E-18	-1.24191520224623E-17	-0.946321211428586	-0.0697874556645912	-0.946321211428585	-0.069787455664591	2.58552507819467E-19	-7.06723274975804E-18
60.1	-8.48250395990788E-18	-8.31620004122349E-18	-0.935177940353901	0.0470601158016812	-0.9351779403539	0.047060115801681	-1.49868595845686E-17	-4.60255174476865E-18
60.2	-1.94934156330625E-17	2.98220872840986E-17	-0.945296558760103	0.151152013298886	-0.945296558760103	0.151152013298885	-8.64880599060224E-18	2.20800471491842E-17
60.3	1.17225958888253E-17	-5.55552690629655E-18	-0.896568880281406	0.320958728370652	-0.896568880281406	0.320958728370652	2.3163362406415E-17	-1.3933024062226E-17
60.4	-2.0314961761943E-17	-2.63648003805521E-17	-0.832349560722221	0.391228215238256	-0.83234956072222	0.391228215238256	-3.47056229810466E-18	1.88815437355157E-18
60.5	1.33871980720743E-17	-2.42799979026036E-17	-0.791352426966001	0.530253394059805	-0.791352426966	0.530253394059806	-1.69048103154191E-18	1.00688922352181E-18
60.6	6.6424988467624E-19	7.4508446932237E-18	-0.70478472537358	0.625801469035388	-0.70478472537358	0.625801469035388	-9.14543545634949E-18	5.11817214363466E-18
60.7	1.3938476932817E-17	3.95434089875333E-18	-0.610097508635857	0.718925259417139	-0.610097508635857	0.718925259417139	8.23600127874733E-19	2.54986961303763E-19
60.8	-2.17500264571622E-18	1.11341314261811E-17	-0.511458973352314	0.800190010860201	-0.511458973352314	0.8001900108602	-3.19482223052823E-18	1.47816825989507E-18
60.9	8.90290859292947E-18	7.19840783118262E-18	-0.407484653329855	0.858250940621221	-0.407484653329855	0.858250940621221	2.74564323272475E-18	5.84314477089915E-18
61	-3.43920473875637E-18	8.00572083708983E-18	-0.273599158147197	0.907552493493575	-0.273599158147197	0.907552493493576	1.12731135957709E-19	1.9450646412936E-18
61.1	2.41834486011787E-18	4.73396013116651E-18	-0.145155817370412	0.919605803870516	-0.145155817370412	0.919605803870516	1.5283609993311E-17	9.97187664678872E-19
61.2	-2.37945728577457E-17	1.14004709111049E-17	-0.0380184354030414	0.935099827992302	-0.0380184354030416	0.935099827992302	-7.59920070909735E-18	1.84360692107759E-17
61.3	1.41054595478754E-17	1.25359048361842E-17	0.0916303843580699	0.949681719929312	0.09163038435807	0.949681719929313	2.0587054762434E-17	1.6904128395619E-17
61.4	1.19428817547319E-17	1.78213443563574E-18	0.252494097567735	0.90740999773575	0.252494097567735	0.90740999773575	6.04522614073398E-18	3.31780276193849E-18
61.5	-1.22122087152874E-17	-9.6012726478106E-18	0.320857868853073	0.857234250269958	0.320857868853073	0.857234250269958	-3.32043865030788E-18	-1.1561252634543E-17
61.6	-2.11230550140051E-18	6.29237518986738E-18	0.46266522406905	0.844948904547176	0.46266522406905	0.844948904547176	-4.50249319834952E-18	-1.92330552690434E-18
61.7	-1.7606298899559E-17	5.07155824688799E-18	0.58003793165318	0.754481139023211	0.58003793165318	0.754481139023211	-2.43456596745906E-17	-9.32042700481202E-18
61.8	-1.04907613539833E-17	1.56663186283469E-17	0.653311435463217	0.656448439223081	0.653311435463217	0.656448439223081	-1.78925230880505E-17	7.72607793300594E-18
61.9	3.0514764970138E-18	-5.76752172981791E-18	0.743937135465249	0.561121527690806	0.74393713546525	0.561121527690806	7.65632332527521E-18	1.85689304607304E-17
62	-2.91365816391347E-18	-5.39310717324469E-18	0.807250353651735	0.481404963819142	0.807250353651735	0.481404963819141	4.59900415555243E-18	4.48258899702173E-18
62.1	7.77788736581448E-18	-5.66323901792984E-18	0.883849086367229	0.361399072888866	0.883849086367229	0.361399072888867	1.81815916931152E-17	6.73391421225265E-19
