# GHZ S RI R 50
50	4.30677851475537E-19	-4.1902600892332E-17	0.79565032605501	-0.567282379413746	0.795650326055011	-0.567282379413746	-1.05784685000122E-18	5.76771358048953E-18
50.1	1.01821131882535E-17	-2.52474556080308E-18	0.66775623520836	-0.678701736742588	0.667756235208361	-0.678701736742588	1.71299042832519E-18	8.62251732570448E-18
50.2	5.47388313939397E-18	-2.51050531882901E-17	0.559760834225501	-0.773421742550987	0.559760834225501	-0.773421742550988	3.99233215915125E-18	2.01579516731216E-18
50.3	6.88829975093817E-18	-2.58551879941055E-17	0.435658918652441	-0.88156181804822	0.435658918652441	-0.881561818048221	4.95746551655674E-18	9.60284137649743E-19
50.4	-9.38268505621217E-18	2.71610535407425E-17	0.24095151572558	-0.906504487964723	0.24095151572558	-0.906504487964723	-2.84041414576035E-18	1.89178229811415E-18
50.5	-3.07674746776582E-18	-4.20457944093091E-18	0.127637061431897	-0.960111551163203	0.127637061431897	-0.960111551163203	3.92707989055521E-18	1.06291552848674E-18
50.6	2.65780607329364E-17	-6.01193193742992E-18	-0.0504356266427081	-0.956631526527672	-0.0504356266427087	-0.956631526527671	7.33680516778747E-18	8.82907335196903E-18
50.7	-5.19238607306239E-18	-4.15823498784938E-18	-0.191315314436671	-0.930423910901016	-0.191315314436671	-0.930423910901016	-3.7054597530636E-18	-8.62942118219293E-18
50.8	1.79254361892129E-17	9.44110851797123E-18	-0.35930914284977	-0.911092216899766	-0.35930914284977	-0.911092216899765	5.11097045172535E-18	5.47207566415408E-18
50.9	-6.43213319871538E-19	-2.06843361817207E-18	-0.485884081299736	-0.80428547365889	-0.485884081299736	-0.804285473658891	-6.57092685727284E-18	-1.38358220073329E-17
51	0	0	-0.627226584986398	-0.735680511966287	-0.627226584986399	-0.735680511966287	7.81071754934846E-18	1.27450359517898E-17
51.1	6.20234457066349E-18	7.86398438425831E-18	-0.733513032641114	-0.619291018575522	-0.733513032641115	-0.619291018575522	4.42775025224267E-18	-1.21043669483153E-17
51.2	9.39332760603804E-18	7.44215163543347E-18	-0.818149105443634	-0.4875956795498	-0.818149105443633	-0.4875956795498	3.40341887004275E-18	-3.63026826334562E-18
51.3	2.61594531337464E-19	-8.45233321298611E-18	-0.891173257335135	-0.350670867172326	-0.891173257335135	-0.350670867172326	-2.56920803005001E-18	-8.91430010020517E-18
51.4	1.11774297140808E-17	1.01088194629344E-17	-0.951681326984899	-0.221293868517866	-0.951681326984899	-0.221293868517865	1.52965977658668E-18	7.21098378067266E-18
51.5	5.50721541933064E-18	4.23193066624408E-18	-0.941993040637109	-0.0316591827496278	-0.941993040637109	-0.0316591827496281	1.97814693142215E-17	4.42022832380816E-18
51.6	1.15123443152344E-18	9.55880596485229E-18	-0.956852794694915	0.087449138954554	-0.956852794694915	0.0874491389545539	1.61736555406399E-17	-1.27522080459055E-17
51.7	1.12580341244715E-17	-5.24323084825781E-18	-0.945296223065878	0.242596459462557	-0.945296223065878	0.242596459462557	2.64735251443711E-18	-1.27657918801825E-17
51.8	-1.34848914422403E-17	-1.13514261923363E-17	-0.834283554179091	0.388232844945461	-0.83428355417909	0.388232844945461	-9.98201794984148E-18	-1.60828780520901E-17
51.9	-2.15069342121684E-17	5.58243742004233E-18	-0.835871088369595	0.517942613730878	-0.835871088369595	0.517942613730879	-8.17824372425428E-18	3.1525350799657E-17
52	2.75281801822435E-18	9.01961771770052E-18	-0.680932592414944	0.655200078097278	-0.680932592414944	0.655200078097278	9.74953792017795E-18	-1.16382381880294E-17
52.1	-1.19998878569397E-18	1.47565187628262E-18	-0.576520391986816	0.738076501546319	-0.576520391986816	0.73807650154632	3.69207200300385E-18	-4.0578791979829E-18
52.2	-1.46207673572828E-17	-2.60840531207665E-18	-0.480535583529935	0.823910418315899	-0.480535583529935	0.823910418315898	-1.94387515002929E-17	1.37155283250389E-17
52.3	-2.68902769976368E-18	2.90363689149392E-18	-0.348575147852914	0.889403011269529	-0.348575147852914	0.889403011269528	7.99885265989056E-18	3.32984565174693E-17
52.4	1.4778457499876E-17	2.14968858078997E-17	-0.190395889107821	0.965364992832672	-0.190395889107821	0.965364992832672	4.83736648277705E-17	-3.82417574222989E-17
52.5	-1.23418768831667E-17	-5.26174671243515E-18	-0.0600366211395226	0.907964936318567	-0.060036621139522	0.907964936318568	-3.2737786319557E-17	1.73862153428061E-17
52.6	-8.55498539224301E-18	4.67740205390708E-18	0.0741983522799113	0.977186643144304	0.0741983522799116	0.977186643144304	2.72312604973554E-17	1.73937036455418E-18
52.7	-5.3060372749335E-17	-1.22355542595103E-17	0.28791179348879	0.944577524219609	0.28791179348879	0.944577524219609	-1.30281823404973E-17	2.91362338337669E-17
52.8	-3.46217506457552E-18	-3.49593840117985E-18	0.320355954147323	0.778746272893349	0.320355954147322	0.778746272893349	2.04584501824963E-17	-3.81475902321218E-18
52.9	-9.28520778124446E-18	-1.62697206758892E-17	0.595795797910896	0.877124483097143	0.595795797910897	0.877124483097143	8.6900037552529E-18	-7.50874052059926E-19
53	9.45739350908077E-18	5.17727527091502E-18	0.607411287147139	0.668697070910516	0.607411287147139	0.668697070910516	1.13381438379754E-17	-2.91314845652003E-17
53.1	-4.03109309514873E-18	6.19605597664865E-18	0.723149404126653	0.633586156437356	0.723149404126653	0.633586156437356	1.70369674018613E-18	-1.1548941676229E-17
53.2	5.4968999898263E-18	8.26113882006346E-19	0.866892620128626	0.499362053499719	0.866892620128626	0.499362053499718	-1.70014010483661E-17	1.83207087974798E-18
53.3	-1.0542167784325E-17	3.65879246316383E-17	0.877489051790742	0.370830931144814	0.877489051790743	0.370830931144814	1.6856023325425E-18	3.78758591530749E-17
53.4	3.38644164447409E-18	2.03998077975648E-17	0.911054526171502	0.1674652543024	0.911054526171501	0.1674652543024	3.49905944836285E-17	4.19803807598662E-17
53.5	1.94007534849215E-17	5.79320329629159E-18	0.978198042239819	0.122188260417322	0.978198042239819	0.122188260417322	6.34552068946562E-17	-5.12919921162984E-17
53.6	2.14347572933048E-17	1.61340726701E-17	0.970592659781535	-0.0893604948836514	0.970592659781534	-0.0893604948836512	1.40159533081523E-17	3.26389019904893E-18
53.7	-2.44690434676388E-19	-6.58749067107243E-18	0.875817574087096	-0.246882431788709	0.875817574087096	-0.246882431788709	1.84181714091634E-17	1.73536906193088E-17
53.8	-1.85427278174797E-18	-2.12735798215955E-17	0.977272972638883	-0.317019084481587	0.977272972638883	-0.317019084481588	-3.26134084820609E-17	2.36474452090821E-17
53.9	-3.72585300271551E-18	3.51868688743595E-18	0.829370477701985	-0.496338061036593	0.829370477701985	-0.496338061036593	-3.47788107884335E-18	2.02018452463123E-17
54	1.81293502054286E-17	2.32072891776842E-17	0.723618043908413	-0.610652675464889	0.723618043908412	-0.610652675464888	-1.07315374007051E-17	-1.83028017034284E-18
54.1	2.70242230742429E-17	-1.10096213742408E-17	0.646665297870145	-0.681654574891277	0.646665297870145	-0.681654574891277	-1.36834389390424E-17	2.25496233741085E-18
54.2	-6.96238210977799E-18	-1.77747013982421E-17	0.547860340123233	-0.785293777207354	0.547860340123234	-0.785293777207354	-1.12375772382546E-17	1.09125708559506E-17
54.3	-4.06089866289116E-18	7.23158210479354E-18	0.374056402615412	-0.880887042424978	0.374056402615412	-0.880887042424978	4.33378503612821E-18	9.06584674822527E-18
54.4	-5.67865643259282E-18	-6.76642587951231E-18	0.316930129306273	-0.858316524209301	0.316930129306273	-0.8583165242093	1.8235786874791E-17	-3.0264874129178E-17
54.5	6.84223849782858E-18	1.56748894064723E-18	0.113014888095458	-0.999421258982245	0.113014888095457	-0.999421258982245	6.20156471131489E-18	1.22227189225519E-17
54.6	4.89462538912788E-19	-1.80531197333431E-17	-0.0260480594228766	-0.929454858547492	-0.0260480594228763	-0.929454858547492	-1.66542095084006E-18	-2.91085675456324E-18
54.7	3.46607645681705E-18	-4.50172966859857E-18	-0.139795078147238	-0.971407888118421	-0.139795078147238	-0.971407888118422	2.94609032145548E-18	2.61715326210794E-18
54.8	6.72333934236201E-18	-9.1635072819967E-18	-0.308430152319326	-0.93180262797791	-0.308430152319327	-0.93180262797791	6.43187832120395E-18	-1.93591833190912E-17
54.9	3.92724527524718E-18	-2.56312529630461E-18	-0.439981298492874	-0.848454216951974	-0.439981298492874	-0.848454216951975	1.82593875866538E-18	-2.59031676723617E-18
55	1.99295333785704E-20	2.20782468490024E-18	-0.54873545131821	-0.802672897367302	-0.54873545131821	-0.802672897367302	-3.94923690163837E-18	1.10158211463066E-18
55.1	-2.80698433785506E-20	7.28565802974639E-19	-0.679596537800836	-0.706283915780616	-0.679596537800836	-0.706283915780616	-3.20798210040578E-20	8.32646631971016E-19
55.2	-5.80491035524136E-19	6.27347234983286E-18	-0.750931892158415	-0.595732432560072	-0.750931892158416	-0.595732432560072	-2.25050533786264E-17	5.25711912218212E-18
55.3	-7.80192178833397E-19	-7.0316095741811E-18	-0.852415594575629	-0.456765065607405	-0.852415594575629	-0.456765065607405	5.8496229237555E-18	6.03787467122978E-21
55.4	-5.63936279437097E-18	-9.55392686588292E-18	-0.902524571446179	-0.368125879905064	-0.902524571446179	-0.368125879905064	-2.98269707272145E-18	-6.37769719658855E-18
55.5	-4.27137170490124E-18	5.54967289244549E-18	-0.9686860955983	-0.201909151360066	-0.9686860955983	-0.201909151360067	6.02237344726708E-18	-1.38189300919302E-17
55.6	4.38026035440406E-18	-7.46454282152254E-18	-0.95981928562377	-0.0721976596609719	-0.959819285623769	-0.0721976596609721	6.27392079328271E-19	6.59672949636753E-18
55.7	-1.55157884582201E-17	-4.81174339941453E-18	-0.98455949156223	0.0631294389510512	-0.98455949156223	0.0631294389510513	-7.77051562032392E-18	-5.80908947133366E-18
55.8	6.46006788610919E-18	-1.99855608850848E-17	-0.956415857643937	0.223271833167859	-0.956415857643937	0.223271833167859	1.64757333694001E-17	-2.53725993432881E-18
55.9	-1.82464701254021E-18	2.06199201692242E-17	-0.917878070261123	0.348482863103107	-0.917878070261122	0.348482863103107	-5.62877749090183E-18	4.99389245431594E-18
56	3.91213219463137E-18	7.75129838309039E-18	-0.831140496038422	0.484419645652978	-0.831140496038421	0.484419645652978	1.91848907980084E-17	1.82476956697659E-17
56.1	-1.18599386696728E-17	1.837171234221E-18	-0.784944930758019	0.591824036468866	-0.784944930758019	0.591824036468866	-2.53316064135999E-17	3.21310923943553E-18
56.2	-1.32313257476838E-17	1.0662542777833E-17	-0.693723624975068	0.712871910172825	-0.693723624975067	0.712871910172825	-2.50823807479621E-17	2.4721576844101E-17
56.3	4.67472147805287E-18	6.78517005307317E-18	-0.530907564164843	0.80601147517144	-0.530907564164843	0.80601147517144	1.42205625471953E-17	4.44170650385284E-18
56.4	4.24913515273002E-19	9.8825452296631E-18	-0.468627681796731	0.870804782229929	-0.468627681796731	0.870804782229929	-1.16377993973785E-17	2.39420184971251E-17
56.5	-1.16135222743575E-17	3.75382031521747E-18	-0.320195318587085	0.949708015479637	-0.320195318587085	0.949708015479637	1.87513399144466E-17	9.88682904418579E-18
56.6	1.16841616671194E-17	3.42401609322625E-18	-0.169020123168343	0.951413759906647	-0.169020123168343	0.951413759906648	0	0
56.7	1.52557247360117E-17	-2.13327820701375E-18	-0.0391159850498261	0.980627029110146	-0.0391159850498262	0.980627029110146	-5.26268386273175E-18	2.93176848528902E-18
56.8	-1.60446729569231E-17	1.93497609717672E-17	0.0828528033719096	0.995034058988556	0.0828528033719097	0.995034058988555	-6.69792460327604E-18	-1.64127319194434E-17
56.9	1.69632358393951E-17	-1.43681120832001E-18	0.233367377552921	0.947419660435189	0.233367377552922	0.947419660435188	1.18798350607855E-17	3.09414497979723E-18
57	1.97245783651491E-18	9.71113571983334E-18	0.391525394067201	0.872176129365884	0.391525394067201	0.872176129365885	1.47462961565895E-17	2.50563719777635E-18
57.1	-1.13618724521248E-17	-9.97837361645301E-18	0.495250719556678	0.83678761214618	0.495250719556678	0.836787612146181	-8.03253896969296E-18	1.80428801090374E-17
57.2	-5.08696660274192E-18	-1.1896996929349E-17	0.615891781679575	0.784335128608728	0.615891781679574	0.784335128608728	3.50378954125022E-17	-1.9859975626656E-17
57.3	8.64212196240203E-18	-1.53918365077438E-17	0.759669537601261	0.616565405196787	0.759669537601262	0.616565405196788	-1.38588876017939E-17	1.4791731142843E-17
57.4	-4.0740116294927E-18	3.06383158304127E-17	0.767592357060182	0.534983630119681	0.767592357060182	0.534983630119681	8.54107810426879E-18	2.31517994585363E-17
57.5	5.95739016311205E-18	-3.52246185328642E-18	0.893083542530372	0.438292219294812	0.893083542530372	0.438292219294812	2.55324526243525E-17	-3.46945104538983E-18
57.6	-5.84730361203165E-18	-5.82058319868426E-18	0.949134955103352	0.280967573967558	0.949134955103353	0.280967573967558	-2.36310439604066E-17	3.32938415685225E-17
57.7	-1.01155048148795E-18	1.91628893738286E-17	0.935222673145982	0.140253168798245	0.935222673145982	0.140253168798245	1.73543753727368E-18	3.13651720070817E-17
57.8	2.07558060980468E-17	1.71719674830803E-17	0.981624299077259	0.0295103085525565	0.981624299077259	0.0295103085525561	2.54836854898576E-17	8.23797755586798E-18
57.9	-1.02861498781356E-17	2.51749340909275E-18	0.988188174656698	-0.0939446422967321	0.988188174656698	-0.0939446422967325	-1.91218742293552E-17	-8.94953345005718E-18
58	1.45075549040605E-18	-2.0283762525182E-18	0.926262296559045	-0.294250402543056	0.926262296559045	-0.294250402543056	4.90604718729442E-19	3.47645485020445E-17
58.1	1.06028186714289E-17	-6.70178350159053E-18	0.860899631401566	-0.368379512165696	0.860899631401566	-0.368379512165696	2.26310021041445E-18	-1.25595901609151E-17
58.2	2.15426281733447E-18	1.23621269549084E-17	0.837295891611444	-0.513250146237264	0.837295891611444	-0.513250146237264	1.15686994017268E-17	4.01310248786458E-18
58.3	-8.551640512219E-18	-4.545951188071E-18	0.737197315813113	-0.640706220524411	0.737197315813113	-0.640706220524411	-8.42420661245795E-18	4.8550869032362E-19
58.4	-1.23080454199633E-17	-8.17478597904087E-18	0.633655335690589	-0.670991750879224	0.633655335690589	-0.670991750879224	-1.08329146276238E-17	-8.2592858259154E-18
58.5	-1.06206289149734E-18	2.16789041950814E-18	0.576752903022317	-0.807079299388938	0.576752903022317	-0.807079299388938	9.22447544203794E-18	5.8632282214921E-18
58.6	1.96137493929165E-17	6.3584924419171E-18	0.422788110473294	-0.873567182263291	0.422788110473294	-0.873567182263291	2.38050816184924E-18	-1.54250370942792E-17
58.7	-1.28130306457283E-17	-1.74653809343507E-18	0.288103553629134	-0.891065543470559	0.288103553629134	-0.891065543470559	7.22846838372499E-18	-4.16287586446835E-18
58.8	4.97150204240208E-18	8.81800688688569E-18	0.18155215193318	-0.937221205521725	0.18155215193318	-0.937221205521726	1.15896477917431E-17	2.9609916884536E-18
58.9	-1.39496981087939E-18	9.75825236451856E-18	0.0690330505181039	-0.970725061624904	0.069033050518104	-0.970725061624904	3.48415637137989E-18	1.04557372699583E-17
59	-2.28579315511898E-17	-1.14968296775307E-18	-0.108303627801755	-0.945723955386641	-0.108303627801756	-0.945723955386641	-1.47134216722245E-17	-8.21109310196631E-19
59.1	-6.06964103484832E-18	6.23603301428658E-18	-0.20388147748042	-0.922689351717526	-0.20388147748042	-0.922689351717526	-5.05174207221386E-18	1.30220927459499E-17
59.2	-1.29446605369383E-17	-9.88714705476634E-18	-0.329809114697135	-0.923588001050399	-0.329809114697135	-0.9235880010504	-3.28757694094081E-18	-2.69921952479616E-18
59.3	-1.1121349046991E-17	4.88935518816893E-19	-0.484176410742427	-0.814350395900545	-0.484176410742426	-0.814350395900545	-1.33011340899278E-17	-3.24390933729559E-18
59.4	9.55179129106105E-18	2.22433969377256E-17	-0.554348125842774	-0.772083885590542	-0.554348125842774	-0.772083885590542	1.84046632662478E-19	-1.64776231984327E-17
59.5	-3.22928750077176E-18	3.66704573733249E-18	-0.685567895049047	-0.682396891123051	-0.685567895049047	-0.682396891123051	2.43381737639122E-17	-1.93887176477652E-18
59.6	-7.27926296266642E-18	2.65441602995504E-18	-0.760130680037562	-0.560701296794057	-0.760130680037561	-0.560701296794057	-7.165025911204E-18	3.02409103066148E-18
59.7	-4.82920919612693E-18	-6.53838444648854E-18	-0.839379859022885	-0.477427782421364	-0.839379859022885	-0.477427782421364	7.44125480461439E-18	1.25132174841408E-17
59.8	9.79975292482077E-19	8.65598732129428E-18	-0.906367551822735	-0.351146636451655	-0.906367551822735	-0.351146636451655	-7.05315039648895E-18	-1.99449307812541E-18
59.9	8.10950364671027E-20	6.63673951639946E-18	-0.932393137738032	-0.234084311474582	-0.932393137738032	-0.234084311474583	7.15483008082639E-18	-5.71467203627458E-18
60	-6.26898148910045E-18	-1.053503236253E-18	-0.953828928385669	-0.0795875510339601	-0.953828928385669	-0.0795875510339598	-9.07425247232162E-18	-3.53931156972339E-18
60.1	6.73082637662517E-18	-3.66341760615953E-18	-0.946373720624048	0.0379758790855399	-0.946373720624048	0.03797587908554	1.98757099248531E-18	5.30435926599982E-18
60.2	9.22178426812748E-18	-1.83317474015754E-17	-0.959486972565075	0.147579668993073	-0.959486972565074	0.147579668993073	2.58232815981154E-17	-2.95615532229543E-17
60.3	-3.81976055883551E-18	1.32552107201264E-17	-0.90801705010463	0.31608862182925	-0.908017050104629	0.31608862182925	1.82429230065187E-18	1.13411717880605E-17
60.4	2.87055062974834E-18	2.47846822658192E-18	-0.850288489546563	0.389223139180029	-0.850288489546563	0.389223139180029	1.19372718259515E-17	-2.219440121207E-18
60.5	4.88182541286877E-18	-3.19185292450677E-18	-0.805881490566514	0.532064073986134	-0.805881490566514	0.532064073986134	-2.13953934910704E-18	9.64074994491069E-18
60.6	2.72302595072367E-18	3.57066148581741E-18	-0.720195186854054	0.629701478962796	-0.720195186854054	0.629701478962796	2.52701183611573E-18	-6.86848948233528E-18
60.7	-2.78093600929409E-17	-8.70076889132457E-18	-0.624796955908915	0.725021955074938	-0.624796955908915	0.725021955074938	-2.88548200915597E-18	-3.1841428771428E-18
60.8	-9.91538521047747E-18	5.97848085344232E-18	-0.524556860891152	0.809084789413108	-0.524556860891153	0.809084789413107	-1.36418673402759E-17	-3.83942876785144E-18
60.9	7.85326068639399E-19	-1.65502111019303E-17	-0.419262331109768	0.870540565033188	-0.419262331109768	0.870540565033188	-2.13940894940475E-18	-6.57975218162995E-18
61	-6.55711775311672E-18	8.19056707995145E-18	-0.28386988450438	0.920418232844273	-0.28386988450438	0.920418232844274	-1.79747566326584E-18	6.56569893261141E-18
61.1	1.65069336747249E-17	7.07872411206498E-18	-0.155239391939317	0.934677994863046	-0.155239391939317	0.934677994863046	8.3879398553302E-18	6.15663358177827E-18
61.2	-1.22846374325663E-17	4.01152628292435E-18	-0.0445078192792687	0.953630421973951	-0.0445078192792686	0.953630421973952	-3.74240373681925E-18	-1.9405082579363E-17
61.3	3.00699797396966E-18	-1.51663034797964E-17	0.0897203744475895	0.968359038424248	0.0897203744475894	0.968359038424248	-1.24852999518301E-17	-9.87138930841853E-18
61.4	-2.22081223351515E-17	1.02029942716085E-17	0.249974796817041	0.924063630391497	0.249974796817041	0.924063630391497	-2.83738158930042E-17	1.28818825813596E-17
61.5	6.08262957198315E-18	-2.11177573926001E-17	0.322408901198885	0.880030356359091	0.322408901198885	0.88003035635909	-3.08783201314976E-18	-8.36605279469214E-18
61.6	-4.91128925740364E-18	-1.71271480875337E-17	0.470434429730516	0.863081212774829	0.470434429730516	0.863081212774829	3.06753802416541E-18	2.97509358479729E-18
61.7	4.2316514852597E-18	-3.07240541619061E-18	0.588301646561259	0.771676869175088	0.588301646561258	0.771676869175087	1.42532025468294E-17	5.27128679466976E-19
61.8	-6.42765847764434E-18	1.18542330600962E-17	0.663962783355657	0.675400479675069	0.663962783355657	0.675400479675069	1.5112677156978E-17	-1.91955598493E-17
61.9	-1.13766630903747E-17	-1.17721545498451E-17	0.757077098112621	0.577773721866347	0.757077098112622	0.577773721866347	-1.14195916048203E-17	2.08634723456874E-17
62	9.17997844648687E-18	6.9595799110576E-18	0.825816240288311	0.495630279184707	0.825816240288311	0.495630279184707	9.72250278489919E-18	1.39643268250298E-17
62.1	1.81576392358376E-17	5.16743928491281E-18	0.90316185215839	0.371302395303423	0.90316185215839	0.371302395303424	9.53370737001106E-18	5.65175821287581E-18
