# GHZ S RI R 50
50	-2.81111226206307E-17	-4.77147813739768E-17	0.788571061490251	-0.557004045738131	0.788571061490251	-0.557004045738131	2.45624179092207E-17	-2.43943136414858E-18
50.1	-8.8423348309574E-19	6.91147801746883E-18	0.661284240591023	-0.66843842137994	0.661284240591023	-0.66843842137994	-6.07660897951119E-18	5.43358216465609E-18
50.2	-1.8795479315074E-17	5.44872211533011E-17	0.554352768430341	-0.760736029144855	0.55435276843034	-0.760736029144854	-4.44001094205271E-18	6.27266641319311E-18
50.3	-2.10525120581084E-18	-1.06383696903569E-17	0.434061768197672	-0.86672488887083	0.434061768197671	-0.866724888870829	-9.95383115806362E-18	8.46307651184968E-18
50.4	-8.73831689863454E-18	-4.18375102134369E-18	0.239422756929723	-0.894069125348456	0.239422756929723	-0.894069125348457	8.31771278869801E-18	-5.49535260514264E-18
50.5	1.48404183729787E-17	2.52858588951738E-18	0.130002803800262	-0.944232900366055	0.130002803800262	-0.944232900366054	-7.014156685828E-18	4.57868065187113E-18
50.6	2.3266344779075E-17	4.3456353034421E-20	-0.0461065911140743	-0.942114952440339	-0.0461065911140743	-0.94211495244034	4.00523820090053E-18	-6.5961911572365E-18
50.7	-8.50995568173117E-18	1.09666424448664E-17	-0.184801778400933	-0.915224344895362	-0.184801778400933	-0.915224344895362	2.7876447823323E-18	-1.17361042115469E-18
50.8	1.72317170269641E-17	9.32480591834372E-18	-0.348302789513695	-0.897947750323582	-0.348302789513695	-0.897947750323582	1.4259329740477E-17	-1.30211552488401E-17
50.9	2.35113162926268E-18	1.13048007762777E-17	-0.47507452081382	-0.791546556048921	-0.47507452081382	-0.79154655604892	-1.39072833133811E-18	2.60932664931081E-18
51	1.31015093355529E-18	1.09350490719794E-17	-0.612488844992638	-0.725709686776624	-0.612488844992638	-0.725709686776624	4.13558806710285E-18	-5.64286252160332E-18
51.1	4.32376088080997E-18	7.49695733168064E-18	-0.717203006121433	-0.611261056791562	-0.717203006121433	-0.611261056791562	1.27685442509472E-18	-1.76514464043832E-18
51.2	1.52063422286958E-17	-1.5773282681271E-17	-0.800573573530592	-0.481731713930444	-0.800573573530592	-0.481731713930444	3.38531168591898E-18	-8.04596761607793E-20
51.3	-1.3495124401346E-18	-1.0244495019094E-17	-0.872201919450205	-0.348013982405124	-0.872201919450205	-0.348013982405124	1.1660255847461E-18	3.21578928440984E-18
51.4	5.51011616533343E-18	-7.63528483001669E-19	-0.930567951340244	-0.222854298928156	-0.930567951340244	-0.222854298928155	-6.09696839461822E-19	5.03507670914559E-18
51.5	-7.35542127183916E-18	-2.08789101397557E-17	-0.923410357100164	-0.0343740279675697	-0.923410357100164	-0.0343740279675701	-1.06379448409641E-17	-6.73444018747131E-18
51.6	1.10681066575752E-17	-1.13018475083669E-18	-0.936011926728318	0.0800433981648317	-0.936011926728319	0.0800433981648321	1.06789426729186E-18	-1.18351884920184E-17
51.7	-1.2961670658094E-17	1.85023430902154E-17	-0.92563385298194	0.230567437654119	-0.925633852981939	0.23056743765412	2.83220813878097E-18	-6.8664041391558E-18
51.8	1.12839589832003E-17	-1.43477601044624E-17	-0.81635629917743	0.377328175500328	-0.81635629917743	0.377328175500327	-2.72590534715943E-17	-4.76763295427524E-18
51.9	-2.68484080473957E-17	-3.68649552311931E-18	-0.819509693218071	0.498397267587165	-0.819509693218071	0.498397267587166	3.46587729361489E-18	7.1877114588812E-18
52	-1.70798132482468E-18	4.73510135677767E-18	-0.668594250308831	0.637451019046794	-0.668594250308831	0.637451019046794	-4.74468957660583E-18	6.25748124247203E-18
52.1	-8.75932893716671E-18	-2.36550622983136E-18	-0.565678691617185	0.71753311987662	-0.565678691617185	0.71753311987662	-5.23876665411505E-18	-3.21058282520891E-18
52.2	1.76632149691942E-17	6.52745247574504E-18	-0.473190425532227	0.799268446843001	-0.473190425532227	0.799268446843	-1.33319168937316E-17	1.92619855290157E-17
52.3	-7.02846140809709E-18	5.20793734618254E-18	-0.345170560178122	0.863063320236184	-0.345170560178122	0.863063320236184	-1.41112165851716E-17	-1.34363098643636E-17
52.4	-5.72664653725361E-18	9.25887236990776E-18	-0.193737962519109	0.939240578265007	-0.193737962519109	0.939240578265007	-2.8494013306814E-17	1.62054039555828E-18
52.5	-4.01561226281887E-18	-5.66212701135942E-19	-0.0617769709523468	0.880585420502285	-0.0617769709523469	0.880585420502285	1.42271967356896E-17	4.4325723554808E-17
52.6	1.45363638069337E-17	-2.17113647048957E-17	0.0625718626716696	0.949031959925924	0.0625718626716698	0.949031959925923	-2.59198387442214E-17	-4.48163345991857E-18
52.7	-2.68773295287121E-17	-2.08820176666717E-17	0.2722092512397	0.922955572536993	0.2722092512397	0.922955572536992	-5.00390904403761E-19	3.47450768006905E-17
52.8	2.35092574959663E-17	-7.21738777425486E-18	0.30980928677623	0.751186076227902	0.30980928677623	0.751186076227902	-1.21113755749622E-17	-1.21855319310459E-17
52.9	1.05316238501949E-17	2.46944948866878E-17	0.567951060377857	0.862981872609759	0.567951060377856	0.862981872609759	-4.39408203020042E-18	1.02029108003023E-17
53	6.9647781849771E-18	1.0072145363355E-17	0.585859647999915	0.649953933788303	0.585859647999915	0.649953933788303	1.63026344288531E-17	-2.83507494217344E-17
53.1	7.63649062536462E-18	1.42281872599787E-17	0.693165309381878	0.619524704983051	0.693165309381878	0.619524704983051	3.59251741348588E-17	-2.53468912093369E-18
53.2	2.68415545986864E-18	3.18913914239124E-18	0.835523262675366	0.494364453140752	0.835523262675366	0.494364453140751	-3.57447512960819E-17	2.84339250712428E-18
53.3	2.35209966538124E-18	-8.24176596293509E-18	0.844505101714265	0.366254004724608	0.844505101714265	0.366254004724608	-9.13389685009204E-18	2.46566724359471E-17
53.4	2.45717855128759E-18	2.05096135812632E-17	0.88232745991488	0.167267258529946	0.882327459914879	0.167267258529945	1.53673886698815E-17	6.79541422033468E-18
53.5	-2.69703247496732E-18	3.26145770343116E-17	0.941395575774422	0.13036321779824	0.941395575774422	0.13036321779824	-4.9317708447917E-18	5.93387552806344E-18
53.6	-2.84248902900998E-17	7.77357594338041E-18	0.939862687584646	-0.0763305905578304	0.939862687584646	-0.0763305905578302	9.25793009743548E-18	-7.32271069492717E-19
53.7	-2.24436515899603E-18	-1.78673789206336E-18	0.848052436606767	-0.234553686189116	0.848052436606768	-0.234553686189116	-3.86151686102391E-18	4.66126055903012E-18
53.8	2.48321398139837E-17	1.86891264655289E-17	0.945832924692888	-0.288442887918081	0.945832924692888	-0.288442887918081	1.32024651141334E-17	7.4743245142583E-18
53.9	-8.53484635984244E-18	-4.82677279381892E-18	0.805497464109473	-0.469848583554252	0.805497464109473	-0.469848583554252	-3.92562232444123E-18	8.12682391090219E-19
54	7.67724592286026E-18	-5.52977498057814E-18	0.703395086106993	-0.582067926890466	0.703395086106993	-0.582067926890467	1.01461444949398E-17	-6.89954201548138E-18
54.1	1.08553455917154E-17	8.1440946015034E-18	0.628164456016729	-0.64800242327489	0.628164456016729	-0.64800242327489	5.60506530242306E-18	-1.58791453336535E-18
54.2	1.96699804450064E-17	1.11395240365357E-17	0.535620142229211	-0.747669956518931	0.535620142229211	-0.747669956518932	1.40898704611626E-17	-1.09862346988522E-17
54.3	2.17916627633046E-18	1.10545915643697E-17	0.369627927427409	-0.84522260019463	0.369627927427409	-0.845222600194629	2.10184437268931E-17	3.68645184139889E-17
54.4	5.46932384267136E-18	5.78980915606815E-18	0.311998621140627	-0.815616388917112	0.311998621140626	-0.815616388917111	8.76388894034679E-18	6.07786748928341E-18
54.5	-1.04276512337238E-17	1.41176618365473E-17	0.123565629263902	-0.961313972534822	0.123565629263902	-0.961313972534822	1.63029225545731E-17	2.78422692765503E-17
54.6	-3.64905291579055E-18	-5.39775475716892E-18	-0.0159980424471647	-0.892186032678065	-0.0159980424471647	-0.892186032678065	1.99135089190311E-17	-2.28290243884958E-17
54.7	5.94457629394454E-18	-1.54641435148469E-18	-0.119400588163038	-0.933252501248602	-0.119400588163038	-0.933252501248602	8.1135221261752E-18	-8.45749961510717E-18
54.8	-1.31103485483679E-19	3.84823534582794E-18	-0.282705757413049	-0.89885199794102	-0.282705757413049	-0.89885199794102	1.24858643094126E-17	4.43218419204752E-18
54.9	-1.34532772499152E-18	-1.3206839961793E-18	-0.411471807745472	-0.819161452970644	-0.411471807745472	-0.819161452970644	1.22923396781133E-17	1.27829077620225E-17
55	5.66503668526707E-18	-3.71344496085158E-18	-0.513301410320568	-0.776470371580349	-0.513301410320568	-0.776470371580348	-8.20669042435148E-19	-1.34176090191448E-17
55.1	8.69242893178894E-18	7.32067357246378E-18	-0.640548789107361	-0.686970003787229	-0.640548789107361	-0.686970003787229	5.30498331211344E-18	1.18777682146293E-17
55.2	-1.24221206657891E-19	8.56847334581558E-18	-0.709200904593971	-0.580120965517194	-0.709200904593971	-0.580120965517194	-4.00962528431683E-18	-5.13222681585775E-18
55.3	-4.74987243619607E-18	-3.3965838249059E-18	-0.809976613552041	-0.44941725563356	-0.809976613552041	-0.449417255633561	3.25472748195773E-19	-1.07284920198417E-17
55.4	-7.7096417249178E-18	1.15012325614169E-17	-0.855328913531266	-0.3662765098529	-0.855328913531266	-0.3662765098529	-2.33058131965404E-17	-2.6794446086584E-18
55.5	-3.98199230325631E-19	-2.77599548485461E-18	-0.923567486926854	-0.209210999995254	-0.923567486926854	-0.209210999995254	1.19003804000697E-17	3.9591940484067E-18
55.6	2.86208541910967E-18	-5.42328748021454E-18	-0.91459927629801	-0.0837853409809794	-0.91459927629801	-0.0837853409809795	-2.21152919614816E-17	-1.11014784359099E-18
55.7	-6.95560334509993E-20	-7.65394795092121E-19	-0.940350078363292	0.0426397830903506	-0.940350078363291	0.0426397830903509	8.08832512607604E-18	1.46992806091462E-17
55.8	8.44854748671652E-18	2.05112214302336E-18	-0.91673150434655	0.196771560757384	-0.91673150434655	0.196771560757384	1.46720566701343E-17	8.44822732547345E-18
55.9	-5.37295710408341E-18	-1.13187173421033E-17	-0.881021365919826	0.315709641489719	-0.881021365919826	0.315709641489718	-1.11630534143958E-17	-1.83602312711027E-17
56	-6.36504169269669E-18	1.32024968291764E-17	-0.79979692357425	0.448368864834666	-0.79979692357425	0.448368864834666	1.93511586510757E-17	1.86731896436322E-17
56.1	1.18938107649033E-17	3.92227037106984E-18	-0.758009582414809	0.548191287027395	-0.758009582414809	0.548191287027395	1.47246182645948E-18	1.00763243275914E-17
56.2	9.14471810921782E-18	-1.38730131454284E-17	-0.674407776601659	0.664850469433067	-0.674407776601659	0.664850469433067	2.0400844412959E-17	-1.21564027909011E-17
56.3	-5.89768651794121E-18	-4.0036160393415E-18	-0.519006367213104	0.759709922484852	-0.519006367213104	0.759709922484851	-2.2222762959544E-17	-1.65483973971994E-17
56.4	1.05642187511532E-17	7.94302227489568E-18	-0.462898831775611	0.81736831311016	-0.462898831775611	0.81736831311016	2.9137374263148E-17	3.94368154833518E-18
56.5	-1.2128791353846E-18	-1.00904512028655E-18	-0.324287764503396	0.896849916676999	-0.324287764503396	0.896849916676999	-1.41266316840117E-17	1.69803078953843E-17
56.6	-2.3868108905547E-18	-5.72044095115356E-18	-0.17787455436093	0.90031000571276	-0.17787455436093	0.90031000571276	-1.19208791424773E-17	-1.74242280022906E-18
56.7	2.04406991042356E-18	-4.30019266072709E-18	-0.0567845660706762	0.929905792890824	-0.056784566070676	0.929905792890823	5.94900802421632E-18	-1.14061131929208E-17
56.8	-6.89028491909294E-18	7.86700066827209E-18	0.0561389035626038	0.945008170712265	0.0561389035626036	0.945008170712265	3.26549723985097E-18	-3.17024927619508E-17
56.9	-3.27439777067526E-18	-1.73698721941727E-18	0.201555101590602	0.902251006355733	0.201555101590602	0.902251006355733	-5.14079109583153E-17	-1.35083168952503E-17
57	-7.73635655736246E-18	3.94623379750532E-18	0.355819146787077	0.834112395020422	0.355819146787077	0.834112395020422	-2.42888534341602E-17	-3.52503425386102E-18
57.1	-3.32128397940988E-18	8.3002993302277E-18	0.451364159008758	0.802198521529706	0.451364159008758	0.802198521529706	-7.39966572781191E-18	-3.02872358953959E-17
57.2	1.52768890185424E-17	1.09880617278307E-17	0.564446099520669	0.756531518988215	0.564446099520669	0.756531518988215	4.38875266753381E-17	2.5937650498919E-17
57.3	3.15494992952022E-17	-1.14355247181028E-17	0.710523516005887	0.600238518905803	0.710523516005887	0.600238518905803	3.0998084323381E-17	-3.26523292388447E-17
57.4	-2.11281766504683E-18	2.19729646352197E-17	0.713478863261075	0.518979106186863	0.713478863261075	0.518979106186863	-1.1896000827481E-17	-1.9212529373592E-17
57.5	1.12059616810447E-17	6.14605078822222E-19	0.834593483245681	0.435316371021246	0.834593483245681	0.435316371021245	-2.31599382048254E-17	-6.33006418070342E-18
57.6	-7.24729765260981E-19	8.86242485769424E-18	0.892614344947398	0.286920097147468	0.892614344947398	0.286920097147468	7.33105192451766E-18	1.46380425664007E-17
57.7	-1.30222655930302E-17	2.03431708074283E-17	0.880162045621614	0.150322295312193	0.880162045621614	0.150322295312193	7.09138745726401E-18	3.40177691317673E-17
57.8	-2.64434790853725E-17	-1.86553923601337E-17	0.92562743606175	0.0507446590811376	0.92562743606175	0.0507446590811378	-8.32813326271318E-18	-1.2913814935019E-17
57.9	6.59812936236181E-18	6.18975330562111E-18	0.933723993973468	-0.0636023930220129	0.933723993973468	-0.0636023930220131	1.84251877155182E-17	1.61939431283971E-19
58	3.18565032334653E-18	5.79968482445614E-18	0.882270199993671	-0.259261398703808	0.882270199993671	-0.259261398703808	-3.85620977368054E-18	-5.71796053740003E-19
58.1	-1.27836466046188E-18	1.61519352184648E-17	0.817037073597157	-0.328787655445541	0.817037073597157	-0.328787655445541	1.82895209368047E-17	1.32170420818516E-17
58.2	-1.21838562437009E-17	3.28814468737296E-18	0.801460676726104	-0.463684700705853	0.801460676726103	-0.463684700705853	-4.08379707583014E-17	2.62710294713519E-17
58.3	4.54763678214461E-18	-8.13703253948244E-18	0.710044789348531	-0.587764816696869	0.710044789348531	-0.587764816696869	3.77207201375482E-19	-5.92939382529217E-18
58.4	2.56354979727273E-18	-2.62653778727804E-18	0.607843731440089	-0.615265412547419	0.607843731440089	-0.615265412547419	-5.0956055995428E-18	7.84811936683145E-18
58.5	7.08829832738389E-18	3.09293166292218E-17	0.563726536074566	-0.743144080762766	0.563726536074567	-0.743144080762766	1.06107688989355E-17	-6.88764033766958E-18
58.6	5.23464893972053E-18	2.73191487027692E-17	0.418587456416514	-0.811244954572627	0.418587456416514	-0.811244954572627	5.9691315657628E-18	-1.58359572747605E-18
58.7	2.16185507950755E-17	-6.74277092440829E-18	0.289727846599585	-0.829240718949365	0.289727846599584	-0.829240718949364	-2.13700045924035E-19	-1.88079794880039E-18
58.8	-1.60967418132616E-18	-1.30011424020641E-17	0.193249357242996	-0.873585466831668	0.193249357242996	-0.873585466831668	-2.47432116566771E-18	3.80505980714346E-19
58.9	-1.33524025458411E-17	-2.10944355748172E-17	0.0912880822357284	-0.906759145234005	0.0912880822357287	-0.906759145234005	5.2527638918802E-18	-7.7531562488755E-18
59	1.51930124624426E-17	6.40628278908112E-18	-0.0790518135851307	-0.889204972529405	-0.0790518135851307	-0.889204972529405	7.86955532820517E-18	-7.02833213540769E-18
59.1	6.45424529009222E-20	-4.39436861295805E-18	-0.166790160756198	-0.867009474323596	-0.166790160756198	-0.867009474323596	6.32259702844032E-19	-1.11740635468624E-17
59.2	6.01639145692087E-19	2.71164559164683E-18	-0.28116208272419	-0.872882360980604	-0.28116208272419	-0.872882360980605	1.40680490782464E-18	2.58205559362755E-18
59.3	-6.06248252923035E-18	3.68942324594907E-18	-0.433464796425567	-0.773937369944228	-0.433464796425567	-0.773937369944228	-5.44264832187948E-18	6.27034523479521E-18
59.4	6.47236997848202E-18	5.56300324325699E-18	-0.49511932047714	-0.73492096639883	-0.49511932047714	-0.73492096639883	1.72295555563054E-17	-6.24512142928489E-18
59.5	-3.31882637911783E-18	8.69225895620336E-18	-0.621444976741866	-0.65661865018678	-0.621444976741866	-0.65661865018678	-1.72810288743833E-17	4.37313796561843E-18
59.6	-8.95371836691781E-19	-3.59772915414542E-18	-0.694570972900765	-0.542898811103782	-0.694570972900765	-0.542898811103782	-2.45373541452543E-18	1.30531209107501E-18
59.7	-1.98490893693855E-19	1.11747871058957E-17	-0.768661344845536	-0.469552157871919	-0.768661344845536	-0.469552157871919	-1.31768025327866E-18	-5.65133665429913E-18
59.8	-1.79636258496445E-17	-1.24175763671475E-17	-0.835156889756488	-0.354198398646237	-0.835156889756489	-0.354198398646237	-2.9599510415522E-18	-4.08821222229968E-18
59.9	3.31408508169302E-18	-1.84989525788478E-17	-0.860752205464401	-0.245677704508912	-0.8607522054644	-0.245677704508912	-4.0685267544692E-18	-6.61973656739747E-18
60	-4.10853263567904E-19	-4.34638273423079E-18	-0.88633697670174	-0.101259270669541	-0.886336976701741	-0.101259270669541	1.09502871025187E-17	-1.05729575901745E-17
60.1	-9.66026272708902E-18	-1.32844128186563E-17	-0.880703422938455	0.0079330461187896	-0.880703422938456	0.00793304611878981	4.84230005928289E-18	-3.00323135708478E-17
60.2	4.2036370956988E-18	-9.71795468459375E-18	-0.895887470665776	0.105863462060623	-0.895887470665776	0.105863462060623	7.85702243545076E-18	-1.56746789495964E-17
60.3	-5.45561819496764E-18	-2.9842334608171E-18	-0.854435002792692	0.267405130705982	-0.854435002792692	0.267405130705981	6.32988874183856E-18	-1.85353855061291E-18
60.4	1.76017252861526E-17	1.37009698111632E-17	-0.79883380105384	0.334205327513872	-0.79883380105384	0.334205327513872	1.12851744877107E-18	-2.99730300520892E-18
60.5	1.00899711475337E-19	-1.09196042628082E-17	-0.765078572776453	0.467973665850447	-0.765078572776453	0.467973665850447	-6.88969689100165E-18	2.74447556322332E-18
60.6	-8.18671253315602E-19	-9.58002027206532E-18	-0.687704790559936	0.560678965160528	-0.687704790559936	0.560678965160528	6.50036930793368E-19	3.61947456124955E-18
60.7	-5.93390074282567E-18	-5.69853943330494E-18	-0.60230662481326	0.651863487327274	-0.60230662481326	0.651863487327273	1.7198167945731E-18	-4.24826716352465E-18
60.8	-2.23753674063732E-19	-4.16168105210331E-18	-0.512813633620737	0.732442735716383	-0.512813633620737	0.732442735716383	6.93086894857184E-18	-1.23193314077517E-18
60.9	7.0110084675721E-18	2.25714730567666E-18	-0.4178322842196	0.791462091464486	-0.4178322842196	0.791462091464486	9.80910604411619E-18	-1.65266112926831E-18
61	7.28468965549741E-19	-6.47479998668061E-18	-0.293642677856605	0.84264342921617	-0.293642677856605	0.842643429216171	6.1287167620381E-18	8.38819796967302E-18
61.1	1.03133144305449E-17	1.32196191887267E-17	-0.174160389799678	0.858691339148257	-0.174160389799678	0.858691339148258	1.33022722652171E-17	-6.66339556052886E-18
61.2	9.78488099273257E-18	6.79900904395981E-18	-0.0743819481595178	0.878562770253588	-0.0743819481595178	0.878562770253587	-2.39085147011298E-18	1.98634014803325E-18
61.3	1.22453269376915E-17	-1.08243981194346E-17	0.0476890064038249	0.897869128958853	0.0476890064038249	0.897869128958853	3.18466505557662E-17	1.26503027194621E-17
61.4	-4.11780071334189E-18	1.94612959407842E-17	0.200390095397156	0.862887556981333	0.200390095397156	0.862887556981334	-4.22405052960286E-18	5.29631358435466E-18
61.5	-3.71310596327427E-18	-2.27816550780391E-17	0.265239629265816	0.820656484626155	0.265239629265817	0.820656484626156	8.72008857526697E-18	-1.10683304031646E-17
61.6	7.32891660718849E-18	9.24415711752178E-18	0.40125340713647	0.814661394360276	0.401253407136471	0.814661394360276	-2.61597457613812E-18	3.40233737173021E-18
61.7	9.89347435184001E-18	9.50954440308549E-18	0.514662307305178	0.733704135708798	0.514662307305178	0.733704135708798	4.2860550721857E-18	4.40478572959293E-19
61.8	9.53882784586466E-18	-2.73273853025442E-18	0.586585609775265	0.645344405686255	0.586585609775264	0.645344405686255	6.59818397546693E-18	2.99515188542259E-19
61.9	3.12252275205218E-19	-1.26312032957419E-17	0.675885443392161	0.559296414825376	0.675885443392161	0.559296414825375	6.6824895055318E-18	-2.19992228183228E-17
62	-9.83709575638819E-19	1.1623138072062E-18	0.73969902381629	0.487811436183399	0.73969902381629	0.487811436183399	6.2483755008221E-19	1.01041703225283E-17
