# GHZ S RI R 50
50	3.99564505775186E-18	-2.42996646028962E-18	0.75183203837008	-0.526104523640207	0.751832038370079	-0.526104523640207	-7.46220708686128E-18	1.94329213399271E-18
50.1	-7.21522087553609E-18	-9.03055995255757E-18	0.633131145650411	-0.62978680503882	0.633131145650411	-0.629786805038821	1.39109226214687E-17	-1.44524222299238E-17
50.2	1.3808167415922E-17	1.18661196282821E-17	0.534583446475576	-0.720533197253463	0.534583446475575	-0.720533197253462	1.74124407058662E-18	9.31514609678764E-19
50.3	2.77470634337328E-17	8.92850736129901E-18	0.418570585556465	-0.825812516186054	0.418570585556465	-0.825812516186054	-2.96611428870869E-17	1.989907854153E-17
50.4	1.09599475212583E-17	7.80793773464858E-18	0.236351744194754	-0.847168561374376	0.236351744194754	-0.847168561374376	-5.61984278552231E-18	-4.96887229726837E-18
50.5	7.18504293286216E-18	-3.89426741064501E-18	0.131284558859293	-0.903096939618076	0.131284558859293	-0.903096939618076	-5.62219912384108E-19	-3.18117452615394E-18
50.6	1.06271287175033E-17	9.0416941420632E-18	-0.0362408297232052	-0.900662137021379	-0.0362408297232056	-0.900662137021379	-3.37605847116667E-18	-6.79808893906802E-18
50.7	-2.55957834546573E-18	-6.45689739983745E-18	-0.167864383750574	-0.878981250006633	-0.167864383750574	-0.878981250006633	-6.7012649271494E-18	-1.82647576352989E-18
50.8	-9.77713052549206E-19	7.80772504953306E-18	-0.32862670017924	-0.863380690153018	-0.32862670017924	-0.863380690153018	1.17992861101285E-17	-4.55778996329177E-18
50.9	-8.16776169426251E-18	1.72298189933983E-17	-0.44615545174344	-0.764250751148907	-0.44615545174344	-0.764250751148907	8.7733594816064E-19	6.73570692889581E-18
51	7.75139349784603E-18	2.1279143904535E-17	-0.582408055357232	-0.701955119285193	-0.582408055357233	-0.701955119285194	1.19664905551263E-17	6.65235664251858E-18
51.1	2.36941666281969E-17	4.92479220752144E-18	-0.683775526425211	-0.594129731119137	-0.68377552642521	-0.594129731119137	2.99929075400204E-18	1.10770127123491E-17
51.2	-5.95899102587158E-18	-2.49371562717048E-18	-0.765062794176049	-0.471679099026738	-0.765062794176048	-0.471679099026738	-1.25199895400995E-18	6.29426903954781E-19
51.3	2.80915902724852E-18	8.7618692481536E-18	-0.836494409683511	-0.343674613120177	-0.836494409683511	-0.343674613120177	-1.0204641475695E-18	-3.00374001406039E-18
51.4	-2.5933819131349E-17	1.7339719047057E-17	-0.897587433615622	-0.222460739698981	-0.897587433615622	-0.222460739698981	9.84430820832838E-18	-6.72645096556265E-19
51.5	9.43191447271309E-18	2.64341543663771E-17	-0.88805670336242	-0.0440242763522502	-0.88805670336242	-0.0440242763522501	1.77579416851242E-18	2.93289924314423E-18
51.6	-1.46796504401911E-17	-1.05271411542232E-18	-0.907234622431921	0.0680447963325053	-0.90723462243192	0.0680447963325053	1.0516634581536E-17	1.0756247489013E-17
51.7	2.82453069309653E-18	2.18834297163697E-17	-0.899419351875151	0.216001415341521	-0.899419351875151	0.216001415341521	2.92592336535965E-17	6.74344230727334E-18
51.8	-1.06457372256981E-17	5.37923032054783E-18	-0.794911951545538	0.351689903656043	-0.794911951545539	0.351689903656043	-1.15489487484137E-17	1.07575423592024E-17
51.9	-3.28596782990965E-17	3.58910608734813E-18	-0.801738781706813	0.479117512454194	-0.801738781706814	0.479117512454194	-1.61561834038961E-18	5.41161517339553E-17
52	-6.40228184638601E-19	-7.41206524643435E-19	-0.654475969405502	0.608382071303662	-0.654475969405502	0.608382071303663	2.87437395724554E-18	-2.98230364182216E-17
52.1	5.27252954039027E-19	-8.07747840447695E-19	-0.558875876159993	0.688503114146917	-0.558875876159993	0.688503114146917	-3.17542240131816E-17	-5.17661925214646E-18
52.2	6.59676304391788E-18	-5.81868093857433E-18	-0.470561937067694	0.773599112418211	-0.470561937067693	0.773599112418211	4.73614173770166E-18	-2.48759933887693E-17
52.3	3.28745596897226E-18	4.79528502733438E-18	-0.346894296029358	0.838566137269795	-0.346894296029358	0.838566137269795	1.10849433258662E-17	-2.93050980299635E-17
52.4	-6.77137749089503E-18	2.8077018507344E-19	-0.195847218478718	0.913908148942439	-0.195847218478718	0.913908148942439	3.88778577366646E-18	2.83274773877297E-17
52.5	-9.8288802144706E-18	1.07456487563026E-17	-0.0766349847672479	0.860966363051935	-0.0766349847672478	0.860966363051934	1.82198201114998E-17	8.53651342876532E-18
52.6	1.62019401660349E-18	2.72358807730934E-17	0.0536388763075375	0.932504621464197	0.0536388763075374	0.932504621464197	6.72803844939295E-17	2.13690576670132E-18
52.7	-5.65877586086146E-18	5.34207045487711E-18	0.258861202319252	0.901538046390722	0.258861202319252	0.901538046390722	2.11232264172997E-18	1.48819174417983E-17
52.8	-1.21690960463558E-17	-1.8878689648308E-17	0.282414697730139	0.748645886156209	0.282414697730139	0.748645886156209	-1.89060043316556E-17	-1.8129650082378E-17
52.9	2.24257883848347E-17	5.5808418716018E-17	0.557050038480389	0.843336676200421	0.557050038480389	0.843336676200421	-9.5574553654051E-19	-1.58209203777407E-17
53	3.648561427808E-19	-2.52956215732884E-18	0.561907088515728	0.648769758388286	0.561907088515728	0.648769758388286	2.23311654131944E-17	2.42012539561048E-17
53.1	5.82021504293982E-18	-5.28923899891677E-19	0.677666520547013	0.618874741575055	0.677666520547013	0.618874741575055	7.93385849837515E-19	8.73032256440974E-18
53.2	-8.07301271248489E-18	1.63217965642853E-18	0.818031320436808	0.490269549059836	0.818031320436807	0.490269549059836	1.65179596882885E-17	-2.56863832060418E-18
53.3	7.95838838602557E-18	-1.04628795077268E-17	0.82968466004398	0.371668458914994	0.82968466004398	0.371668458914994	3.75466172536006E-18	-3.02503168342897E-17
53.4	2.61491783877356E-18	1.42921687624054E-17	0.86179752023829	0.177856582246844	0.86179752023829	0.177856582246844	2.27506276452827E-18	8.2946165604558E-18
53.5	4.94465487548698E-18	-5.78643602841318E-18	0.934094697875051	0.13587202897848	0.934094697875051	0.13587202897848	4.03212505232328E-17	-8.17190262837475E-18
53.6	3.65776700289253E-17	-3.79532743838859E-18	0.927389662695416	-0.0669736623658229	0.927389662695416	-0.0669736623658228	4.83497652244167E-18	-1.88874960841424E-17
53.7	1.54662598210823E-17	9.28093676428872E-18	0.837992096509732	-0.214977328756824	0.837992096509732	-0.214977328756824	-1.00305144531112E-17	-1.52289311310919E-17
53.8	4.59378023290836E-18	-1.43778895679765E-17	0.943865183859054	-0.286849135924648	0.943865183859054	-0.286849135924648	-2.05644482114058E-17	1.78348643396422E-17
53.9	2.0778407657375E-17	-3.17138753771514E-18	0.802072495346641	-0.457388489085985	0.802072495346641	-0.457388489085985	-9.05276815624865E-18	-7.93376587187084E-18
54	3.61958065713282E-18	-1.33534984611943E-17	0.703559772246054	-0.567392872960188	0.703559772246053	-0.567392872960188	-2.08908633750577E-17	2.72192767114265E-18
54.1	-1.39955292804261E-18	7.08986850132814E-19	0.634300683844872	-0.637640101006475	0.634300683844872	-0.637640101006475	-1.54650811429162E-17	-5.53189693216759E-18
54.2	-1.66417281538984E-17	1.75258044801816E-17	0.541739590975327	-0.740133673513833	0.541739590975327	-0.740133673513833	6.10874851909431E-18	2.40900118102903E-17
54.3	-2.67243495461109E-18	1.009823436378E-17	0.375415548804096	-0.833134888362795	0.375415548804096	-0.833134888362795	-1.33621747730554E-18	5.04911718189E-18
54.4	-7.47024193933056E-19	-1.08835918348876E-17	0.326166202841394	-0.81623661190039	0.326166202841393	-0.81623661190039	-1.0160333545202E-17	1.06831834386457E-17
54.5	1.24146186518779E-17	3.35736651648484E-18	0.126758268234858	-0.954272083589689	0.126758268234858	-0.954272083589689	-5.85629775605844E-19	-1.01503056180296E-17
54.6	2.74412656527148E-18	-1.92260567087504E-20	-0.00311548284151992	-0.889353888139833	-0.00311548284151983	-0.889353888139834	5.50747918725171E-18	2.70567445185398E-18
54.7	7.89591620228661E-18	-1.93822223682087E-17	-0.113655571516495	-0.934929497762943	-0.113655571516495	-0.934929497762943	1.09125919348107E-17	-2.96359526737943E-17
54.8	1.08815028236285E-18	2.97166286175593E-18	-0.27619213760943	-0.89923561844534	-0.27619213760943	-0.89923561844534	3.44671246645051E-18	5.08164760689924E-18
54.9	-5.17396655627649E-18	7.25286292322587E-18	-0.402394666324695	-0.822119297361273	-0.402394666324695	-0.822119297361273	1.3311921823554E-19	9.30505479931334E-18
55	4.21368807162382E-18	-3.91655289002892E-18	-0.508986271531206	-0.782192039378039	-0.508986271531206	-0.782192039378038	1.07177214033375E-17	-1.67326838663242E-17
55.1	-1.86115215869366E-18	3.8840236986601E-18	-0.636666246821326	-0.691744142787566	-0.636666246821327	-0.691744142787566	8.59672497114742E-18	7.63744557142285E-18
55.2	7.06028287822731E-19	-8.34268079331619E-18	-0.706999919437701	-0.588864187475099	-0.706999919437701	-0.588864187475099	2.88884841815219E-18	-5.31130191196877E-19
55.3	-1.07028619578236E-17	5.34342896943828E-18	-0.80683383775859	-0.456503860627034	-0.80683383775859	-0.456503860627033	-1.26551229482826E-17	6.46715160271161E-19
55.4	-8.6196024102948E-18	-7.58239394366153E-18	-0.85913992087692	-0.373989709590663	-0.85913992087692	-0.373989709590663	-1.86221494427673E-17	-3.67674496925982E-17
55.5	3.49949823625883E-18	-2.96125711806689E-20	-0.925351337449623	-0.214316696326744	-0.925351337449623	-0.214316696326744	-2.68990170471509E-17	2.64757341985914E-17
55.6	7.38174512849268E-18	-3.02822859761375E-20	-0.920168623356829	-0.0914973852545534	-0.920168623356828	-0.0914973852545532	6.68099051947022E-18	1.19326179903717E-17
55.7	5.90006642131861E-18	2.96607640216303E-19	-0.947961055423298	0.0390410295583518	-0.947961055423299	0.0390410295583519	1.22399113296798E-17	1.77920050446588E-17
55.8	-1.0480183311403E-17	8.80438515268674E-18	-0.923678185679219	0.193336804647844	-0.923678185679219	0.193336804647844	-9.1987437794417E-18	4.02725224045407E-18
55.9	-2.77697945714725E-18	2.53579042595206E-19	-0.890373887606003	0.314489701086092	-0.890373887606003	0.314489701086092	1.33777392005459E-17	-6.82185412727054E-18
56	-1.16416770492816E-17	3.15645242183406E-18	-0.809629274430029	0.445838902818039	-0.80962927443003	0.445838902818039	-3.27152912706271E-18	-3.36343686806851E-17
56.1	-1.07536457471415E-17	1.60470764144786E-17	-0.76891705741338	0.55177847255118	-0.76891705741338	0.55177847255118	-2.90035973863799E-17	3.31886042667982E-18
56.2	7.35489191353409E-19	3.19584009190621E-18	-0.683452055102211	0.670737370836534	-0.683452055102211	0.670737370836534	2.427495411242E-17	-2.1818311050389E-17
56.3	5.839816771186E-18	1.7952259566892E-18	-0.528395418074909	0.761403148518682	-0.528395418074908	0.761403148518681	7.98831624321037E-18	2.56463647128101E-17
56.4	6.9001359310597E-18	-2.26654723440119E-18	-0.471361718844755	0.82828276344237	-0.471361718844755	0.82828276344237	-1.91380533184919E-17	-1.06217216029814E-17
56.5	5.51059583139168E-20	-2.58548132153137E-18	-0.32911481035353	0.907170437272489	-0.32911481035353	0.907170437272489	2.73066589487957E-17	-2.44627632785107E-18
56.6	3.72603519893556E-18	-4.93884357780985E-18	-0.185388306160777	0.911378432421751	-0.185388306160777	0.91137843242175	-1.34756918213603E-17	-2.2019309185459E-17
56.7	-6.19840810012147E-18	1.17067634819581E-17	-0.0605456713196123	0.943433951178559	-0.0605456713196121	0.943433951178559	-3.47167963044183E-18	2.67896870687486E-18
56.8	1.88458948586121E-18	2.20637006578048E-18	0.057231776488599	0.961547757532641	0.057231776488599	0.961547757532641	-9.10116684938677E-18	-1.51228098805441E-17
56.9	-5.85297667655717E-18	-1.0821085495716E-17	0.202241123434068	0.918621653406539	0.202241123434068	0.918621653406538	3.37851050249352E-18	1.81899515348038E-18
57	-3.02561269332134E-17	1.39679479662007E-17	0.355038532218871	0.848526206054141	0.355038532218871	0.84852620605414	3.0017399712465E-18	-1.5588810026591E-17
57.1	1.369563171956E-17	-1.93175748998142E-17	0.45703893928145	0.818516270723969	0.45703893928145	0.818516270723969	1.16053342223998E-17	-3.04552860643057E-17
57.2	-4.79673380245276E-18	-6.44579991538614E-18	0.576037066321197	0.771053406425212	0.576037066321197	0.771053406425212	-1.90554934237274E-17	7.77058788423572E-18
57.3	8.75458330347526E-18	1.10267681189712E-17	0.715519723565367	0.610143732534238	0.715519723565368	0.610143732534238	-3.05358508985095E-17	4.21676381369276E-17
57.4	3.63285690324881E-18	1.66203648758869E-17	0.725889712933139	0.536215479095995	0.725889712933139	0.536215479095995	1.54767916739282E-17	2.2617810378372E-18
57.5	-7.13204491199881E-18	-1.83986210676417E-18	0.851030007191796	0.443646787053089	0.851030007191796	0.443646787053089	-3.01705574903366E-17	-1.3398322910902E-18
57.6	1.72664295944165E-17	-5.06381576318173E-18	0.907685209889228	0.292998620084014	0.907685209889228	0.292998620084013	-5.32870896985793E-18	1.99550565441308E-18
57.7	-1.33036079737459E-17	2.58026431834449E-17	0.897146799080346	0.159403984803178	0.897146799080347	0.159403984803178	-2.15092706278396E-17	3.35311447340068E-17
57.8	1.24362663698383E-17	1.1575785775689E-17	0.946456483485336	0.0524229090356476	0.946456483485335	0.0524229090356476	3.51141351301559E-17	3.68359268357504E-17
57.9	1.13549668080918E-17	5.19210857158309E-19	0.95685128537	-0.0669230200836871	0.95685128537	-0.0669230200836875	-6.76626164462109E-18	-2.27229409089308E-18
58	3.59019862413452E-18	-5.86658099574605E-18	0.898760878085736	-0.260459810203888	0.898760878085736	-0.260459810203889	1.28940376585611E-17	-1.93926892367171E-17
58.1	1.20784801654618E-17	-1.60879190147163E-18	0.840396221883872	-0.33209630097666	0.840396221883872	-0.33209630097666	1.28047025722619E-17	-8.33399317172231E-19
58.2	-6.47105060525368E-20	-1.08290900710897E-17	0.820640284171019	-0.474617815971589	0.820640284171019	-0.474617815971589	3.41540569307582E-18	-1.06254408021306E-17
58.3	-2.31477968792298E-17	1.43237162395727E-17	0.726497515743743	-0.599299912948711	0.726497515743743	-0.599299912948711	-1.65949494669012E-17	2.49960632323167E-17
58.4	-4.14095215859905E-18	2.75482915338169E-18	0.630855218440638	-0.630242801302657	0.630855218440638	-0.630242801302656	1.51790253874137E-17	-5.50295951558913E-18
58.5	1.88520772588146E-17	-3.73783173127865E-18	0.577405551113487	-0.765941529491076	0.577405551113487	-0.765941529491076	-6.57692716918719E-18	2.23014736290603E-19
58.6	2.37497993311729E-17	1.7714145199589E-17	0.430441843297349	-0.832412581456292	0.43044184329735	-0.832412581456292	9.29769958598612E-18	-5.20697806154815E-20
58.7	-1.85813883573305E-17	-3.33770434324679E-17	0.302572647998147	-0.85223073106525	0.302572647998147	-0.85223073106525	-1.35229176791105E-17	8.94755883459144E-19
58.8	3.47393393212369E-18	6.52263680856628E-18	0.200495546747	-0.901009217344561	0.200495546747	-0.901009217344562	-4.47229493374655E-18	6.06597941332296E-18
58.9	-1.19332628194295E-17	-3.1493663300552E-18	0.0919986240599166	-0.937618475620841	0.0919986240599165	-0.93761847562084	-1.93827704616826E-18	1.37428983828721E-17
59	1.96631644615676E-17	-6.77493206409118E-18	-0.0791911516932564	-0.916098123718908	-0.0791911516932563	-0.916098123718909	1.38318750665735E-18	3.66717946925346E-18
59.1	1.02116079257211E-17	-1.65481371954074E-17	-0.171897202186851	-0.89831492426841	-0.171897202186851	-0.89831492426841	1.0410199729431E-17	-1.50655905298956E-17
59.2	2.24290673427723E-18	-8.19755639009533E-18	-0.295531444282265	-0.90299780589105	-0.295531444282265	-0.902997805891051	1.73637317374713E-17	1.83401291829608E-18
59.3	-7.35981203074089E-18	8.39202346412622E-19	-0.445423006031412	-0.799784128487721	-0.445423006031412	-0.799784128487721	-1.00948633147524E-17	-2.66839037779567E-19
59.4	6.08880569657101E-18	1.59271242811518E-17	-0.515746150902381	-0.763083775455581	-0.51574615090238	-0.763083775455581	7.66664841425482E-18	3.32133578970089E-17
59.5	1.53803949714613E-18	-3.03160506554476E-19	-0.645197971564668	-0.678540070612046	-0.645197971564668	-0.678540070612046	8.99854465045685E-18	2.73773236900655E-18
59.6	-4.82880967647386E-18	-1.41897692644256E-18	-0.719642192868913	-0.563453912017396	-0.719642192868912	-0.563453912017396	-1.05916290123892E-18	1.7544559423998E-18
59.7	5.44297316972173E-18	5.84897304528826E-19	-0.800046538017984	-0.484939189139756	-0.800046538017984	-0.484939189139757	6.68752813300108E-18	1.3636150368361E-17
59.8	-7.56206797500467E-18	-5.50313112503497E-18	-0.868186855710251	-0.364121235867392	-0.868186855710251	-0.364121235867392	1.03713290510536E-17	-4.80088649356527E-18
59.9	1.69290895783485E-17	-1.32701013418164E-17	-0.897084777477596	-0.252252458604266	-0.897084777477595	-0.252252458604266	-9.74784032321533E-18	-6.57402574503049E-19
60	-3.6289442991956E-18	1.59857465498989E-17	-0.921085712763217	-0.103235085004678	-0.921085712763216	-0.103235085004678	-1.06279255758557E-17	2.66220319591357E-17
60.1	2.06535936440623E-17	8.31254068401075E-18	-0.917875942037908	0.0102137243700758	-0.917875942037908	0.0102137243700757	3.77596036119797E-17	2.14556763458819E-17
60.2	1.26898216711204E-17	-1.6435738418133E-18	-0.934807409995571	0.117190695126141	-0.934807409995571	0.117190695126141	1.77291538919937E-17	-2.13279037165649E-18
60.3	-1.41713993148427E-17	7.75500408146346E-19	-0.887816179415407	0.281100311018628	-0.887816179415408	0.281100311018628	5.34307237882117E-18	4.97791055540631E-18
60.4	1.74421635251492E-17	5.00690971899551E-18	-0.836276109528459	0.353069636240895	-0.83627610952846	0.353069636240895	1.07424899139884E-17	9.45724736637414E-18
60.5	1.19634721406724E-17	1.52793267095318E-17	-0.796072879140657	0.493781836427463	-0.796072879140656	0.493781836427464	-5.50740230253259E-21	-1.70198650284994E-18
60.6	-1.46292559331167E-18	-1.20837471106157E-17	-0.716138297089678	0.59059348062207	-0.716138297089678	0.59059348062207	6.25198983684949E-18	-8.68427850410494E-18
60.7	2.37154757928786E-18	-6.97444128212476E-18	-0.626278483411975	0.685654621203286	-0.626278483411975	0.685654621203286	8.4625687864574E-19	1.04979799865467E-18
60.8	-6.2264136042948E-18	-1.10393001882681E-17	-0.531295678389296	0.770276687043929	-0.531295678389296	0.770276687043929	-4.77798952930596E-18	-5.09009562475831E-18
60.9	2.22177214004539E-19	1.55116374718906E-17	-0.431101800534279	0.83333109595205	-0.431101800534279	0.83333109595205	-9.16593793784086E-18	5.55266446622943E-18
61	5.96287300767612E-18	-4.01973918548343E-18	-0.30111571783979	0.885026855247128	-0.30111571783979	0.885026855247128	1.29535471706296E-17	-5.33554368429106E-18
61.1	1.4586929376927E-17	-7.70621278412626E-19	-0.177503507997268	0.902507305733156	-0.177503507997268	0.902507305733156	-5.37225900129465E-18	7.31615638040874E-18
61.2	9.06876284578213E-18	-1.48469063305795E-17	-0.0703864568266735	0.924995612272777	-0.0703864568266737	0.924995612272777	-2.14776245443462E-19	1.62022214350603E-17
61.3	-1.1523557878593E-18	1.47939437398199E-19	0.0602872771508344	0.943054470841263	0.0602872771508344	0.943054470841263	4.63374072913522E-18	-9.52641006941813E-18
61.4	-1.60660617401527E-18	9.20697973616129E-18	0.216148027867783	0.90330091447967	0.216148027867783	0.90330091447967	9.94574365169207E-18	1.21535137231242E-17
61.5	-7.10489660286373E-18	2.42023990586675E-17	0.287495847990703	0.865003310633873	0.287495847990703	0.865003310633873	2.14441761151017E-18	1.00932435725338E-17
61.6	1.16370784852841E-17	1.63076313799828E-17	0.433398152761108	0.851574537183978	0.433398152761107	0.851574537183977	-2.97305579833088E-18	8.1206943592533E-18
61.7	-1.31240678672883E-17	-9.31665448386755E-18	0.54962369845255	0.765888123301817	0.54962369845255	0.765888123301817	3.84764056848396E-18	1.26908825784904E-17
61.8	-2.19263926868268E-17	1.65549153231221E-17	0.625409215303303	0.675626077151124	0.625409215303303	0.675626077151124	-3.60830622148351E-18	-1.01633553760476E-18
61.9	6.11838707720798E-19	2.90863303254522E-18	0.718698139834044	0.5832465304915	0.718698139834044	0.5832465304915	-8.18874085022639E-18	-6.44031418259348E-18
62	-7.63672648789935E-18	-1.66096274427811E-17	0.789003083031735	0.5056379867762	0.789003083031735	0.5056379867762	-2.54557549596645E-18	-5.53654248092702E-18
62.1	-4.18624906826508E-18	-4.65019198320989E-18	0.867472864096315	0.38627334639872	0.867472864096315	0.38627334639872	-1.3676959705934E-17	-7.15601116813258E-18
