# GHz S RI R 50
50  0.02097  -0.01828  0.2958  -0.1008  0.1437  -0.2437  0.0162  -0.004587
50.1  -0.01782  -0.02218  0.131  -0.2979  0.07825  -0.2681  0.003053  -0.01886
50.2  -0.02684  0.01675  -0.07918  -0.3211  -0.03731  -0.2853  -0.01783  -0.00726
50.3  0.0104  0.03005  -0.2154  -0.245  -0.197  -0.2177  -0.0072  0.01793
50.4  0.02664  -0.004677  -0.3042  -0.1264  -0.2794  -0.07015  0.01607  0.008917
50.5  -0.005906  -0.02122  -0.3009  0.1392  -0.287  0.05046  0.006377  -0.009633
50.6  -0.02074  0.006431  -0.1024  0.3052  -0.2633  0.1077  -0.00119  0.001717
50.7  0.003101  0.02381  0.1247  0.3009  -0.2019  0.2115  0.01066  -0.001988
50.8  0.02396  0.004768  0.2591  0.1967  -0.05065  0.2767  -0.003917  -0.0126
50.9  0.01026  -0.01708  0.3197  0.0272  0.08409  0.2563  -0.01291  0.007742
51  -0.01297  -0.01067  0.2594  -0.2057  0.1595  0.2209  0.007651  0.01481
51.1  -0.01145  0.0151  0.01126  -0.3361  0.2153  0.1951  0.0136  -0.0003133
51.2  0.01564  0.01866  -0.2171  -0.2682  0.2859  0.09524  0.00668  -0.007491
51.3  0.02626  -0.008695  -0.3584  -0.1378  0.2873  -0.07642  -0.005349  -0.01131
51.4  0.001736  -0.02721  -0.3805  0.03529  0.2061  -0.2259  -0.01686  0.01015
51.5  -0.01986  -0.004179  -0.2493  0.2648  0.1063  -0.272  0.01603  0.02401
51.6  0.0002137  0.01827  0.03018  0.3422  0.02919  -0.2878  0.02818  -0.02091
51.7  0.0231  -0.0007294  0.2278  0.2121  -0.04059  -0.2777  -0.01996  -0.03192
51.8  0.008126  -0.02426  0.3045  0.07364  -0.1814  -0.2246  -0.03747  0.02285
51.9  -0.01539  -0.01394  0.3024  -0.09433  -0.2683  -0.09347  0.02111  0.03803
52  -0.01059  0.007258  0.1691  -0.2654  -0.2864  0.02148  0.03387  -0.01702
52.1  0.009012  0.006637  -0.01199  -0.3503  -0.26  0.1332  -0.00298  -0.04049
52.2  0.01446  -0.009715  -0.2323  -0.2775  -0.193  0.1827  -0.03815  -0.02329
52.3  0.0002526  -0.02611  -0.3336  -0.09426  -0.08247  0.2613  -0.04295  0.02719
52.4  -0.02674  -0.01832  -0.312  0.1023  0.08498  0.2833  0.02189  0.04559
52.5  -0.02347  0.01305  -0.1971  0.2741  0.1893  0.2136  0.04576  -0.02643
52.6  0.009966  0.01845  0.02025  0.3546  0.2465  0.1371  -0.03243  -0.05147
52.7  0.01936  -0.01465  0.203  0.2878  0.2376  0.06733  -0.05828  0.01504
52.8  -0.01157  -0.03  0.2624  0.1687  0.242  0.04871  -0.01991  0.0425
52.9  -0.02974  -0.01237  0.3217  0.09057  0.2502  -0.05266  0.03548  0.01696
53  -0.02296  0.01418  0.3295  -0.08322  0.2231  -0.1643  0.01295  -0.03369
53.1  0.008319  0.01615  0.1977  -0.2909  0.161  -0.2747  -0.03054  -0.03035
53.2  0.01398  -0.01703  -0.09701  -0.3605  -0.02701  -0.3335  -0.04907  0.02349
53.3  -0.02237  -0.02013  -0.2833  -0.1551  -0.2321  -0.2252  0.01378  0.05048
53.4  -0.02675  0.01853  -0.3044  0.01687  -0.3023  -0.01592  0.04403  -0.004128
53.5  0.000585  0.02827  -0.2314  0.1763  -0.2945  0.0434  0.001564  -0.04404
53.6  0.02084  0.006202  -0.07251  0.276  -0.2741  0.1087  -0.04473  -0.01244
53.7  0.0073  -0.02117  0.07678  0.2853  -0.2162  0.1999  -0.02507  0.03257
53.8  -0.02837  -0.01838  0.2479  0.2778  -0.1119  0.3135  0.01445  0.02851
53.9  -0.02576  0.01658  0.3436  0.07534  0.01965  0.2915  0.01955  -0.001528
54  0.003438  0.02678  0.2711  -0.1693  0.08209  0.2881  0.002275  -0.02071
54.1  0.02255  0.002481  0.109  -0.3246  0.1365  0.2482  -0.02583  -0.01146
54.2  0.000688  -0.02106  -0.04063  -0.3014  0.2366  0.1489  -0.02129  0.02328
54.3  -0.02737  -0.001285  -0.1731  -0.244  0.3014  0.02354  0.01959  0.025
54.4  -0.005549  0.02738  -0.2989  -0.07688  0.2986  -0.03622  0.02734  -0.01846
54.5  0.02293  0.005618  -0.2623  0.1869  0.2953  -0.08593  -0.01926  -0.03228
54.6  0.005184  -0.02266  -0.07509  0.3226  0.2656  -0.2071  -0.03401  0.01325
54.7  -0.0213  -0.007096  0.1004  0.3086  0.08581  -0.3332  0.004061  0.02769
54.8  -0.008008  0.01534  0.2022  0.2218  -0.08693  -0.3178  0.01781  0.008832
54.9  0.009829  0.006579  0.3086  0.07742  -0.1126  -0.2885  0.01728  -0.005898
55  0.008633  -0.008937  0.3329  -0.2257  -0.1356  -0.2888  0.003149  -0.01816
55.1  -0.003706  -0.01529  0.04884  -0.3598  -0.2312  -0.2239  -0.01201  -0.006496
55.2  -0.01559  -0.004651  -0.05408  -0.3263  -0.3047  0.002476  -0.01372  0.01042
55.3  -0.00884  0.009586  -0.2053  -0.2916  -0.2778  0.1314  0.008789  0.02529
55.4  0.006339  0.004081  -0.3917  -0.02263  -0.2668  0.1561  0.03106  -0.007623
55.5  0.002153  -0.01148  -0.259  0.2475  -0.2351  0.1848  -0.006183  -0.02494
55.6  -0.01293  -0.01132  -0.09518  0.355  -0.1206  0.2633  -0.0213  0.008747
55.7  -0.01909  0.001648  0.01996  0.3977  0.07222  0.2715  0.004908  0.02401
55.8  -0.0108  0.01345  0.1906  0.3264  0.2049  0.2392  0.02402  0.01082
55.9  0.005692  0.01106  0.3529  0.05574  0.2234  0.2319  0.0251  -0.01221
56  0.01031  -0.007559  0.2841  -0.1933  0.2589  0.1792  -0.002226  -0.02944
56.1  -0.008637  -0.01836  0.2292  -0.2625  0.3174  -0.02113  -0.03691  -0.005015
56.2  -0.02382  -0.0019  0.1381  -0.3188  0.2245  -0.188  -0.01981  0.04148
56.3  -0.01466  0.01554  -0.07806  -0.331  0.1579  -0.2446  0.03444  0.03621
56.4  0.003971  0.01469  -0.3323  -0.1619  0.1241  -0.2989  0.04383  -0.02222
56.5  0.007755  5.078e-06  -0.3291  -0.03912  0.009968  -0.3039  -0.007727  -0.03186
56.6  -0.002629  -0.0112  -0.3211  0.06868  -0.1802  -0.2504  -0.02857  0.006959
56.7  -0.0181  -0.00543  -0.2695  0.2151  -0.2959  -0.1307  -0.004813  0.03559
56.8  -0.02033  0.01235  -0.08584  0.3406  -0.2823  -0.108  0.01839  0.03033
56.9  -0.0001495  0.02292  0.1462  0.2736  -0.3073  -0.02149  0.03089  0.0004156
57  0.01616  0.006327  0.3209  0.1721  -0.2802  0.1382  8.038e-05  -0.03433
57.1  0.004149  -0.01659  0.3756  0.08449  -0.1249  0.2998  -0.04742  0.001501
57.2  -0.02144  -0.009629  0.356  -0.09089  0.0311  0.314  -0.01362  0.06269
57.3  -0.0233  0.01936  0.1626  -0.2984  0.04434  0.3032  0.04397  0.04053
57.4  0.002253  0.02843  -0.1057  -0.3194  0.07774  0.2945  0.04394  -0.02163
57.5  0.01839  0.01139  -0.2515  -0.264  0.2313  0.217  -0.01454  -0.03831
57.6  0.01329  -0.01052  -0.3269  -0.1943  0.2941  0.04598  -0.03757  0.008762
57.7  -0.01078  -0.01494  -0.3612  0.02801  0.2794  -0.007369  -0.01355  0.03519
57.8  -0.02366  0.009241  -0.1884  0.2765  0.3055  -0.04001  0.01781  0.03457
57.9  -0.004467  0.02741  0.0843  0.3343  0.2894  -0.06284  0.03755  0.00548
58  0.01771  0.01521  0.2147  0.2981  0.2143  -0.1906  0.01463  -0.03076
58.1  0.01403  -0.008595  0.2656  0.2065  0.07607  -0.2866  -0.02851  -0.01344
58.2  -0.009281  -0.01063  0.3537  -0.1012  0.0408  -0.2988  -0.01783  0.03722
58.3  -0.01628  0.009452  0.1516  -0.338  0.04251  -0.2778  0.0304  0.02846
58.4  0.0002794  0.02393  -0.06653  -0.3756  -0.04112  -0.2903  0.03065  -0.01911
58.5  0.02453  0.01312  -0.1345  -0.3089  -0.2141  -0.2278  -0.007722  -0.02333
58.6  0.01961  -0.01318  -0.2822  -0.2069  -0.2598  -0.1252  -0.02219  0.0004191
58.7  -0.007979  -0.01807  -0.3362  0.09171  -0.2748  -0.1261  -0.01321  0.01669
58.8  -0.02004  0.006993  -0.1453  0.3037  -0.3111  -0.1103  0.005783  0.02236
58.9  0.005147  0.02405  -0.02761  0.3115  -0.3151  0.07655  0.02253  0.005292
59  0.02363  0.005606  0.07618  0.3135  -0.2318  0.2147  0.01053  -0.0245
59.1  0.01091  -0.01864  0.2248  0.2405  -0.1296  0.2853  -0.02369  -0.01685
59.2  -0.0123  -0.01181  0.3461  -0.03451  -0.118  0.2848  -0.01757  0.0204
59.3  -0.01088  0.00948  0.2266  -0.2843  -0.0633  0.2995  0.01727  0.0111
59.4  0.007076  0.01015  0.1354  -0.3281  0.09963  0.2813  0.008163  -0.01798
59.5  0.0126  -0.004289  0.07774  -0.3263  0.2147  0.1927  -0.01011  -0.01462
59.6  0.002783  -0.01885  -0.1239  -0.3447  0.2947  0.1511  -0.01516  0.000596
59.7  -0.02114  -0.01127  -0.3496  -0.06584  0.3657  0.04474  -0.003865  0.008029
59.8  -0.02087  0.01067  -0.3506  0.04702  0.3456  -0.09219  0.002845  0.007547
59.9  -0.002465  0.0189  -0.3335  0.1331  0.2251  -0.2306  0.01548  -0.001324
60  0.01483  0.004946  -0.2752  0.2261  0.0532  -0.3125  0.008053  -0.02571
60.1  0.006795  -0.01823  -0.07818  0.3407  -0.006899  -0.3144  -0.02345  -0.02191
60.2  -0.02051  -0.01894  0.1883  0.305  -0.04023  -0.3057  -0.02393  0.01429
60.3  -0.03075  0.008254  0.3093  0.1658  -0.1481  -0.2773  0.009153  0.01851
60.4  -0.009233  0.02568  0.3413  0.07787  -0.2899  -0.1425  0.01611  -0.005475
60.5  0.0128  0.01037  0.3466  -0.05944  -0.3032  0.004486  0.005071  -0.01159
60.6  0.004408  -0.01229  0.2292  -0.2632  -0.2994  0.06115  -0.001418  -0.0122
60.7  -0.01738  -0.01199  0.007265  -0.3569  -0.2943  0.1143  -0.01163  -0.005304
60.8  -0.02552  0.006243  -0.1566  -0.3203  -0.205  0.233  -0.004594  0.01378
60.9  -0.01702  0.02066  -0.2364  -0.2464  -0.06037  0.3063  0.02  0.0104
61  0.001373  0.02574  -0.3312  -0.07917  0.05529  0.3222  0.02207  -0.01745
61.1  0.01764  0.01011  -0.2982  0.1779  0.08244  0.3109  -0.003486  -0.02543
61.2  0.009834  -0.01357  -0.1395  0.327  0.1437  0.2805  -0.01884  -0.002051
61.3  -0.01855  -0.0139  0.0134  0.3389  0.2588  0.1757  -0.001561  0.01953
61.4  -0.02893  0.01652  0.1389  0.3128  0.3224  0.02426  0.024  0.01303
61.5  0.001273  0.03203  0.3241  0.1643  0.3145  -0.05651  0.02926  -0.01307
61.6  0.02028  0.01412  0.3421  -0.1329  0.3016  -0.08745  0.007063  -0.02694
61.7  0.01576  -0.007327  0.205  -0.294  0.269  -0.1684  -0.01204  -0.01455
61.8  -0.001775  -0.0131  0.05766  -0.359  0.1664  -0.278  -0.01292  0.009883
61.9  -0.01444  -0.001324  -0.1376  -0.3389  0.03654  -0.3175  0.01199  0.02334
62  -0.01007  0.01622  -0.3226  -0.1532  -0.003111  -0.327  0.03541  0.003688
62.1  0.01134  0.01981  -0.3335  0.126  -0.04002  -0.3204  0.02213  -0.02704
62.2  0.02434  -0.002235  -0.1912  0.2961  -0.1264  -0.291  -0.01018  -0.02145
62.3  0.006844  -0.02189  -0.05775  0.3884  -0.2416  -0.1904  -0.01625  0.01097
62.4  -0.02085  -0.01159  0.1387  0.2992  -0.3029  -0.1171  0.01088  0.02137
62.5  -0.01601  0.01691  0.2757  0.138  -0.3169  -0.05914  0.02687  0.003337
62.6  0.01131  0.02156  0.3169  -0.06507  -0.3116  0.005995  0.01989  -0.01516
62.7  0.02584  -0.001381  0.239  -0.2064  -0.2836  0.118  0.001756  -0.01974
62.8  0.01194  -0.02375  0.1426  -0.2802  -0.2033  0.2255  -0.0161  -0.006986
62.9  -0.0123  -0.02123  -0.01155  -0.3332  -0.1177  0.2697  -0.01301  0.02207
63  -0.0226  -0.0007653  -0.2227  -0.2851  -0.08076  0.2806  0.02209  0.0294
63.1  -0.007143  0.01907  -0.3585  -0.118  -0.02145  0.3101  0.03883  -0.008124
63.2  0.01759  0.008229  -0.3747  0.06278  0.1023  0.2809  0.001042  -0.0313
63.3  0.01462  -0.01754  -0.3431  0.2377  0.1955  0.2376  -0.02893  -0.003432
63.4  -0.01087  -0.02164  -0.1791  0.4323  0.2179  0.1492  -0.01505  0.0275
63.5  -0.02617  -0.001168  0.1101  0.4549  0.2906  0.1091  0.01497  0.03558
63.6  -0.01292  0.02181  0.3337  0.3137  0.2989  0.0126  0.03519  0.00559
63.7  0.01586  0.02021  0.426  0.1571  0.2791  -0.1118  0.01318  -0.02521
63.8  0.02457  -0.01031  0.443  -0.02974  0.2012  -0.1957  -0.02538  -0.01603
63.9  -0.005235  -0.03046  0.3231  -0.2188  0.1603  -0.2753  -0.03462  0.02382
64  -0.03281  -0.008837  0.1757  -0.3225  0.07937  -0.3101  0.003691  0.04519
64.1  -0.02654  0.02531  0.02647  -0.3779  -0.0401  -0.3231  0.03788  0.01434
64.2  0.006962  0.03414  -0.1326  -0.3578  -0.1777  -0.2658  0.01382  -0.02932
64.3  0.02989  0.007916  -0.2988  -0.232  -0.2434  -0.1879  -0.0282  -0.01397
64.4  0.0108  -0.02576  -0.3716  -0.01107  -0.2805  -0.1369  -0.02619  0.01953
64.5  -0.02741  -0.01284  -0.3051  0.1888  -0.3115  -0.05589  -0.001783  0.02801
64.6  -0.02497  0.02202  -0.1775  0.3063  -0.3113  0.062  0.01457  0.01665
64.7  0.00525  0.03426  -0.01138  0.3443  -0.2575  0.1739  0.01783  -0.003269
64.8  0.02598  0.01071  0.1875  0.2936  -0.1774  0.236  9.054e-05  -0.02178
64.9  0.01403  -0.01219  0.2864  0.1023  -0.1163  0.267  -0.02642  -0.00778
65  -0.008843  -0.0116  0.313  -0.01778  -0.04114  0.2715  -0.02509  0.01909
65.1  -0.01937  0.007712  0.301  -0.158  0.04825  0.3004  0.004312  0.03413
65.2  -0.007531  0.02676  0.1962  -0.2928  0.1514  0.2744  0.03048  0.005921
65.3  0.01572  0.02832  -0.01374  -0.3826  0.238  0.2212  0.01118  -0.02902
65.4  0.02913  0.009075  -0.2509  -0.3044  0.2923  0.1453  -0.02238  -0.02013
65.5  0.01858  -0.0145  -0.3785  -0.08933  0.3293  0.03434  -0.02392  0.005876
65.6  -0.006293  -0.01436  -0.3421  0.1021  0.3225  -0.05977  -0.008638  0.01589
65.7  -0.0171  0.009653  -0.2545  0.2473  0.2946  -0.1537  0.009184  0.01412
65.8  0.002071  0.02804  -0.1098  0.3337  0.2904  -0.2853  0.02866  -0.007992
65.9  0.02499  0.01452  0.04745  0.3292  0.1636  -0.3013  0.01101  -0.03206
66  0.02101  -0.007946  0.1827  0.2641  0.01862  -0.308  -0.02059  -0.02425
66.1  0.003011  -0.01349  0.2785  0.1232  -0.06954  -0.3025  -0.02056  0.004741
66.2  -0.006692  -0.001395  0.3023  -0.02429  -0.1482  -0.2871  0.001345  0.0129
66.3  -0.001204  0.009143  0.2812  -0.181  -0.2632  -0.2227  0.01688  0.0006987
66.4  0.004547  0.009815  0.1196  -0.3332  -0.2956  -0.149  0.01696  -0.01816
66.5  0.01228  0.01166  -0.07207  -0.3296  -0.2875  -0.08729  0.00489  -0.02451
66.6  0.02521  -0.002279  -0.2614  -0.2632  -0.3223  0.005099  -0.01097  -0.02395
66.7  0.009035  -0.02504  -0.3801  -0.0773  -0.312  0.1183  -0.02068  -0.008272
66.8  -0.0209  -0.01421  -0.3735  0.2047  -0.2708  0.2071  -0.006007  0.01279
66.9  -0.01765  0.01602  -0.1424  0.372  -0.1961  0.265  0.0247  -0.002349
67  0.004165  0.01977  0.06574  0.3659  -0.1236  0.2175  0.01571  -0.03201
67.1  0.01851  0.008754  0.1954  0.2988  -0.06564  0.29  -0.01871  -0.03555
67.2  0.01532  -0.0129  0.3077  0.1848  0.02092  0.3117  -0.02599  -0.00569
67.3  -0.003604  -0.01731  0.3644  0.03199  0.1125  0.2751  0.001017  0.01477
67.4  -0.01707  -0.001507  0.3021  -0.1886  0.1481  0.2416  0.02405  -0.00487
67.5  -0.006943  0.01665  0.1846  -0.2993  0.2652  0.2173  0.01421  -0.02871
67.6  0.01346  0.009751  0.01863  -0.3831  0.323  0.1087  -0.006291  -0.02695
67.7  0.01198  -0.01039  -0.1777  -0.3363  0.3073  0.03941  -0.01248  -0.01491
67.8  -0.006168  -0.01998  -0.287  -0.2175  0.3319  -0.06921  -0.01359  0.004978
67.9  -0.02768  -0.002104  -0.3445  -0.05998  0.2965  -0.1806  0.01108  0.01814
68  -0.01104  0.02653  -0.3314  0.1313  0.1866  -0.3054  0.03594  -0.007919
68.1  0.01722  0.01779  -0.2174  0.3027  0.0673  -0.3136  0.01032  -0.03803
68.2  0.01917  -0.009192  -0.01882  0.3652  -0.0008042  -0.3245  -0.02352  -0.01993
68.3  -0.00262  -0.01988  0.1367  0.3253  -0.07407  -0.3082  -0.01607  0.01793
68.4  -0.02247  -0.005748  0.2506  0.2173  -0.1559  -0.2685  0.01818  0.02212
68.5  -0.0172  0.02229  0.3379  0.04615  -0.252  -0.1793  0.02924  -0.007542
68.6  0.01259  0.026  0.2963  -0.1564  -0.2905  -0.1031  0.009458  -0.02139
68.7  0.02748  -5.342e-06  0.1962  -0.2611  -0.3238  -0.02855  -0.004813  -0.01281
68.8  0.006725  -0.02671  0.02865  -0.3431  -0.3172  0.07361  -0.009707  0.002209
68.9  -0.02642  -0.01377  -0.1782  -0.3337  -0.2891  0.1596  -0.001382  0.02108
69  -0.02667  0.02597  -0.2826  -0.1855  -0.2113  0.2565  0.02092  0.02269
69.1  0.01456  0.04047  -0.362  -0.06382  -0.09402  0.3279  0.04297  0.001462
69.2  0.04079  0.009259  -0.3469  0.1546  -0.006901  0.3201  0.02004  -0.03225
69.3  0.02664  -0.02648  -0.2048  0.3136  0.06837  0.3157  -0.01676  -0.01753
69.4  -0.009338  -0.03142  -0.01151  0.3674  0.1661  0.2928  -0.01435  0.01738
69.5  -0.02806  -0.002368  0.1752  0.3177  0.24  0.2081  0.01369  0.02394
69.6  -0.01446  0.03338  0.2698  0.2279  0.3291  0.08044  0.02267  0.008885
69.7  0.02647  0.03309  0.354  0.06367  0.3331  -0.01655  0.02171  -0.002366
69.8  0.04117  -0.001058  0.3096  -0.1521  0.3042  -0.08637  0.01078  -0.01382
69.9  0.02076  -0.02814  0.2249  -0.2637  0.2643  -0.1917  -0.008604  -0.01067
70  -0.0102  -0.02319  0.08078  -0.351  0.182  -0.281  -0.01333  0.01525
70.1  -0.01938  0.003239  -0.1027  -0.3493  0.09278  -0.3232  0.01454  0.0241
70.2  -0.000503  0.02494  -0.2666  -0.2266  0.004336  -0.3445  0.02702  -0.001781
70.3  0.03024  0.01734  -0.3056  -0.07227  -0.1077  -0.3203  0.00791  -0.01562
70.4  0.03457  -0.01282  -0.347  0.003627  -0.2011  -0.2545  -0.007241  -0.01261
70.5  0.0135  -0.02972  -0.3735  0.1683  -0.2791  -0.1505  -0.01549  0.001771
70.6  -0.01078  -0.02016  -0.1708  0.3356  -0.3038  -0.07286  -0.007207  0.01277
70.7  -0.01535  0.002308  0.06347  0.3284  -0.3046  -0.0455  0.002379  0.0117
70.8  -0.002202  0.0167  0.2011  0.2752  -0.3469  0.03562  0.009802  0.007814
70.9  0.01531  0.0161  0.3997  0.1892  -0.3  0.1683  0.01501  -0.009464
71  0.02763  0.00401  0.4396  -0.07617  -0.2012  0.1815  -0.006609  -0.01836
71.1  0.02518  -0.01606  0.2924  -0.2742  -0.1854  0.2658  -0.02631  -0.003552
71.2  0.00552  -0.02636  0.1089  -0.345  -0.1333  0.2806  -0.01492  0.01388
71.3  -0.01727  -0.01348  -0.06388  -0.369  -0.06881  0.3301  0.00121  0.0096
71.4  -0.01585  0.01257  -0.1908  -0.368  0.07309  0.3253  -0.0003098  -0.007206
71.5  0.006211  0.02247  -0.3713  -0.232  0.1823  0.2879  -0.01699  -0.008081
71.6  0.02463  0.009529  -0.4902  0.1114  0.2123  0.2304  -0.02065  0.00573
71.7  0.02393  -0.01346  -0.2896  0.3236  0.2262  0.2065  -0.01342  0.007185
71.8  -0.001252  -0.02435  -0.09311  0.3805  0.3133  0.124  -0.007751  0.009137
71.9  -0.01905  -0.006527  0.05174  0.3642  0.3029  0.01101  0.001852  0.00249
72  -0.01523  0.02141  0.2145  0.3201  0.3076  -0.1165  -0.0001546  -0.01621
72.1  0.01465  0.02856  0.4024  0.1625  0.2617  -0.1833  -0.02835  -0.02311
72.2  0.03449  0.001987  0.4208  -0.1113  0.2191  -0.2426  -0.04397  0.009471
72.3  0.01453  -0.02902  0.2594  -0.2642  0.1419  -0.2948  -0.01492  0.02766
72.4  -0.02296  -0.0223  0.1769  -0.3583  -0.01276  -0.3626  0.01395  0.01477
72.5  -0.02726  0.01402  -0.08515  -0.4406  -0.1227  -0.3142  0.01001  -0.02281
72.6  -0.004267  0.03164  -0.3281  -0.2547  -0.1344  -0.2934  -0.0215  -0.02547
72.7  0.02213  0.02315  -0.3661  -0.06409  -0.2207  -0.2589  -0.0326  -0.004692
72.8  0.02501  -0.004826  -0.33  0.04135  -0.2911  -0.09295  -0.02197  0.01404
72.9  0.004355  -0.02072  -0.2844  0.1816  -0.3105  -0.01973  -0.001688  0.02089
73  -0.01823  -0.005645  -0.1261  0.3419  -0.2702  0.05731  0.0251  0.001402
73.1  -0.01717  0.02101  0.05573  0.3849  -0.2922  0.1046  0.02148  -0.03873
73.2  0.01246  0.03247  0.2287  0.3419  -0.2424  0.2324  -0.02954  -0.05381
73.3  0.03359  0.005752  0.3572  0.1894  -0.1135  0.3228  -0.06163  -0.0001253
73.4  0.0184  -0.02179  0.3683  0.02645  -0.03814  0.3472  -0.02554  0.03842
73.5  -0.01487  -0.01881  0.281  -0.2158  0.03038  0.3218  0.02637  0.02331
73.6  -0.02328  0.01018  0.1298  -0.3248  0.09523  0.3008  0.03729  -0.01826
73.7  -0.003053  0.03293  0.02634  -0.4009  0.2177  0.2682  0.02105  -0.05315
73.8  0.02662  0.02602  -0.1624  -0.4132  0.291  0.1545  -0.02479  -0.05602
73.9  0.03381  -0.001841  -0.3896  -0.2241  0.3199  0.1  -0.05558  -0.01337
74  0.0155  -0.02158  -0.3916  0.0966  0.3314  0.06294  -0.02108  0.03255
74.1  -0.009898  -0.01755  -0.2694  0.2712  0.315  -0.02078  0.02836  0.01731
74.2  -0.01834  0.007057  -0.1708  0.3065  0.2877  -0.1362  0.03857  -0.02356
74.3  -0.002285  0.02803  -0.05325  0.3626  0.2704  -0.2231  0.01254  -0.05455
74.4  0.02781  0.01907  0.1094  0.3683  0.1802  -0.2901  -0.02368  -0.04374
74.5  0.0274  -0.007167  0.2749  0.2082  0.158  -0.2416  -0.02602  -0.008649
74.6  0.006088  -0.02137  0.3014  0.06599  0.09189  -0.2929  -0.00795  0.009057
74.7  -0.01426  -0.006628  0.3345  -0.04518  -0.04752  -0.3371  0.0146  0.01136
74.8  -0.006966  0.01605  0.2652  -0.2021  -0.1498  -0.3243  0.03555  -0.005351
74.9  0.01373  0.01824  0.1255  -0.3698  -0.2108  -0.2553  0.03242  -0.04474
75  0.02385  0.003078  -0.08265  -0.3829  -0.2566  -0.2222  -0.006384  -0.06184