# GHz S RI R 50
50  0.02101  -0.01839  0.296  -0.1005  0.1434  -0.2443  0.01634  -0.004389
50.1  -0.01786  -0.02215  0.1312  -0.2979  0.07785  -0.2686  0.003098  -0.01892
50.2  -0.0267  0.01681  -0.07897  -0.3212  -0.03785  -0.2856  -0.01789  -0.007105
50.3  0.01055  0.02989  -0.2152  -0.2453  -0.1976  -0.2176  -0.006908  0.01803
50.4  0.02654  -0.004884  -0.3041  -0.1269  -0.2798  -0.0696  0.01618  0.008657
50.5  -0.006078  -0.02119  -0.3011  0.1388  -0.2872  0.05114  0.006221  -0.009612
50.6  -0.02075  0.006496  -0.1028  0.3051  -0.2634  0.1083  -0.0009769  0.001776
50.7  0.003089  0.02381  0.1245  0.3011  -0.2017  0.2121  0.01065  -0.002367
50.8  0.02391  0.004777  0.2591  0.1969  -0.05011  0.277  -0.004262  -0.01251
50.9  0.01024  -0.017  0.3197  0.02751  0.08466  0.2565  -0.01273  0.007898
51  -0.01293  -0.01061  0.2596  -0.2056  0.1601  0.2208  0.007546  0.01453
51.1  -0.01138  0.01514  0.01137  -0.3362  0.2159  0.1949  0.01327  9.858e-06
51.2  0.01575  0.01864  -0.217  -0.2683  0.2864  0.09491  0.007116  -0.007289
51.3  0.02631  -0.008832  -0.3584  -0.1379  0.2875  -0.07699  -0.00549  -0.01167
51.4  0.001651  -0.02731  -0.3806  0.03507  0.2058  -0.2266  -0.01706  0.01066
51.5  -0.01993  -0.004164  -0.2495  0.2648  0.1058  -0.2725  0.01673  0.0241
51.6  0.0002205  0.01822  0.02996  0.3423  0.02871  -0.2882  0.02817  -0.02154
51.7  0.02299  -0.0008134  0.2277  0.2123  -0.04111  -0.2779  -0.0204  -0.0318
51.8  0.007952  -0.02419  0.3046  0.07377  -0.1819  -0.2245  -0.03707  0.02313
51.9  -0.01543  -0.01379  0.3026  -0.09436  -0.2688  -0.09317  0.02116  0.03743
52  -0.01058  0.007352  0.1692  -0.2655  -0.2867  0.02211  0.03332  -0.01678
52.1  0.009021  0.006732  -0.01181  -0.3505  -0.2601  0.1339  -0.00249  -0.04022
52.2  0.01454  -0.009609  -0.2322  -0.2776  -0.1929  0.1833  -0.0384  -0.02387
52.3  0.0003704  -0.02612  -0.3336  -0.09436  -0.082  0.2618  -0.04341  0.02778
52.4  -0.02673  -0.01833  -0.3122  0.1022  0.0857  0.2835  0.02252  0.04577
52.5  -0.02339  0.01312  -0.1974  0.2741  0.19  0.2134  0.04567  -0.02701
52.6  0.01014  0.01837  0.01996  0.3548  0.2471  0.1366  -0.03294  -0.05114
52.7  0.01939  -0.01484  0.2029  0.2879  0.238  0.06698  -0.05791  0.01552
52.8  -0.01167  -0.03006  0.2624  0.1688  0.2424  0.04845  -0.01942  0.04234
52.9  -0.02979  -0.01234  0.3217  0.09084  0.2504  -0.05327  0.03518  0.01664
53  -0.02292  0.01419  0.3297  -0.08298  0.223  -0.165  0.01312  -0.03331
53.1  0.008345  0.01608  0.198  -0.2908  0.1606  -0.2755  -0.03031  -0.03099
53.2  0.01393  -0.01706  -0.09706  -0.3606  -0.02775  -0.3337  -0.04979  0.02382
53.3  -0.02238  -0.02009  -0.2832  -0.1552  -0.2328  -0.225  0.01429  0.05077
53.4  -0.0267  0.01857  -0.3045  0.01668  -0.3028  -0.01528  0.04403  -0.004617
53.5  0.0006849  0.02824  -0.2316  0.176  -0.2948  0.04428  0.001003  -0.04396
53.6  0.02091  0.006067  -0.07295  0.2759  -0.2741  0.1097  -0.04463  -0.01188
53.7  0.007239  -0.02133  0.07643  0.2854  -0.2158  0.2007  -0.02465  0.03239
53.8  -0.02849  -0.01843  0.2477  0.2782  -0.1112  0.3141  0.01406  0.02834
53.9  -0.0258  0.01657  0.3436  0.07582  0.02053  0.2918  0.01977  -0.00106
54  0.003419  0.02672  0.2714  -0.1689  0.08312  0.2883  0.002594  -0.02111
54.1  0.02245  0.002339  0.1094  -0.3245  0.1375  0.2481  -0.02626  -0.01163
54.2  0.0004243  -0.02109  -0.04031  -0.3015  0.2374  0.1484  -0.02121  0.02372
54.3  -0.02754  -0.001016  -0.1728  -0.2442  0.3018  0.02269  0.02001  0.02471
54.4  -0.005437  0.02752  -0.2988  -0.07728  0.2989  -0.03717  0.02702  -0.01884
54.5  0.02289  0.005562  -0.2626  0.1866  0.2954  -0.08701  -0.01952  -0.03199
54.6  0.005028  -0.02251  -0.07546  0.3226  0.2653  -0.2082  -0.0338  0.01328
54.7  -0.0212  -0.006831  0.1002  0.3088  0.08511  -0.3338  0.003882  0.02755
54.8  -0.007783  0.01538  0.2019  0.222  -0.0878  -0.318  0.01767  0.008982
54.9  0.009924  0.006522  0.3085  0.07777  -0.1136  -0.2886  0.01727  -0.005768
55  0.00869  -0.008951  0.3331  -0.2255  -0.1366  -0.2888  0.003285  -0.01801
55.1  -0.003634  -0.01532  0.049  -0.3599  -0.232  -0.2236  -0.01202  -0.00666
55.2  -0.01555  -0.004683  -0.05395  -0.3264  -0.3051  0.003265  -0.01379  0.0107
55.3  -0.008781  0.009526  -0.2051  -0.2918  -0.2778  0.1323  0.009322  0.0253
55.4  0.006324  0.003964  -0.3917  -0.02303  -0.2666  0.157  0.03092  -0.008203
55.5  0.00208  -0.01149  -0.2592  0.2473  -0.2349  0.1856  -0.006504  -0.02468
55.6  -0.01292  -0.01131  -0.09535  0.355  -0.1202  0.2638  -0.02093  0.008761
55.7  -0.01911  0.001632  0.01969  0.3977  0.07283  0.2716  0.004725  0.0236
55.8  -0.0108  0.01348  0.1902  0.3267  0.2058  0.2389  0.02372  0.0111
55.9  0.005754  0.01106  0.3528  0.0563  0.2243  0.2315  0.02547  -0.01218
56  0.01034  -0.007625  0.2844  -0.1931  0.2595  0.1789  -0.002416  -0.02985
56.1  -0.008641  -0.0184  0.2295  -0.2624  0.3176  -0.02175  -0.03737  -0.004723
56.2  -0.02379  -0.001939  0.1384  -0.3188  0.2243  -0.1887  -0.01953  0.04193
56.3  -0.01464  0.01545  -0.07774  -0.3312  0.1574  -0.2453  0.03479  0.03593
56.4  0.00391  0.0146  -0.3322  -0.1624  0.1234  -0.2996  0.04343  -0.0224
56.5  0.007693  -5.618e-05  -0.3291  -0.03951  0.009301  -0.3043  -0.007748  -0.03139
56.6  -0.002717  -0.01127  -0.3212  0.06848  -0.181  -0.2503  -0.02809  0.00691
56.7  -0.01825  -0.005451  -0.2698  0.2149  -0.2966  -0.1301  -0.004967  0.03528
56.8  -0.02047  0.01242  -0.08645  0.3405  -0.2829  -0.1073  0.01837  0.03058
56.9  -0.0001969  0.02303  0.1459  0.2738  -0.3077  -0.02058  0.03125  0.0002217
57  0.01614  0.006381  0.3208  0.1724  -0.28  0.139  -0.0003049  -0.03476
57.1  0.004087  -0.01653  0.3756  0.0848  -0.1241  0.3004  -0.04784  0.001936
57.2  -0.02147  -0.00948  0.356  -0.09044  0.03218  0.3143  -0.01318  0.06297
57.3  -0.02318  0.0195  0.1629  -0.2982  0.04538  0.3033  0.04414  0.04015
57.4  0.002374  0.02844  -0.1054  -0.3195  0.07879  0.2945  0.04352  -0.02171
57.5  0.0185  0.01141  -0.2513  -0.2643  0.2322  0.2165  -0.0145  -0.03783
57.6  0.01335  -0.01061  -0.3267  -0.1946  0.2945  0.04514  -0.03722  0.008664
57.7  -0.01079  -0.01496  -0.3612  0.02755  0.2797  -0.008274  -0.01376  0.03509
57.8  -0.02362  0.009229  -0.1887  0.2763  0.3057  -0.04092  0.01794  0.03495
57.9  -0.004419  0.02735  0.08395  0.3344  0.2895  -0.0637  0.038  0.005261
58  0.0177  0.01511  0.2144  0.2983  0.214  -0.1912  0.01434  -0.03111
58.1  0.01394  -0.00867  0.2655  0.2067  0.07534  -0.2872  -0.02872  -0.01307
58.2  -0.009382  -0.01061  0.3538  -0.101  0.04011  -0.2992  -0.01731  0.03733
58.3  -0.01633  0.00951  0.1518  -0.3377  0.04184  -0.2782  0.03049  0.0279
58.4  0.0002934  0.02399  -0.06602  -0.3755  -0.04206  -0.2906  0.03013  -0.01921
58.5  0.02457  0.01313  -0.1341  -0.3091  -0.2149  -0.2274  -0.00776  -0.02302
58.6  0.01959  -0.0132  -0.282  -0.2072  -0.2605  -0.1246  -0.02199  0.0002573
58.7  -0.008019  -0.01802  -0.3363  0.09149  -0.2754  -0.1255  -0.01361  0.01655
58.8  -0.01998  0.007094  -0.1457  0.3035  -0.3117  -0.1095  0.00574  0.02287
58.9  0.005278  0.02403  -0.02805  0.3116  -0.3152  0.07749  0.02292  0.005241
59  0.02367  0.005492  0.07569  0.3137  -0.2314  0.2156  0.01025  -0.02479
59.1  0.01084  -0.0187  0.2246  0.2408  -0.1288  0.286  -0.02393  -0.01637
59.2  -0.01234  -0.01178  0.3462  -0.03391  -0.1172  0.2854  -0.01701  0.02055
59.3  -0.01083  0.009485  0.2271  -0.284  -0.06249  0.3  0.01728  0.01064
59.4  0.007048  0.01006  0.1359  -0.3279  0.1005  0.2813  0.007838  -0.01789
59.5  0.01257  -0.004291  0.07832  -0.3261  0.2155  0.1923  -0.009994  -0.01437
59.6  0.002715  -0.01885  -0.1234  -0.3449  0.2956  0.1503  -0.0149  0.000378
59.7  -0.02118  -0.01121  -0.3495  -0.06655  0.3662  0.0436  -0.004195  0.007871
59.8  -0.02087  0.01076  -0.3507  0.04648  0.3456  -0.09346  0.002731  0.007834
59.9  -0.00241  0.01896  -0.3338  0.1326  0.2246  -0.2316  0.0158  -0.001415
60  0.01491  0.004945  -0.2757  0.2256  0.05229  -0.313  0.007776  -0.02613
60.1  0.006819  -0.01827  -0.07901  0.3406  -0.008017  -0.3147  -0.02392  -0.02157
60.2  -0.02051  -0.01892  0.1877  0.3055  -0.04134  -0.3059  -0.02356  0.01459
60.3  -0.03068  0.008289  0.3091  0.1665  -0.149  -0.2771  0.00916  0.01811
60.4  -0.009115  0.02562  0.3412  0.07846  -0.2907  -0.1417  0.01572  -0.005242
60.5  0.01282  0.01022  0.3468  -0.05876  -0.3035  0.005505  0.005342  -0.0113
60.6  0.004337  -0.01236  0.2298  -0.2627  -0.2994  0.06227  -0.001257  -0.01244
60.7  -0.0174  -0.01201  0.008005  -0.3569  -0.2942  0.1154  -0.01182  -0.005316
60.8  -0.02554  0.006169  -0.1561  -0.3206  -0.2045  0.2338  -0.004456  0.01396
60.9  -0.01712  0.02061  -0.236  -0.2467  -0.05951  0.3068  0.02025  0.01022
61  0.00128  0.02578  -0.3311  -0.07984  0.05638  0.3224  0.02194  -0.01773
61.1  0.01762  0.01014  -0.2986  0.1773  0.08364  0.3109  -0.00371  -0.02542
61.2  0.009769  -0.01358  -0.1402  0.3267  0.1447  0.2803  -0.01884  -0.001958
61.3  -0.01865  -0.01383  0.0128  0.339  0.2597  0.1751  -0.001515  0.01945
61.4  -0.02892  0.0167  0.1383  0.3131  0.3228  0.02325  0.0239  0.01294
61.5  0.001319  0.03202  0.3238  0.165  0.3146  -0.0577  0.02915  -0.01301
61.6  0.02029  0.01415  0.3424  -0.1321  0.3016  -0.08859  0.007097  -0.02689
61.7  0.01581  -0.007286  0.2056  -0.2936  0.2687  -0.1695  -0.01208  -0.01461
61.8  -0.001713  -0.01311  0.05852  -0.3589  0.1656  -0.2789  -0.01304  0.01001
61.9  -0.01442  -0.001361  -0.1367  -0.3393  0.03546  -0.318  0.01218  0.02352
62  -0.01007  0.01621  -0.3221  -0.1541  -0.004256  -0.3274  0.03564  0.003493
62.1  0.01137  0.0198  -0.3338  0.1251  -0.04116  -0.3206  0.02197  -0.02722
62.2  0.02435  -0.002299  -0.192  0.2957  -0.1275  -0.2909  -0.01024  -0.0213
62.3  0.00679  -0.02194  -0.05881  0.3883  -0.2424  -0.1898  -0.01601  0.01098
62.4  -0.02092  -0.01156  0.1378  0.2997  -0.3036  -0.1162  0.01095  0.02111
62.5  -0.01603  0.01697  0.2753  0.1388  -0.3175  -0.05821  0.02669  0.003283
62.6  0.01133  0.0216  0.3172  -0.06421  -0.3119  0.006984  0.01998  -0.01509
62.7  0.02586  -0.001358  0.2396  -0.2058  -0.2836  0.1189  0.001769  -0.02
62.8  0.01196  -0.02372  0.1433  -0.2799  -0.2028  0.2264  -0.01643  -0.006993
62.9  -0.01227  -0.02122  -0.01063  -0.3333  -0.1169  0.2704  -0.01299  0.02243
63  -0.02257  -0.000725  -0.222  -0.2857  -0.07993  0.2812  0.02243  0.02933
63.1  -0.007053  0.0191  -0.3583  -0.1189  -0.02055  0.3105  0.03865  -0.008435
63.2  0.01768  0.008165  -0.375  0.06176  0.1033  0.2809  0.0007793  -0.03097
63.3  0.01464  -0.01763  -0.3438  0.2368  0.1964  0.2372  -0.02852  -0.003198
63.4  -0.01089  -0.02169  -0.1804  0.4319  0.2186  0.1486  -0.01497  0.02722
63.5  -0.02619  -0.001207  0.1089  0.4553  0.2912  0.1082  0.01486  0.03571
63.6  -0.01293  0.0218  0.333  0.3147  0.2991  0.01176  0.03545  0.005674
63.7  0.01589  0.02017  0.4257  0.1583  0.279  -0.1127  0.01337  -0.02551
63.8  0.02453  -0.01041  0.4432  -0.02847  0.2008  -0.1965  -0.0257  -0.01623
63.9  -0.005352  -0.03047  0.3238  -0.2179  0.1595  -0.276  -0.0347  0.02424
64  -0.03287  -0.008803  0.1766  -0.3221  0.07853  -0.3106  0.004153  0.04519
64.1  -0.02659  0.02534  0.02749  -0.3779  -0.04107  -0.3233  0.03786  0.01381
64.2  0.006939  0.03419  -0.1316  -0.3583  -0.1786  -0.2655  0.01333  -0.02922
64.3  0.02991  0.007921  -0.2981  -0.233  -0.2442  -0.1873  -0.02807  -0.01362
64.4  0.01072  -0.02577  -0.3716  -0.01232  -0.2812  -0.1362  -0.02598  0.01939
64.5  -0.02739  -0.01272  -0.3058  0.1879  -0.3119  -0.05509  -0.002  0.02792
64.6  -0.02495  0.02202  -0.1785  0.3058  -0.3114  0.06287  0.01451  0.01694
64.7  0.005282  0.03426  -0.01243  0.3443  -0.2573  0.1748  0.0181  -0.003219
64.8  0.02597  0.01069  0.1866  0.2943  -0.1769  0.2368  4.329e-05  -0.02202
64.9  0.01402  -0.01218  0.2861  0.1032  -0.1156  0.2676  -0.02664  -0.007604
65  -0.008822  -0.01161  0.3131  -0.01679  -0.04041  0.2719  -0.0249  0.0194
65.1  -0.01938  0.007662  0.3016  -0.1571  0.04922  0.3005  0.004717  0.03397
65.2  -0.007604  0.02674  0.1973  -0.2923  0.1524  0.2742  0.03034  0.00556
65.3  0.01564  0.02836  -0.01247  -0.3827  0.2388  0.2206  0.01091  -0.02882
65.4  0.02909  0.009134  -0.2499  -0.3053  0.2929  0.1446  -0.0221  -0.02002
65.5  0.01856  -0.01446  -0.3782  -0.09076  0.3296  0.03353  -0.02396  0.005573
65.6  -0.006311  -0.01432  -0.3425  0.1009  0.3226  -0.06063  -0.008926  0.01596
65.7  -0.0171  0.009704  -0.2554  0.2464  0.2944  -0.1545  0.00926  0.01436
65.8  0.002067  0.02808  -0.111  0.3333  0.2897  -0.2863  0.02885  -0.008186
65.9  0.02499  0.01457  0.04637  0.3294  0.1631  -0.302  0.01079  -0.03228
66  0.02104  -0.00788  0.1818  0.2647  0.01796  -0.3083  -0.02083  -0.024
66.1  0.003074  -0.01345  0.2782  0.1242  -0.07035  -0.3027  -0.02036  0.004935
66.2  -0.006608  -0.001405  0.3024  -0.02304  -0.1492  -0.287  0.001438  0.01275
66.3  -0.001184  0.009053  0.2819  -0.1799  -0.264  -0.2221  0.01673  0.0006684
66.4  0.004468  0.009813  0.1209  -0.3329  -0.2962  -0.1484  0.01694  -0.01801
66.5  0.01231  0.01174  -0.07082  -0.33  -0.2881  -0.08665  0.005028  -0.02448
66.6  0.02531  -0.002334  -0.2605  -0.2642  -0.3226  0.005894  -0.01093  -0.02414
66.7  0.009  -0.02513  -0.38  -0.07874  -0.312  0.1192  -0.02092  -0.008269
66.8  -0.02097  -0.01421  -0.3744  0.2034  -0.2706  0.2081  -0.005882  0.01307
66.9  -0.01767  0.01604  -0.1437  0.3717  -0.1956  0.2658  0.025  -0.002624
67  0.004144  0.01978  0.06447  0.3661  -0.1232  0.2181  0.01545  -0.03235
67.1  0.01849  0.008775  0.1945  0.2995  -0.06497  0.2904  -0.01909  -0.03531
67.2  0.01531  -0.01288  0.3072  0.1859  0.02182  0.3119  -0.02584  -0.005374
67.3  -0.00361  -0.0173  0.3644  0.03333  0.1135  0.275  0.001261  0.0145
67.4  -0.01707  -0.001477  0.3028  -0.1874  0.1489  0.2415  0.02369  -0.005115
67.5  -0.006898  0.01669  0.1856  -0.2988  0.266  0.2168  0.01399  -0.02828
67.6  0.01351  0.00974  0.02003  -0.3831  0.3235  0.108  -0.005806  -0.02691
67.7  0.01201  -0.01043  -0.1765  -0.337  0.3076  0.03873  -0.01266  -0.01537
67.8  -0.006187  -0.02004  -0.2863  -0.2186  0.3319  -0.07006  -0.01399  0.005355
67.9  -0.02769  -0.002093  -0.3444  -0.06107  0.2962  -0.1816  0.0115  0.01842
68  -0.01103  0.02651  -0.3318  0.1303  0.1861  -0.3062  0.03615  -0.008368
68.1  0.01721  0.01776  -0.2184  0.3021  0.06669  -0.314  0.009935  -0.03818
68.2  0.01914  -0.009227  -0.01991  0.3652  -0.001503  -0.3247  -0.0236  -0.01961
68.3  -0.002662  -0.01991  0.1356  0.3257  -0.0748  -0.3083  -0.01572  0.01798
68.4  -0.02253  -0.005753  0.2499  0.2181  -0.1567  -0.2684  0.01827  0.02177
68.5  -0.01725  0.02234  0.3378  0.04714  -0.2526  -0.1789  0.02895  -0.007622
68.6  0.01259  0.02605  0.2967  -0.1556  -0.291  -0.1027  0.00945  -0.02116
68.7  0.0275  5.628e-06  0.1971  -0.2605  -0.3241  -0.02784  -0.00457  -0.0129
68.8  0.006703  -0.02672  0.02977  -0.343  -0.3174  0.0743  -0.00988  0.001932
68.9  -0.02646  -0.01373  -0.1771  -0.3343  -0.2891  0.1604  -0.001701  0.0213
69  -0.02665  0.02603  -0.282  -0.1865  -0.211  0.2571  0.0212  0.02292
69.1  0.0146  0.04049  -0.3619  -0.06505  -0.0934  0.3283  0.04312  0.00107
69.2  0.04081  0.009273  -0.3474  0.1534  -0.006332  0.3203  0.0196  -0.03227
69.3  0.02668  -0.02645  -0.2059  0.3129  0.06904  0.3158  -0.01671  -0.0171
69.4  -0.009297  -0.03145  -0.01277  0.3674  0.1667  0.2928  -0.01395  0.0173
69.5  -0.02807  -0.002398  0.1742  0.3184  0.2404  0.208  0.01354  0.02366
69.6  -0.01452  0.03334  0.2691  0.2289  0.3295  0.08012  0.02253  0.009066
69.7  0.0264  0.03311  0.3538  0.0649  0.3334  -0.01705  0.02197  -0.002246
69.8  0.04113  -0.001001  0.31  -0.1512  0.3044  -0.08685  0.01088  -0.01409
69.9  0.02078  -0.02807  0.2258  -0.263  0.2643  -0.1922  -0.008838  -0.01074
70  -0.01017  -0.02317  0.08195  -0.3508  0.1818  -0.2816  -0.01328  0.01548
70.1  -0.0194  0.003248  -0.1015  -0.3498  0.09253  -0.3236  0.01478  0.02396
70.2  -0.0005396  0.025  -0.2658  -0.2275  0.003972  -0.3449  0.02689  -0.002023
70.3  0.03025  0.01743  -0.3053  -0.07338  -0.1082  -0.3205  0.007729  -0.01555
70.4  0.03462  -0.01273  -0.347  0.00236  -0.2015  -0.2546  -0.007224  -0.01245
70.5  0.01361  -0.02967  -0.3743  0.167  -0.2794  -0.1504  -0.01535  0.001717
70.6  -0.01067  -0.02018  -0.1721  0.335  -0.304  -0.0728  -0.007314  0.01269
70.7  -0.01531  0.002238  0.06218  0.3286  -0.3049  -0.04544  0.002278  0.01181
70.8  -0.002237  0.01666  0.2  0.276  -0.3472  0.03601  0.009941  0.007994
70.9  0.01528  0.01613  0.3991  0.1909  -0.3001  0.1688  0.01522  -0.00965
71  0.02766  0.004061  0.44  -0.07432  -0.2011  0.1819  -0.006777  -0.01841
71.1  0.02525  -0.01606  0.2937  -0.273  -0.1853  0.2663  -0.02628  -0.003284
71.2  0.005538  -0.02641  0.1104  -0.3445  -0.1331  0.281  -0.01461  0.01386
71.3  -0.0173  -0.01352  -0.06236  -0.3693  -0.06844  0.3304  0.001245  0.009288
71.4  -0.01591  0.01256  -0.1892  -0.3689  0.07366  0.3255  -0.0005537  -0.007191
71.5  0.006163  0.0225  -0.3703  -0.2338  0.1829  0.2879  -0.0168  -0.007909
71.6  0.02461  0.00958  -0.4909  0.1092  0.213  0.2301  -0.02053  0.005389
71.7  0.02393  -0.01343  -0.291  0.3224  0.2269  0.2063  -0.0137  0.007074
71.8  -0.001259  -0.02433  -0.09481  0.3802  0.3138  0.1236  -0.007831  0.009359
71.9  -0.01907  -0.006513  0.05013  0.3644  0.3033  0.01055  0.002045  0.002513
72  -0.01523  0.02147  0.2131  0.3211  0.3076  -0.1173  -0.0001705  -0.01645
72.1  0.01469  0.02862  0.4018  0.1645  0.2615  -0.1841  -0.02867  -0.0231
72.2  0.03456  0.001985  0.4215  -0.1094  0.2187  -0.2433  -0.04398  0.009793
72.3  0.01456  -0.02903  0.2609  -0.2628  0.1413  -0.2954  -0.01472  0.0277
72.4  -0.02292  -0.02233  0.179  -0.3575  -0.01387  -0.3629  0.01395  0.0146
72.5  -0.02727  0.01397  -0.08274  -0.4414  -0.1239  -0.314  0.009835  -0.02267
72.6  -0.004301  0.0316  -0.3268  -0.2566  -0.1354  -0.2933  -0.02128  -0.02529
72.7  0.02208  0.02314  -0.3658  -0.06605  -0.2217  -0.2584  -0.03245  -0.004912
72.8  0.02499  -0.004823  -0.3303  0.03957  -0.2916  -0.09211  -0.02216  0.01399
72.9  0.004325  -0.02072  -0.2855  0.18  -0.3107  -0.01877  -0.001672  0.02111
73  -0.01827  -0.005642  -0.1281  0.3412  -0.2701  0.05825  0.02537  0.001318
73.1  -0.01723  0.02105  0.05354  0.3854  -0.292  0.1058  0.02144  -0.03906
73.2  0.01242  0.03253  0.227  0.3432  -0.2418  0.2334  -0.02987  -0.0538
73.3  0.03359  0.005816  0.3564  0.1914  -0.1125  0.3235  -0.06157  0.0001232
73.4  0.01843  -0.02173  0.3682  0.02856  -0.03699  0.3476  -0.02538  0.0383
73.5  -0.01483  -0.01878  0.2824  -0.2141  0.03164  0.3219  0.02618  0.02319
73.6  -0.02326  0.01019  0.1318  -0.324  0.09645  0.3007  0.03717  -0.01805
73.7  -0.003045  0.03295  0.02856  -0.4009  0.2188  0.2677  0.02126  -0.05307
73.8  0.02664  0.02606  -0.1601  -0.4143  0.2919  0.1536  -0.02487  -0.05625
73.9  0.03385  -0.001807  -0.3884  -0.2263  0.3205  0.09895  -0.05584  -0.01317
74  0.01556  -0.02158  -0.3922  0.09441  0.3319  0.06169  -0.02087  0.03282
74.1  -0.009868  -0.01759  -0.271  0.2698  0.3151  -0.02183  0.02858  0.01717
74.2  -0.01834  0.007006  -0.1725  0.3057  0.2875  -0.1372  0.03849  -0.02375
74.3  -0.002327  0.02801  -0.05527  0.3624  0.27  -0.2242  0.01238  -0.05445
74.4  0.02778  0.01907  0.1074  0.369  0.1793  -0.291  -0.02351  -0.04355
74.5  0.02736  -0.007176  0.2739  0.2098  0.1573  -0.2424  -0.02582  -0.008827
74.6  0.006054  -0.02135  0.3011  0.06766  0.09103  -0.2934  -0.008089  0.00886
74.7  -0.01428  -0.006599  0.3348  -0.04343  -0.04872  -0.3372  0.01446  0.01153
74.8  -0.006995  0.01607  0.2664  -0.2007  -0.1511  -0.324  0.03583  -0.005296
74.9  0.01369  0.01828  0.1276  -0.3692  -0.2118  -0.2548  0.03243  -0.0452
75  0.02384  0.003145  -0.08053  -0.3836  -0.2575  -0.2215  -0.006895  -0.06191