# GHz S RI R 50
50  0.02095  -0.0183  0.2958  -0.1007  0.1436  -0.2439  0.01634  -0.004496
50.1  -0.01785  -0.02216  0.1311  -0.2979  0.078  -0.2683  0.003061  -0.01901
50.2  -0.02683  0.01677  -0.079  -0.3211  -0.03758  -0.2854  -0.01798  -0.007194
50.3  0.01041  0.03005  -0.2153  -0.2451  -0.1972  -0.2176  -0.007068  0.01802
50.4  0.02663  -0.004687  -0.3042  -0.1265  -0.2795  -0.07003  0.0161  0.008756
50.5  -0.005932  -0.02121  -0.301  0.1392  -0.287  0.05084  0.006221  -0.009559
50.6  -0.02074  0.006457  -0.1025  0.3052  -0.2633  0.108  -0.001024  0.001817
50.7  0.003116  0.02382  0.1246  0.301  -0.2018  0.2117  0.01066  -0.002229
50.8  0.02397  0.004752  0.2592  0.1967  -0.05046  0.2768  -0.004138  -0.01245
50.9  0.01024  -0.01707  0.3197  0.02721  0.08422  0.2564  -0.01264  0.007863
51  -0.01298  -0.01064  0.2594  -0.2057  0.1597  0.2208  0.007602  0.0145
51.1  -0.01143  0.01513  0.01124  -0.3361  0.2156  0.1949  0.01332  -7.177e-05
51.2  0.01566  0.01866  -0.2171  -0.2682  0.2862  0.09498  0.007105  -0.007397
51.3  0.02627  -0.008717  -0.3585  -0.1378  0.2873  -0.07676  -0.005508  -0.01178
51.4  0.001719  -0.0272  -0.3805  0.03522  0.2059  -0.2263  -0.01719  0.01049
51.5  -0.01985  -0.004151  -0.2493  0.2648  0.106  -0.2722  0.01646  0.02412
51.6  0.0002494  0.01826  0.03014  0.3422  0.02891  -0.2879  0.02808  -0.02132
51.7  0.02312  -0.0007567  0.2278  0.2122  -0.04076  -0.2778  -0.02031  -0.0317
51.8  0.008121  -0.02427  0.3046  0.07362  -0.1816  -0.2245  -0.03707  0.0231
51.9  -0.01538  -0.01394  0.3024  -0.09437  -0.2684  -0.09336  0.02113  0.03751
52  -0.01058  0.007249  0.1691  -0.2654  -0.2864  0.02181  0.03344  -0.01671
52.1  0.009023  0.006615  -0.01193  -0.3504  -0.26  0.1335  -0.002366  -0.04025
52.2  0.01445  -0.009737  -0.2323  -0.2775  -0.1929  0.1829  -0.03826  -0.02394
52.3  0.0002273  -0.02613  -0.3336  -0.0942  -0.08229  0.2614  -0.04338  0.02757
52.4  -0.02677  -0.01831  -0.3121  0.1023  0.08523  0.2834  0.02235  0.04574
52.5  -0.02348  0.01306  -0.1972  0.2741  0.1895  0.2136  0.0457  -0.02688
52.6  0.009972  0.01843  0.0202  0.3546  0.2466  0.137  -0.0328  -0.05127
52.7  0.01934  -0.01468  0.2031  0.2877  0.2377  0.06729  -0.05803  0.0153
52.8  -0.01161  -0.02998  0.2624  0.1686  0.2421  0.04869  -0.01964  0.04227
52.9  -0.02977  -0.01235  0.3217  0.09053  0.2502  -0.05293  0.03506  0.01678
53  -0.02296  0.01419  0.3295  -0.08322  0.223  -0.1645  0.01312  -0.03322
53.1  0.008313  0.01614  0.1977  -0.291  0.1609  -0.275  -0.03028  -0.03086
53.2  0.01395  -0.01703  -0.09713  -0.3605  -0.02721  -0.3335  -0.04962  0.02378
53.3  -0.02239  -0.0201  -0.2832  -0.1551  -0.2323  -0.2251  0.01427  0.05071
53.4  -0.02674  0.01857  -0.3044  0.0168  -0.3024  -0.01574  0.04409  -0.004572
53.5  0.000601  0.02828  -0.2314  0.1761  -0.2946  0.04359  0.00117  -0.04403
53.6  0.02085  0.006203  -0.07263  0.2759  -0.2741  0.1089  -0.0446  -0.01209
53.7  0.007291  -0.02116  0.07669  0.2853  -0.216  0.2001  -0.02479  0.0323
53.8  -0.02836  -0.01834  0.2478  0.2779  -0.1117  0.3136  0.01397  0.02837
53.9  -0.02573  0.01661  0.3436  0.07546  0.01992  0.2915  0.01969  -0.001038
54  0.003482  0.02677  0.2711  -0.1693  0.08238  0.2881  0.002608  -0.02103
54.1  0.02257  0.002456  0.109  -0.3245  0.1368  0.2481  -0.02623  -0.01165
54.2  0.0006844  -0.02107  -0.04062  -0.3014  0.2368  0.1487  -0.02128  0.02368
54.3  -0.02735  -0.001269  -0.173  -0.244  0.3015  0.02331  0.0199  0.02483
54.4  -0.005504  0.02736  -0.2988  -0.077  0.2987  -0.03645  0.0271  -0.01867
54.5  0.02294  0.005573  -0.2624  0.1867  0.2953  -0.08622  -0.01936  -0.03199
54.6  0.005166  -0.02268  -0.07519  0.3226  0.2655  -0.2074  -0.03376  0.01324
54.7  -0.02131  -0.007101  0.1005  0.3086  0.08567  -0.3334  0.003966  0.02756
54.8  -0.007999  0.01531  0.2022  0.2218  -0.0871  -0.3179  0.01776  0.008911
54.9  0.009815  0.006546  0.3086  0.07733  -0.1128  -0.2886  0.01732  -0.005868
55  0.008611  -0.00896  0.3329  -0.2257  -0.1359  -0.2888  0.00325  -0.01818
55.1  -0.003738  -0.0153  0.04874  -0.3599  -0.2314  -0.2238  -0.01213  -0.006668
55.2  -0.01562  -0.004643  -0.05413  -0.3263  -0.3049  0.002642  -0.01386  0.01066
55.3  -0.008852  0.009594  -0.2054  -0.2915  -0.2779  0.1315  0.009132  0.02534
55.4  0.006315  0.004071  -0.3916  -0.02255  -0.2667  0.1563  0.03088  -0.007984
55.5  0.002117  -0.01147  -0.259  0.2475  -0.2351  0.185  -0.006398  -0.02461
55.6  -0.01295  -0.01129  -0.09505  0.355  -0.1205  0.2634  -0.02091  0.008766
55.7  -0.0191  0.001668  0.02001  0.3977  0.07237  0.2716  0.004755  0.02364
55.8  -0.01081  0.01347  0.1906  0.3264  0.2051  0.2392  0.02375  0.01112
55.9  0.005694  0.01108  0.3529  0.0557  0.2236  0.2318  0.02548  -0.01212
56  0.01031  -0.007548  0.2841  -0.1934  0.259  0.1793  -0.002287  -0.0298
56.1  -0.008635  -0.01835  0.2292  -0.2625  0.3175  -0.02126  -0.03725  -0.004838
56.2  -0.02381  -0.001883  0.1382  -0.3189  0.2245  -0.1881  -0.01957  0.04178
56.3  -0.01464  0.01556  -0.07807  -0.331  0.1578  -0.2448  0.03468  0.03592
56.4  0.003992  0.01469  -0.3323  -0.1619  0.124  -0.2991  0.04344  -0.02238
56.5  0.007773  5.216e-06  -0.3291  -0.03917  0.009915  -0.304  -0.007754  -0.03148
56.6  -0.002616  -0.01121  -0.3211  0.06874  -0.1804  -0.2504  -0.02822  0.00684
56.7  -0.01809  -0.005433  -0.2695  0.2151  -0.2961  -0.1307  -0.005117  0.03533
56.8  -0.02031  0.01235  -0.0858  0.3406  -0.2824  -0.1079  0.01826  0.03067
56.9  -0.000131  0.02291  0.1463  0.2736  -0.3074  -0.02132  0.03121  0.0003949
57  0.01616  0.006304  0.3209  0.172  -0.2802  0.1383  -0.0001119  -0.03464
57.1  0.004142  -0.01661  0.3756  0.08442  -0.1248  0.2999  -0.04767  0.001796
57.2  -0.02145  -0.009639  0.3559  -0.09086  0.0313  0.3141  -0.01325  0.06286
57.3  -0.02329  0.01936  0.1625  -0.2983  0.04454  0.3033  0.04408  0.0402
57.4  0.002256  0.02841  -0.1058  -0.3193  0.07796  0.2945  0.04361  -0.02166
57.5  0.01839  0.01138  -0.2515  -0.264  0.2316  0.2169  -0.01442  -0.03796
57.6  0.01327  -0.01055  -0.327  -0.1942  0.2943  0.04582  -0.03729  0.008527
57.7  -0.01081  -0.01493  -0.3612  0.02808  0.2795  -0.007527  -0.01385  0.03504
57.8  -0.02367  0.009254  -0.1884  0.2765  0.3056  -0.0402  0.01785  0.03493
57.9  -0.004466  0.02742  0.08431  0.3342  0.2895  -0.06304  0.03792  0.005313
58  0.0177  0.0152  0.2147  0.2981  0.2143  -0.1907  0.01436  -0.03107
58.1  0.01401  -0.008596  0.2656  0.2065  0.07594  -0.2868  -0.02873  -0.01315
58.2  -0.00929  -0.01061  0.3537  -0.1013  0.04065  -0.299  -0.01747  0.03733
58.3  -0.01627  0.009468  0.1515  -0.3379  0.04238  -0.2779  0.03041  0.02811
58.4  0.0002951  0.02393  -0.06652  -0.3755  -0.04131  -0.2904  0.03028  -0.01904
58.5  0.02455  0.01311  -0.1345  -0.3089  -0.2142  -0.2277  -0.007619  -0.02301
58.6  0.01961  -0.01319  -0.2822  -0.2069  -0.26  -0.1251  -0.02191  0.0002254
58.7  -0.007988  -0.01807  -0.3362  0.09175  -0.2749  -0.126  -0.01352  0.01649
58.8  -0.02004  0.007013  -0.1454  0.3037  -0.3113  -0.1102  0.005755  0.02277
58.9  0.005175  0.02405  -0.02763  0.3116  -0.3152  0.07677  0.02292  0.005192
59  0.02364  0.005585  0.07614  0.3135  -0.2318  0.2149  0.01028  -0.02485
59.1  0.01089  -0.01865  0.2248  0.2405  -0.1295  0.2854  -0.02394  -0.01651
59.2  -0.0123  -0.0118  0.3461  -0.03446  -0.1178  0.2849  -0.01719  0.02049
59.3  -0.01087  0.009485  0.2266  -0.2843  -0.06325  0.2997  0.01719  0.01076
59.4  0.007084  0.01013  0.1354  -0.3281  0.09976  0.2814  0.007879  -0.01783
59.5  0.0126  -0.004304  0.07774  -0.3263  0.2148  0.1928  -0.009988  -0.01438
59.6  0.002766  -0.01886  -0.124  -0.3447  0.295  0.151  -0.01494  0.0004111
59.7  -0.02114  -0.01126  -0.3496  -0.06593  0.3659  0.04457  -0.004163  0.007928
59.8  -0.02087  0.01068  -0.3506  0.04697  0.3456  -0.09249  0.00276  0.007864
59.9  -0.002462  0.01889  -0.3335  0.1332  0.225  -0.2309  0.01582  -0.001346
60  0.01483  0.004937  -0.2752  0.2261  0.053  -0.3127  0.00789  -0.02607
60.1  0.006784  -0.01823  -0.07826  0.3407  -0.007126  -0.3145  -0.02378  -0.02163
60.2  -0.02052  -0.01893  0.1883  0.305  -0.04047  -0.3058  -0.02354  0.01451
60.3  -0.03075  0.00827  0.3093  0.1658  -0.1482  -0.2774  0.009186  0.01809
60.4  -0.009221  0.02569  0.3413  0.07778  -0.2902  -0.1424  0.01577  -0.005325
60.5  0.0128  0.01036  0.3466  -0.05947  -0.3034  0.004656  0.005297  -0.01139
60.6  0.004397  -0.01229  0.2291  -0.2632  -0.2994  0.06137  -0.001321  -0.01246
60.7  -0.01737  -0.01198  0.007243  -0.3568  -0.2943  0.1146  -0.01188  -0.00533
60.8  -0.0255  0.006249  -0.1566  -0.3203  -0.2049  0.2331  -0.004562  0.01398
60.9  -0.01701  0.02066  -0.2364  -0.2463  -0.06023  0.3065  0.02018  0.01034
61  0.001382  0.02574  -0.3312  -0.07914  0.0555  0.3223  0.02199  -0.0176
61.1  0.01765  0.01011  -0.2982  0.1779  0.08272  0.3109  -0.003622  -0.02536
61.2  0.009835  -0.01358  -0.1395  0.327  0.1439  0.2805  -0.01877  -0.001942
61.3  -0.01855  -0.01389  0.01346  0.3389  0.259  0.1757  -0.001474  0.01945
61.4  -0.02892  0.01653  0.1389  0.3128  0.3225  0.02407  0.02394  0.01294
61.5  0.00128  0.03201  0.3241  0.1643  0.3145  -0.05676  0.0292  -0.013
61.6  0.02027  0.01412  0.3421  -0.1329  0.3016  -0.08766  0.007148  -0.02693
61.7  0.01577  -0.007331  0.205  -0.294  0.269  -0.1687  -0.01206  -0.01467
61.8  -0.001772  -0.01311  0.05769  -0.359  0.1663  -0.2782  -0.01306  0.009938
61.9  -0.01444  -0.001333  -0.1376  -0.3389  0.03629  -0.3176  0.01211  0.02349
62  -0.01007  0.01622  -0.3225  -0.1533  -0.003379  -0.3272  0.03556  0.003533
62.1  0.01135  0.0198  -0.3335  0.1259  -0.0403  -0.3205  0.02196  -0.02717
62.2  0.02434  -0.002259  -0.1912  0.2961  -0.1266  -0.2911  -0.01025  -0.02129
62.3  0.006827  -0.0219  -0.05775  0.3885  -0.2418  -0.1902  -0.01607  0.011
62.4  -0.02087  -0.01158  0.1386  0.2992  -0.3031  -0.1169  0.01089  0.02119
62.5  -0.01601  0.01692  0.2756  0.138  -0.3171  -0.05896  0.0267  0.003387
62.6  0.01132  0.02155  0.3169  -0.06502  -0.3117  0.00619  0.02003  -0.01502
62.7  0.02583  -0.001385  0.239  -0.2064  -0.2837  0.1182  0.001845  -0.01995
62.8  0.01193  -0.02374  0.1426  -0.2802  -0.2033  0.2257  -0.01633  -0.007015
62.9  -0.0123  -0.02123  -0.01146  -0.3332  -0.1176  0.2699  -0.01297  0.02233
63  -0.02261  -0.0007564  -0.2227  -0.2852  -0.08062  0.2808  0.02238  0.0293
63.1  -0.007139  0.01909  -0.3585  -0.118  -0.0213  0.3103  0.03867  -0.008406
63.2  0.0176  0.008227  -0.3748  0.06267  0.1025  0.281  0.0008327  -0.03106
63.3  0.01462  -0.01755  -0.3432  0.2376  0.1957  0.2376  -0.02861  -0.003297
63.4  -0.01089  -0.02164  -0.1792  0.4323  0.2181  0.1491  -0.01506  0.02718
63.5  -0.02617  -0.001147  0.11  0.4549  0.2908  0.1089  0.01471  0.03571
63.6  -0.0129  0.02183  0.3337  0.3137  0.299  0.01239  0.03537  0.005805
63.7  0.01588  0.02021  0.4261  0.1572  0.2791  -0.112  0.0134  -0.02542
63.8  0.02458  -0.01033  0.443  -0.02963  0.2012  -0.1959  -0.02566  -0.01622
63.9  -0.005244  -0.03045  0.3232  -0.2187  0.1601  -0.2755  -0.03474  0.02419
64  -0.0328  -0.008828  0.1758  -0.3224  0.07922  -0.3103  0.004079  0.04525
64.1  -0.02653  0.02531  0.02659  -0.3779  -0.04031  -0.3232  0.03786  0.01394
64.2  0.006965  0.03414  -0.1325  -0.3579  -0.1779  -0.2658  0.01346  -0.02919
64.3  0.02989  0.007904  -0.2987  -0.2321  -0.2436  -0.1878  -0.02801  -0.0137
64.4  0.01079  -0.02577  -0.3716  -0.01121  -0.2807  -0.1367  -0.02599  0.01935
64.5  -0.02741  -0.01282  -0.3052  0.1887  -0.3116  -0.05571  -0.001985  0.02789
64.6  -0.02497  0.02201  -0.1776  0.3062  -0.3113  0.06228  0.01452  0.01688
64.7  0.005251  0.03426  -0.01153  0.3443  -0.2575  0.1742  0.01807  -0.003266
64.8  0.02598  0.0107  0.1874  0.2937  -0.1772  0.2363  3.124e-05  -0.02204
64.9  0.01402  -0.01219  0.2863  0.1024  -0.116  0.2672  -0.02665  -0.007666
65  -0.008845  -0.0116  0.313  -0.01761  -0.04093  0.2716  -0.02498  0.01934
65.1  -0.01937  0.007707  0.3011  -0.1578  0.04855  0.3005  0.0046  0.034
65.2  -0.00754  0.02675  0.1964  -0.2927  0.1518  0.2744  0.03031  0.005653
65.3  0.01571  0.02832  -0.01355  -0.3826  0.2383  0.221  0.01095  -0.02877
65.4  0.02912  0.009076  -0.2507  -0.3045  0.2926  0.1451  -0.02208  -0.02001
65.5  0.01857  -0.01449  -0.3785  -0.08965  0.3295  0.03405  -0.02393  0.005603
65.6  -0.006296  -0.01436  -0.3421  0.1019  0.3226  -0.06014  -0.008875  0.01597
65.7  -0.0171  0.009659  -0.2547  0.2472  0.2946  -0.154  0.00929  0.01434
65.8  0.002068  0.02804  -0.11  0.3336  0.2902  -0.2856  0.0289  -0.008155
65.9  0.02498  0.01452  0.0473  0.3293  0.1634  -0.3016  0.01088  -0.03229
66  0.02101  -0.007936  0.1826  0.2642  0.01831  -0.3081  -0.0208  -0.02407
66.1  0.003008  -0.01348  0.2785  0.1234  -0.06987  -0.3026  -0.02038  0.004889
66.2  -0.006688  -0.001391  0.3023  -0.024  -0.1486  -0.2871  0.001434  0.01273
66.3  -0.001211  0.009138  0.2813  -0.1807  -0.2635  -0.2225  0.01672  0.0006301
66.4  0.004528  0.009828  0.1199  -0.3331  -0.2959  -0.1487  0.0169  -0.01803
66.5  0.01228  0.01169  -0.07174  -0.3297  -0.2877  -0.08702  0.004997  -0.02448
66.6  0.02524  -0.00228  -0.2611  -0.2634  -0.3224  0.005425  -0.01095  -0.02412
66.7  0.009029  -0.02505  -0.38  -0.07767  -0.312  0.1187  -0.02092  -0.008256
66.8  -0.02091  -0.0142  -0.3737  0.2044  -0.2707  0.2076  -0.005915  0.01308
66.9  -0.01764  0.01603  -0.1427  0.372  -0.1959  0.2654  0.02498  -0.002532
67  0.004172  0.01977  0.06552  0.3659  -0.1234  0.2178  0.01552  -0.03225
67.1  0.01851  0.008753  0.1952  0.299  -0.06531  0.2902  -0.01897  -0.03531
67.2  0.01531  -0.01291  0.3076  0.185  0.02136  0.3118  -0.02578  -0.005428
67.3  -0.003608  -0.01731  0.3644  0.03234  0.113  0.275  0.001252  0.01448
67.4  -0.01707  -0.0015  0.3022  -0.1884  0.1485  0.2415  0.02372  -0.00508
67.5  -0.006931  0.01666  0.1847  -0.2992  0.2656  0.217  0.01405  -0.02831
67.6  0.01347  0.009749  0.01899  -0.383  0.3232  0.1084  -0.005789  -0.02697
67.7  0.01198  -0.0104  -0.1774  -0.3364  0.3075  0.03891  -0.01266  -0.0154
67.8  -0.006187  -0.01999  -0.2868  -0.2178  0.3319  -0.0697  -0.014  0.005297
67.9  -0.02769  -0.002075  -0.3445  -0.06016  0.2963  -0.1812  0.01143  0.0184
68  -0.01102  0.02654  -0.3315  0.1311  0.1862  -0.3058  0.03609  -0.008308
68.1  0.01723  0.01778  -0.2176  0.3026  0.06692  -0.3138  0.009962  -0.03812
68.2  0.01917  -0.009206  -0.019  0.3652  -0.001275  -0.3246  -0.02359  -0.01961
68.3  -0.002635  -0.01988  0.1365  0.3253  -0.07451  -0.3082  -0.01577  0.01799
68.4  -0.02247  -0.005739  0.2504  0.2174  -0.1563  -0.2684  0.01823  0.02185
68.5  -0.01719  0.0223  0.3378  0.04633  -0.2522  -0.179  0.02898  -0.007556
68.6  0.0126  0.026  0.2963  -0.1563  -0.2907  -0.1029  0.009487  -0.02114
68.7  0.02748  -2.139e-05  0.1963  -0.261  -0.3239  -0.02816  -0.004552  -0.01288
68.8  0.0067  -0.02672  0.0288  -0.343  -0.3172  0.07396  -0.00984  0.001949
68.9  -0.02644  -0.01375  -0.1781  -0.3338  -0.289  0.16  -0.00165  0.0213
69  -0.02666  0.02599  -0.2824  -0.1857  -0.211  0.2568  0.02122  0.02288
69.1  0.01457  0.04047  -0.3619  -0.06412  -0.09352  0.3281  0.04313  0.001053
69.2  0.04079  0.009253  -0.347  0.1543  -0.00655  0.3202  0.01964  -0.0323
69.3  0.02663  -0.02648  -0.2051  0.3134  0.06874  0.3157  -0.01673  -0.01717
69.4  -0.009342  -0.03141  -0.01195  0.3674  0.1665  0.2927  -0.01402  0.01727
69.5  -0.02807  -0.002356  0.1748  0.3179  0.2402  0.2079  0.0135  0.02367
69.6  -0.01447  0.03338  0.2696  0.2282  0.3293  0.08016  0.02249  0.009063
69.7  0.02647  0.03308  0.3539  0.06395  0.3332  -0.01696  0.02192  -0.002239
69.8  0.04115  -0.001061  0.3096  -0.152  0.3042  -0.08666  0.01085  -0.01404
69.9  0.02075  -0.02813  0.2251  -0.2635  0.2642  -0.192  -0.008844  -0.01071
70  -0.0102  -0.02318  0.081  -0.3509  0.1817  -0.2814  -0.01331  0.0155
70.1  -0.01938  0.003246  -0.1023  -0.3494  0.09248  -0.3234  0.01477  0.02403
70.2  -0.0005037  0.02495  -0.2664  -0.2268  0.003859  -0.3447  0.02693  -0.001988
70.3  0.03024  0.01734  -0.3054  -0.07254  -0.1081  -0.3203  0.007764  -0.01555
70.4  0.03456  -0.01281  -0.347  0.003314  -0.2014  -0.2544  -0.007203  -0.01246
70.5  0.01351  -0.02972  -0.3737  0.168  -0.2793  -0.1503  -0.01532  0.001711
70.6  -0.01077  -0.02016  -0.1711  0.3354  -0.3038  -0.07268  -0.00729  0.01266
70.7  -0.01535  0.002301  0.06315  0.3284  -0.3047  -0.04535  0.002291  0.01178
70.8  -0.00221  0.01671  0.201  0.2753  -0.347  0.03596  0.009932  0.007927
70.9  0.0153  0.01611  0.3995  0.1896  -0.2999  0.1687  0.01514  -0.009701
71  0.02763  0.004021  0.4397  -0.07564  -0.201  0.1818  -0.006833  -0.01842
71.1  0.02519  -0.01605  0.2927  -0.274  -0.1852  0.2661  -0.02634  -0.003279
71.2  0.005522  -0.02636  0.1093  -0.3448  -0.1331  0.2807  -0.01467  0.01388
71.3  -0.01727  -0.01347  -0.06352  -0.369  -0.06846  0.3302  0.001194  0.009336
71.4  -0.01585  0.01258  -0.1904  -0.3682  0.07349  0.3254  -0.0005792  -0.007131
71.5  0.006214  0.02248  -0.371  -0.2325  0.1827  0.2878  -0.01681  -0.007834
71.6  0.02463  0.009537  -0.4904  0.1109  0.2127  0.2301  -0.0205  0.005471
71.7  0.02394  -0.01346  -0.2899  0.3233  0.2266  0.2063  -0.01365  0.007119
71.8  -0.001261  -0.02435  -0.09351  0.3805  0.3136  0.1237  -0.00778  0.009365
71.9  -0.01906  -0.006527  0.05138  0.3642  0.3031  0.01073  0.002068  0.002508
72  -0.01523  0.02143  0.2143  0.3203  0.3075  -0.117  -0.0001527  -0.01643
72.1  0.01466  0.02857  0.4023  0.1629  0.2616  -0.1837  -0.02861  -0.02309
72.2  0.0345  0.001974  0.4209  -0.1109  0.2188  -0.2429  -0.04393  0.009749
72.3  0.01451  -0.02902  0.2598  -0.2639  0.1416  -0.2951  -0.01471  0.02764
72.4  -0.02295  -0.02229  0.1774  -0.3581  -0.01335  -0.3627  0.01392  0.01454
72.5  -0.02725  0.01402  -0.08461  -0.4408  -0.1233  -0.3141  0.00978  -0.0227
72.6  -0.004255  0.03164  -0.3278  -0.2552  -0.1348  -0.2934  -0.02134  -0.02529
72.7  0.02214  0.02315  -0.3661  -0.0645  -0.2211  -0.2587  -0.03249  -0.00489
72.8  0.02502  -0.004826  -0.3301  0.04093  -0.2914  -0.09251  -0.02218  0.01401
72.9  0.004356  -0.02072  -0.2847  0.1812  -0.3106  -0.01932  -0.001699  0.02112
73  -0.01823  -0.005648  -0.1266  0.3417  -0.2701  0.05772  0.02532  0.00136
73.1  -0.01717  0.02102  0.05524  0.385  -0.2921  0.1052  0.02141  -0.03897
73.2  0.01247  0.03247  0.2284  0.3422  -0.2421  0.2328  -0.02981  -0.05372
73.3  0.0336  0.005748  0.357  0.19  -0.113  0.3231  -0.0615  0.0001281
73.4  0.0184  -0.02179  0.3682  0.02694  -0.03769  0.3473  -0.02534  0.0383
73.5  -0.01487  -0.01881  0.2814  -0.2154  0.03088  0.3218  0.02623  0.02319
73.6  -0.02329  0.01018  0.1304  -0.3245  0.09572  0.3008  0.03722  -0.01809
73.7  -0.003049  0.03293  0.02688  -0.4009  0.2182  0.268  0.02128  -0.05312
73.8  0.02662  0.02602  -0.1617  -0.4135  0.2914  0.1541  -0.02487  -0.05627
73.9  0.0338  -0.001842  -0.3893  -0.2246  0.3201  0.09956  -0.05584  -0.01322
74  0.0155  -0.02157  -0.3918  0.09609  0.3316  0.06243  -0.02091  0.03277
74.1  -0.009902  -0.01754  -0.2698  0.2709  0.315  -0.02114  0.02853  0.01715
74.2  -0.01834  0.007061  -0.1712  0.3063  0.2877  -0.1366  0.03843  -0.02374
74.3  -0.002284  0.02804  -0.05376  0.3625  0.2703  -0.2236  0.01235  -0.05443
74.4  0.02781  0.01908  0.1089  0.3685  0.1798  -0.2905  -0.02357  -0.04354
74.5  0.0274  -0.007175  0.2747  0.2086  0.1577  -0.2419  -0.02586  -0.008786
74.6  0.006084  -0.02137  0.3013  0.06641  0.09157  -0.2931  -0.008104  0.008915
74.7  -0.01426  -0.006619  0.3345  -0.04473  -0.048  -0.3372  0.01447  0.01158
74.8  -0.006965  0.01606  0.2654  -0.2018  -0.1503  -0.3242  0.03584  -0.005256
74.9  0.01373  0.01824  0.1261  -0.3697  -0.2112  -0.2551  0.03246  -0.04513
75  0.02385  0.003081  -0.08204  -0.3831  -0.2569  -0.222  -0.006815  -0.06185