# GHZ S RI R 50
1	0.000184126550654206	0.00683980545857117	0.0783269259352008	-0.0599005407945873	0.0782602690478844	-0.0599036649184106	-0.00573596391827221	0.00197026436798488
1.1	0.00109245901702052	0.00672638746153671	0.0742496491874374	-0.0648705875827182	0.0741942259340317	-0.0648592635924887	-0.00576050346815059	0.00196628605388646
1.2	0.00195656396112089	0.00661880646233568	0.069871454910945	-0.0695460870516301	0.0698910120053523	-0.0694842021042149	-0.00573609142814374	0.00188640459971627
1.3	0.00287759836196428	0.00634831182254374	0.0651920314043277	-0.0739359841710857	0.0651484640522404	-0.0739122530608438	-0.00556770306404654	0.001780394456667
1.4	0.00371854311735886	0.00603117693201261	0.0602263706781662	-0.0780223848752926	0.0601679048221987	-0.0779836247006825	-0.00552894950981087	0.00184450847504454
1.5	0.00456147162394586	0.00562880742562579	0.0549549303768567	-0.0817911702345746	0.0549595520641475	-0.0817231733577952	-0.00549799861587334	0.00197069988043256
1.6	0.00537359040205129	0.00518092916360224	0.0495320354158721	-0.0851693188961545	0.049549418356342	-0.0851068486158907	-0.00551183913610212	0.00195026504870803
1.7	0.00611329561410373	0.00459306960314957	0.0439218228267758	-0.0881777024506219	0.0439052492733631	-0.0881276647964764	-0.00553419783638849	0.00189031445952037
1.8	0.00679450986343436	0.00400251280565113	0.0380712553702115	-0.0908263958821121	0.0380534004164664	-0.0907837959580499	-0.00560040929342012	0.00178671678560374
1.9	0.00743902211246812	0.00331254699872408	0.0320871345478311	-0.0930932598855746	0.0320591788829582	-0.0930429164812474	-0.00552798068285761	0.00183383785573873
2	0.00799235369915391	0.00256580453029775	0.0259237428178447	-0.0949840155756064	0.0259388659887897	-0.0949111266651654	-0.00548519967407985	0.00188958853329079
2.1	0.00848783599396471	0.00179129130141253	0.0197364603762102	-0.0964381397701856	0.0197253305153586	-0.0963829832071349	-0.00555716511349687	0.00193103625612923
2.2	0.00885791273064101	0.000959847007309857	0.0134208954381274	-0.0974886098737427	0.013410709511439	-0.0974420781423282	-0.0056896761352591	0.00186686336722719
2.3	0.00917807018192155	9.98771667269507E-05	0.00698536893296112	-0.0981478943955248	0.00704552557129739	-0.0980898743122598	-0.00577791267076551	0.0017797459422314
2.4	0.00939762882652499	-0.000782109127945564	0.000587982642691728	-0.0983751265530336	0.000661966888265876	-0.0983230945781445	-0.00574387462429221	0.00169238700280859
2.5	0.0095399019069822	-0.00167052345020127	-0.00581065949025596	-0.0981764300664284	-0.00572069005852713	-0.0981384799203135	-0.00572609450606661	0.00162973534651207
2.6	0.00957896558073895	-0.00257976273874332	-0.0121744922812054	-0.0975844246764774	-0.0120893958552529	-0.0975431238995516	-0.00579048155674105	0.00158179743778253
2.7	0.00953992516332365	-0.00345731549039098	-0.0184787298182856	-0.0965741493456483	-0.0183981861227167	-0.0965407291279727	-0.00593743524183357	0.00150410513711512
2.8	0.00938317480895863	-0.00435180320665583	-0.0247218351754314	-0.0951500263519101	-0.0246173070955296	-0.0951353574264836	-0.00607946342509948	0.00139061598705335
2.9	0.00918264250439754	-0.00516179510463354	-0.0308558557818484	-0.0933120255619712	-0.0307476782344592	-0.0933184984069731	-0.00612634802590245	0.00115804215452446
3	0.00885494920171957	-0.00597767933794634	-0.0368436953275501	-0.0911141290263654	-0.0367356443807643	-0.0911019124276075	-0.00610476728566192	0.000958761437143615
3.1	0.00845422488558583	-0.00670818864874053	-0.0426834930332727	-0.0885224886276786	-0.0425743590808701	-0.0885192268154012	-0.00611820258495133	0.000840131965847496
3.2	0.00793346082179729	-0.00745112553591675	-0.048345106432395	-0.085543798213925	-0.0482281291526216	-0.0855626875820682	-0.00620032233394015	0.000679747413534844
3.3	0.00741071951491797	-0.00806196739786694	-0.0537945596343358	-0.0822066604193202	-0.0536812329435001	-0.0822377122205028	-0.00628028628824562	0.000483556467308006
3.4	0.00675855730916788	-0.0086641778128746	-0.0590046021045717	-0.0785283908408339	-0.0589131463398878	-0.0785614389244518	-0.00637743126170383	0.000164569846090216
3.5	0.00608556265545517	-0.00915484584659715	-0.0639818172670474	-0.0745296215897986	-0.0638851934334417	-0.0745665014570724	-0.0062596755581329	-0.000130100408743974
3.6	0.00530486302362584	-0.00964648179140878	-0.0686748227228639	-0.0702235000982014	-0.0685779867376833	-0.070253811340718	-0.00627565524431609	-0.000381106143741715
3.7	0.00452161357681176	-0.00998647627151512	-0.0730769857562934	-0.0655989070695568	-0.0729969112129489	-0.065636777321413	-0.00617717925117412	-0.000574109541732637
3.8	0.00371256194243697	-0.0103008563748307	-0.0771765738939111	-0.0607291801740287	-0.0771012619848336	-0.0607483982868606	-0.00621006485506104	-0.00083137487274427
3.9	0.00284079603597133	-0.0104784283099125	-0.0809201742198827	-0.0556150209433316	-0.080873499339236	-0.0556125789014651	-0.00615824935925999	-0.00112010895217824
4	0.00194892855614864	-0.0105841026852992	-0.084359824855721	-0.0502205708827529	-0.0843027679707926	-0.0502383135111499	-0.00605435525404725	-0.00154550903529822
4.1	0.00104596261676704	-0.0106186908215599	-0.0874406853532829	-0.0445895601697737	-0.0873706932186125	-0.0446402949353167	-0.00597371295987344	-0.00183550556354205
4.2	0.000165224823977334	-0.0105723358508392	-0.0901481663938626	-0.0388286583711135	-0.0900812127454324	-0.0388691360863906	-0.00581241034483375	-0.00197035148278913
4.3	-0.000768687438990467	-0.0103928893752669	-0.0924562039105598	-0.0329241131344427	-0.0924021347311871	-0.0329709867555568	-0.0056554473635547	-0.00220804300714303
4.4	-0.00161117556328125	-0.0101615449224096	-0.0944025892355408	-0.0267924057373035	-0.0943376685079172	-0.0268631387326838	-0.00562683278923629	-0.00254258436811009
4.5	-0.002511207574288	-0.00979044951095592	-0.0959092149638648	-0.0206733367799601	-0.0958615001636466	-0.0206756901762017	-0.00557478129662668	-0.00278214883427333
4.6	-0.00334196480893101	-0.00938958223964223	-0.0970502596999179	-0.0143378497560122	-0.0969862112287994	-0.014415200401933	-0.0053787496038856	-0.00300361700618311
4.7	-0.00419879552803464	-0.00884053410943599	-0.0977483308031525	-0.00804696360253833	-0.0977167196303278	-0.00807390313251966	-0.00512824511639445	-0.00327480816388462
4.8	-0.00493878904067099	-0.00825216182582452	-0.0980527990374364	-0.00163253075943753	-0.0980121785589606	-0.00170475206931673	-0.00501060627881098	-0.00350517388663956
4.9	-0.00570105830272947	-0.00755125248068718	-0.0979341754458723	0.00471826501887905	-0.0979028883072816	0.00465641061187603	-0.00507093795902207	-0.00362034272750103
5	-0.00637788415971012	-0.00681668805145607	-0.0973955279047469	0.0110403511981898	-0.0973752354014014	0.0109876404175	-0.00496179683160213	-0.00375251801720899
5.1	-0.00703431074554235	-0.00599889720421283	-0.0964623635106032	0.0173730273500658	-0.0964447269823849	0.0172949188840627	-0.00483342533082306	-0.00398950261858573
5.2	-0.00756238765893461	-0.00512909971467548	-0.0951242961980762	0.0235671324193663	-0.0951085085570504	0.0235149311423908	-0.00472794126442978	-0.00422265484581841
5.3	-0.0080812214576787	-0.00419468835436091	-0.0933708514524855	0.0297555485298282	-0.093373686854755	0.0296356248585718	-0.00473391721962829	-0.0043691795940573
5.4	-0.00848197845950484	-0.0032430409145449	-0.091252033469399	0.0357188066935028	-0.0912474346410155	0.0356369589277678	-0.00470881092308095	-0.00446753410729099
5.5	-0.00881069583416209	-0.00231186780192141	-0.0887318420325847	0.041573330480545	-0.0887353313131547	0.0414911012600113	-0.00468856862761062	-0.00458902982076282
5.6	-0.00903365112061064	-0.00127730671948975	-0.0858377552279865	0.0472434113436015	-0.0858376865824447	0.047161959913467	-0.00473342415965812	-0.00489363836726072
5.7	-0.00920921955793283	-0.000263288570807309	-0.0826145261553768	0.0526617998623347	-0.0825886203206102	0.0526270891857095	-0.00475180818233699	-0.00506312636025343
5.8	-0.0092544216444302	0.000762262926398109	-0.0789828448018299	0.0579453089268244	-0.079016618023881	0.0578592510050407	-0.00478367048197854	-0.00518901559812687
5.9	-0.00923790864859151	0.00177237512042651	-0.0750596823617186	0.062913173497334	-0.0750733584519914	0.062867659546386	-0.0047484101490548	-0.00529825871051946
6	-0.00908714607803604	0.00276957924162774	-0.070814626153709	0.0676651121144228	-0.0708323276650433	0.0676023947948229	-0.00478199567130738	-0.00558422166295749
6.1	-0.00884647268655257	0.00375073104941499	-0.0662731583597656	0.072097613934201	-0.0663441117829977	0.0720025665284375	-0.00495550469759336	-0.00581097180240298
6.2	-0.00853099870069019	0.00470011121791081	-0.0614424990290627	0.0762339911464894	-0.0614635524007412	0.0761957646612397	-0.0050051928108811	-0.00598229671950182
6.3	-0.00814693463999495	0.00557879437202124	-0.0563475839502883	0.0800657580990219	-0.0564299572156669	0.0799825221399062	-0.00500711410759487	-0.00619656600433511
6.4	-0.00767646947805814	0.00639099040346518	-0.0510218813846463	0.083553185305634	-0.051059845182593	0.0834948983781796	-0.00507099209554415	-0.00653809519477989
6.5	-0.00713922211240777	0.00716321063227335	-0.0455041933552434	0.0866670189247293	-0.0455930083345808	0.0866021267035963	-0.00515926746425587	-0.00676777888808435
6.6	-0.00650008324660458	0.00784569593302895	-0.039784496486363	0.0894189079524705	-0.0398011236044354	0.0893859268450262	-0.00517602590749391	-0.0069709070170467
6.7	-0.00585040569760497	0.0084429683821798	-0.0338773457766406	0.0918094371234953	-0.0339078356533888	0.0917621443743343	-0.00516876088027694	-0.00728815040284754
6.8	-0.00511749624963582	0.00896361138768857	-0.0278244611457595	0.0938156371413879	-0.0278807167709831	0.0937652642120659	-0.00526724822763773	-0.00760032381765717
6.9	-0.00436343494219426	0.00937253505887542	-0.0217011497823127	0.09539100515895	-0.0218037253857411	0.0953477273996126	-0.00531944694846623	-0.0078697876451384
7	-0.00357592753457079	0.00967592634467541	-0.0154652544054143	0.0965879987414504	-0.0154914370989584	0.0965556023148905	-0.00525767775823513	-0.00809568089389076
7.1	-0.0027421509951148	0.00986887182035526	-0.0090955949418629	0.097381008736075	-0.00920450862448212	0.0973420790355605	-0.00521818704318796	-0.0084974896280238
7.2	-0.00190583682154847	0.00998438219583913	-0.00280221405497091	0.0977512884664711	-0.00290633506006934	0.0977119278796568	-0.00525618764643144	-0.00873909085104215
7.3	-0.00107021322158604	0.0100002081317875	0.00352879986975646	0.0977101643391874	0.00352557884418791	0.097671378843265	-0.00526149020867153	-0.00893096175519454
7.4	-0.000232891986569579	0.00988526550769217	0.00986630348672273	0.0972593797324764	0.00986019745324687	0.0972217643365749	-0.00521291443991035	-0.00924018917470196
7.5	0.000531309095350089	0.00967416847213822	0.0161728059472442	0.0963968040204236	0.0161316942222176	0.0963706348049131	-0.00524581712191738	-0.0096919537300507
7.6	0.00135036435908925	0.0094041601080529	0.0224327362450865	0.0951293900486265	0.0223450732774728	0.0951057600441532	-0.00524307991484559	-0.00993103721403594
7.7	0.00208344456110642	0.00898047932608833	0.0285421999225498	0.0934827033820195	0.0284860650812766	0.0934329320359178	-0.00518638930672364	-0.0101128082845446
7.8	0.00280223439789121	0.00854030192149948	0.0345483027311306	0.0914037799231212	0.0344687292623662	0.091365228968318	-0.00493293601899746	-0.0103744543079228
7.9	0.0034741670557312	0.00794954681223574	0.0404285258595417	0.0889490319353522	0.0403321214466602	0.0889472259214583	-0.00514313137126893	-0.0108469625464091
8	0.00408854318614661	0.00733929856547216	0.046050391042777	0.0861545799959313	0.0460221720182953	0.0861290991065256	-0.00534560236213803	-0.0110653990427293
8.1	0.00460806329583282	0.0066230893722243	0.0515944722439936	0.0829641002659585	0.0514597698213194	0.0829816746568612	-0.00524591916841706	-0.0112149328580042
8.2	0.00512349817161392	0.00581950816037262	0.0568163188719107	0.0794509720385297	0.0567741805370343	0.0794171447530809	-0.00492272426359115	-0.0116155381425297
8.3	0.00550293359431223	0.00500144304842411	0.0618935612051579	0.0755410512279627	0.061812349680519	0.0755602007997089	-0.00522146608253034	-0.0121419970882632
8.4	0.00582925568750525	0.00413023443674184	0.0666193577588046	0.0714089556238131	0.0665681399364613	0.0713937297081354	-0.00540802016059417	-0.0122138767380183
8.5	0.0061162798253788	0.00315511948364898	0.0711156289167921	0.0669235349754205	0.0710551931378424	0.0669198348909029	-0.0052446717607828	-0.012357023757387
8.6	0.00629483405112218	0.00220511127801905	0.0753080408977959	0.0621373446698787	0.0752473098519275	0.0621391753422115	-0.00521483579464335	-0.0129701546926575
8.7	0.00640130161554339	0.00124619703214797	0.0791559935915157	0.0571071825303684	0.0791125435772467	0.0571299459703515	-0.0054062607387117	-0.0134335451150165
8.8	0.00643721466949908	0.000262266899576564	0.0826935371756822	0.0518610920475059	0.0826469402963299	0.0518766256677831	-0.00543857057079877	-0.0134889112201031
8.9	0.00638138975675871	-0.000754593779456138	0.0858870402393749	0.046388806237037	0.0858038551375439	0.0464689503348186	-0.00519430272713901	-0.0136342392921754
9	0.00622057627592354	-0.00172076724789571	0.0886884833472057	0.0406920216643539	0.0886535937932673	0.0407243656860811	-0.00510450401018819	-0.0141937798279543
9.1	0.00598358024511586	-0.00269394523840533	0.09113207103412	0.0348493196886427	0.0910810447672764	0.034934569770867	-0.00526614169691634	-0.0145415722492494
9.2	0.00569084179704014	-0.00364096410966039	0.0931905588230629	0.028850119781314	0.0931492986188583	0.0288866415862392	-0.00534590864181874	-0.0147535099945247
9.3	0.00527354818256798	-0.00457511430409057	0.0948873340076315	0.0226792578981401	0.094823553995507	0.0227819974294787	-0.00499436505863144	-0.0150425143175728
9.4	0.00478313787323617	-0.0054341985894911	0.0961287050750424	0.0165450919158682	0.0960986305406642	0.0165665005818516	-0.00488139069846937	-0.0153949781410729
9.5	0.00418157404502885	-0.00627663579512504	0.09698869008532	0.0102666503291215	0.0969604844612259	0.0102881611578125	-0.00490219458635476	-0.0156260363206318
9.6	0.00353433965160789	-0.00705425115329856	0.0974374874048474	0.00394244995837424	0.0973997943242018	0.00398426460085636	-0.00482775114153592	-0.0157509062706888
9.7	0.00278220948253844	-0.00776982106603499	0.0974651712177175	-0.00245024461944864	0.0974245334922454	-0.00235876275996315	-0.00466005382280706	-0.0160051044703018
9.8	0.00201649569674554	-0.00840801951501955	0.0970958425092704	-0.00872849129411687	0.0970635887852727	-0.00869578869803239	-0.00455170840057212	-0.0162555396066226
9.9	0.00112395187879526	-0.0089796798756452	0.0963034042969886	-0.0149789178062865	0.0962686620758684	-0.0149763576618424	-0.00447466177140871	-0.0164871707183909
10	0.00023015753504566	-0.00946785646814764	0.0951043924704776	-0.0212680572670812	0.0950835347930407	-0.021172135764054	-0.00431288359564685	-0.0165538559402793
