# GHz S RI R 50
0.2 1.64084671497633E-03 -5.03534838223106E-03 0 0 -1.87010365742634E-02 -0.594749807494129 0 0
0 0 8.24881133665784E-03 9.44124381993179E-03 0 0 -0.108489902774994 -0.629534381628767
-1.87010365742634E-02 -0.594749807494129 0 0 -1.83760689549492E-02 2.85682624434958E-02 0 0
0 0 0.585007044351998 -0.241483379011626 0 0 -5.06331992335658E-03 4.75975463623642E-03
0.4 1.02584658738336E-02 -8.80192061848964E-03 0 0 0.400318227583152 -0.709783958546164 0 0
0 0 -2.11062021211889E-02 2.83060561232054E-03 0 0 0.285052201317917 -0.82742528901523
0.400318227583152 -0.709783958546164 0 0 0.042413016110287 0.017066361723508 0 0
0 0 0.24551413108573 0.83040854072282 0 0 0.031047750810994 1.17476669977542E-02
0.6 2.03016706914986E-02 8.18394162679857E-04 0 0 0.834005152818762 -0.475105281249882 0 0
0 0 1.51339200577427E-02 -1.83529707036856E-02 0 0 0.807967801123991 -0.637538676521427
0.834005152818762 -0.475105281249882 0 0 -8.1548996636515E-03 2.24994164663181E-02 0 0
0 0 -1.00347090039438 0.158386793595802 0 0 5.76518089659236E-02 1.71979195333093E-02
0.8 2.13269881330044E-02 2.01790393276157E-02 0 0 1.05924513452376 1.95109893003129E-02 0 0
0 0 -1.44079030597853E-03 0.028640778924209 0 0 1.12958506151342 -0.127693228235287
1.05924513452376 1.95109893003129E-02 0 0 2.42161434945152E-02 2.9210635125117E-03 0 0
0 0 -4.21821345849534E-02 -1.13686558414308 0 0 3.25634561969799E-02 1.11742443249084E-02
1 -7.68740066215745E-03 3.22875178095503E-02 0 0 0.92980838479001 0.647278124002554 0 0
0 0 -0.026777703939593 -2.26857586316425E-02 0 0 1.11845602580914 0.475182846045869
0.92980838479001 0.647278124002554 0 0 -1.41896483648785E-03 1.03970106646002E-02 0 0
0 0 1.19671993520197 0.117758207487087 0 0 4.86213724239183E-02 -1.51230627468352E-02
1.2 -2.43909836633687E-02 1.01185661449789E-02 0 0 0.459400539473446 1.06540076338701 0 0
0 0 4.38899585876824E-02 -8.93606206395894E-03 0 0 0.702762639565464 1.02892293498764
0.459400539473446 1.06540076338701 0 0 2.21578941273097E-02 -6.33543113748652E-03 0 0
0 0 -0.287472057256649 1.21925804008626 0 0 4.29450759204126E-02 -2.35819183156108E-02
1.4 -1.20857644877538E-02 -1.53508935225782E-02 0 0 -0.199140878818189 1.17317260479485 0 0
0 0 -1.57657818034855E-02 3.87858716108664E-02 0 0 1.96685007667726E-02 1.28281798615619
-0.199140878818189 1.17317260479485 0 0 0.014608677121166 -3.43827557380165E-03 0 0
0 0 -1.17090610605296 -0.488884398446295 0 0 3.11314046274934E-02 -2.31373581147532E-02
1.6 1.22933344376866E-02 -1.36665702417142E-02 0 0 -0.813803258765745 0.85192209944858 0 0
0 0 -3.18808136358203E-02 -4.21836711217239E-02 0 0 -0.703941441713625 1.05800201881892
-0.813803258765745 0.85192209944858 0 0 3.21393722226595E-02 -2.72282485746444E-02 0 0
0 0 0.642244166594035 -1.07994515819556 0 0 5.50967215604897E-02 -1.73356390798618E-02
1.8 1.22033164590427E-02 -3.58331072595309E-03 0 0 -1.15505218464818 0.261335180877362 0 0
0 0 4.31764145655329E-02 -1.50624584907939E-02 0 0 -1.1788532704281 0.500775745508205
-1.15505218464818 0.261335180877362 0 0 2.07256129808198E-03 -7.84648643606545E-03 0 0
0 0 0.939301456636681 0.848033798270366 0 0 -4.60683163499118E-03 3.46375880530356E-03
2 -7.87391710319255E-03 8.23319670805453E-03 0 0 -1.06704439574041 -0.436818864259091 0 0
0 0 -1.48733122702294E-02 0.048151882111071 0 0 -1.21419071716708 -0.260141365152852
-1.06704439574041 -0.436818864259091 0 0 -1.71503095187717E-02 -3.58842117461912E-02 0 0
0 0 -0.970045769651336 0.772992611124338 0 0 2.13970276386317E-02 -2.92296160060998E-02
2.2 -2.86101464337921E-03 -1.73121803460499E-02 0 0 -0.616040645828562 -0.96801659749153 0 0
0 0 -3.89312636024914E-02 -4.29726142911284E-02 0 0 -0.836266078842081 -0.902261976342093
-0.616040645828562 -0.96801659749153 0 0 -1.24430517276665E-02 -2.5080747533419E-03 0 0
0 0 -0.539327701438483 -1.10152389972462 0 0 -8.87328587759174E-03 4.77429433230605E-03
2.4 1.90046949661708E-02 -1.81262278692197E-02 0 0 7.26434005506638E-02 -1.12521045473287 0 0
0 0 5.34439139398638E-02 -0.020195407551245 0 0 -0.137327858102263 -1.18879445764665
7.26434005506638E-02 -1.12521045473287 0 0 -5.08593038334544E-02 -2.54171402638016E-02 0 0
0 0 1.17030663786976 -0.311479698678228 0 0 2.17501401443875E-03 1.55248985153767E-02
2.6 4.38705857513753E-02 1.52029325556409E-02 0 0 0.747762660819302 -0.84475043531934 0 0
0 0 -1.81447888885655E-03 5.47900209784652E-02 0 0 0.52398689912508 -1.06489683205198
0.747762660819302 -0.84475043531934 0 0 1.32369194949163E-02 -9.84027054478862E-03 0 0
0 0 5.49293912249034E-02 1.20114449651868 0 0 -4.13325953546721E-02 -1.49558660950576E-03
2.8 2.21880461593161E-02 5.59834873118774E-02 0 0 1.10036688940468 -0.239160511479544 0 0
0 0 -4.17149934001836E-02 -3.48214931367401E-02 0 0 1.04533404632947 -0.533335702229871
1.10036688940468 -0.239160511479544 0 0 -2.72092606440562E-02 1.12796553923382E-02 0 0
0 0 -1.19358246542234 -0.194383365420846 0 0 4.42344383640699E-02 9.77383240121725E-03
3 -3.42683693244172E-02 5.82994779585131E-02 0 0 1.03939359917047 0.466105901855911 0 0
0 0 4.54694252196145E-02 -2.40255080127946E-02 0 0 1.15463380743921 0.195784607731827
1.03939359917047 0.466105901855911 0 0 2.01438451866419E-02 -4.40406272100516E-04 0 0
0 0 0.443160652355723 -1.13403313742217 0 0 -1.33978683018641E-02 1.87544401655999E-02
3.2 -6.49295867246972E-02 9.58662021627492E-03 0 0 0.576159109368968 0.991868782835115 0 0
0 0 1.13070665796052E-02 4.68863151391743E-02 0 0 0.814345493638216 0.846828759777269
0.576159109368968 0.991868782835115 0 0 -1.31476515268512E-02 4.04425593097289E-02 0 0
0 0 1.03593934069021 0.667835237337099 0 0 1.4814235901132E-03 3.02159235925021E-02
3.4 -4.23422162043035E-02 -3.40411299055092E-02 0 0 -0.109313325688738 1.15532938259947 0 0
0 0 -3.56322554852286E-02 -9.65525781744883E-03 0 0 0.156935016263233 1.17069633467717
-0.109313325688738 1.15532938259947 0 0 -1.62283862208673E-03 -2.25065009489293E-02 0 0
0 0 -0.867166585271836 0.893372752685646 0 0 2.53828712274439E-02 -4.64955121624514E-03
3.6 -6.89088706332434E-03 -4.47124110479895E-02 0 0 -0.756865654597344 0.88291566147164 0 0
0 0 1.39404601292828E-02 -0.021054827379978 0 0 -0.55527043452574 1.0427698575097
-0.756865654597344 0.88291566147164 0 0 -6.2423980878646E-03 3.27789170722103E-02 0 0
0 0 -0.715200609988217 -1.02434844441449 0 0 1.49562106520027E-02 2.43028291929205E-02
3.8 4.64544886645882E-04 -2.89546648986537E-02 0 0 -1.12265398656173 0.283726993227874 0 0
0 0 2.05129292733389E-02 1.43147011301252E-02 0 0 -1.05542706853266 0.517111974691088
-1.12265398656173 0.283726993227874 0 0 -3.46814735725655E-02 -3.45071679882995E-02 0 0
0 0 1.13783132659204 -0.503934348552015 0 0 1.43808984219246E-02 -0.054245185598694
4 1.29834113230598E-02 -2.74470199852093E-02 0 0 -1.0712604699039 -0.413493458315852 0 0
0 0 -9.13396146323882E-03 2.59779371953789E-02 0 0 -1.14750788701806 -0.194431361987264
-1.0712604699039 -0.413493458315852 0 0 1.28827245386402E-02 9.34272789667887E-03 0 0
0 0 0.275942049239893 1.20643135829619 0 0 -2.37984937507049E-02 -0.022362573190509
4.2 1.70273009532063E-02 -2.55007533036539E-02 0 0 -0.620136242256694 -0.94670281342724 0 0
0 0 -2.49601457440463E-02 -8.46074888440258E-03 0 0 -0.801217233135649 -0.820496348114531
-0.620136242256694 -0.94670281342724 0 0 -5.51891638182853E-02 -7.87090291061468E-03 0 0
0 0 -1.22041959957207 3.29284902386563E-02 0 0 -2.45928737426715E-02 -4.58203437838423E-03
4.4 4.21356170517822E-02 6.78050001116573E-03 0 0 5.22444120540539E-02 -1.11266991975829 0 0
0 0 2.19976661607411E-02 -0.033890601436996 0 0 -0.161516873912766 -1.11906638330641
5.22444120540539E-02 -1.11266991975829 0 0 1.45915260250992E-02 -1.69306436348573E-03 0 0
0 0 0.21011106676625 -1.18080921049986 0 0 -5.03792685812721E-02 1.08086936589398E-02
4.6 3.57156703803596E-02 3.43314022986015E-02 0 0 0.688045863957089 -0.850289638333603 0 0
0 0 4.70453180169687E-02 3.07411760784069E-02 0 0 0.529552928668323 -0.970636499190507
0.688045863957089 -0.850289638333603 0 0 -0.052167756872009 4.64376820900399E-02 0 0
0 0 1.09474062012786 0.44629165000172 0 0 -7.30089181731407E-03 0.043607334685625
4.8 1.54619338975732E-03 5.27109029921453E-02 0 0 1.04795955494428 -0.26554419357146 0 0
0 0 -6.11116096647418E-02 6.76513118243761E-03 0 0 0.993365342389216 -0.454802534818177
1.04795955494428 -0.26554419357146 0 0 -1.83420556812563E-03 8.48837832594098E-03 0 0
0 0 -0.658501480662446 0.959421073477717 0 0 -5.39069991603039E-02 4.27473820453277E-02
5 -2.37513007279411E-02 2.87866525378507E-02 0 0 0.9880917363314 0.413695879829901 0 0
0 0 2.63069803073145E-02 -4.11666169825381E-02 0 0 1.0574406967829 0.241195803830582
0.9880917363314 0.413695879829901 0 0 -4.42824367718848E-02 5.40606357133834E-02 0 0
0 0 -0.789146756096646 -0.850947087614619 0 0 1.81176768281294E-04 0.048863533276743
5.2 -2.30322121724975E-02 -2.14406644047315E-02 0 0 0.544723520545621 0.927592689754543 0 0
0 0 -5.62934148339143E-03 5.64185120423686E-02 0 0 0.698060514767155 0.831202329694678
0.544723520545621 0.927592689754543 0 0 -1.41747304244417E-02 -2.96744010679097E-02 0 0
0 0 1.00407332976081 -0.583539191199234 0 0 1.95334971828804E-02 0.034386549688779
5.4 1.44145529973003E-02 -2.53220750291681E-02 0 0 -0.116411845541394 1.07391956275703 0 0
0 0 -1.07004936927537E-02 -0.03711205399695 0 0 5.94768486150324E-02 1.09332143611967
-0.116411845541394 1.07391956275703 0 0 1.43485885034705E-02 4.13931861127179E-02 0 0
0 0 0.358689064588682 1.10827747791262 0 0 5.68557828233534E-02 3.50894800526933E-02
5.6 4.07860852447147E-02 1.17577258511962E-03 0 0 -0.735927650949943 0.803878379020153 0 0
0 0 7.35177978986351E-02 4.34292283905567E-02 0 0 -0.609386333902925 0.921683818270852
-0.735927650949943 0.803878379020153 0 0 -9.52861484866281E-03 -3.44118397236151E-02 0 0
0 0 -1.1700626299763 0.119155913191828 0 0 3.62321055672418E-02 -0.033526634303193
5.8 1.89672273344659E-02 4.43126389845675E-02 0 0 -1.07034155280545 0.219390671671443 0 0
0 0 -0.10143494723739 3.92198572149004E-02 0 0 -1.04261819477988 0.390021922297809
-1.07034155280545 0.219390671671443 0 0 5.04705416275482E-02 3.37682627352631E-02 0 0
0 0 0.121358137165074 -1.17805305052813 0 0 1.20178970695256E-02 1.61571325497221E-02
6 -1.01277005548682E-02 8.56106356516876E-02 0 0 -0.998302845323967 -0.442722487307698 0 0
0 0 1.52188758335521E-02 -0.128279586138422 0 0 -1.07238272500569 -0.290368876336024
-0.998302845323967 -0.442722487307698 0 0 -6.11001879872476E-02 1.24417962235428E-02 0 0
0 0 1.13311269235048 0.348386292998966 0 0 -3.31178614160163E-02 4.21465465888968E-02
6.2 -7.58087983595267E-02 6.46152712085034E-02 0 0 -0.544183148119975 -0.942500024468593 0 0
0 0 0.108174065453886 5.82839826341148E-02 0 0 -0.689618045473218 -0.861381019056234
-0.544183148119975 -0.942500024468593 0 0 -3.45599920973183E-03 6.24700534077902E-02 0 0
0 0 -0.56244626931911 1.03015202894867 0 0 -6.97776450502214E-02 5.80007764921728E-02
6.4 -0.10693462657598 1.93720735206121E-02 0 0 0.110904200558031 -1.06852033194779 0 0
0 0 -6.95036263050416E-02 0.069710704477199 0 0 -5.46037920007156E-02 -1.10198733470935
0.110904200558031 -1.06852033194779 0 0 -8.67566804177568E-02 3.99993562864365E-02 0 0
0 0 -0.891529902539094 -0.762243683493121 0 0 -0.013202261438482 2.91317243346236E-02
6.6 -0.111513945500955 -5.90147377614337E-02 0 0 0.713973060771352 -0.794628207544293 0 0
0 0 -0.04549587752796 -5.04307899174426E-02 0 0 0.605445328157078 -0.903212304084196
0.713973060771352 -0.794628207544293 0 0 8.66232567519927E-03 6.19909648754096E-03 0 0
0 0 0.914612936911951 -0.711329881106343 0 0 -2.90082609200336E-02 1.75905494899988E-02
6.8 -4.85658351567791E-02 -0.116963830246446 0 0 1.03401562232635 -0.209524429431238 0 0
0 0 3.39961101357773E-02 -4.82979246220847E-02 0 0 1.010817893373 -0.365255414475291
1.03401562232635 -0.209524429431238 0 0 -9.12789660607803E-03 0.024515449828632 0 0
0 0 0.492608682305388 1.03404739665485 0 0 -0.013685431682319 -2.97875442522853E-04
7 2.98409955850312E-02 -9.71178540615348E-02 0 0 0.940355167725798 0.441507833490265 0 0
0 0 7.25756407842646E-02 2.94044801488809E-02 0 0 1.01606763854996 0.310401961669218
0.940355167725798 0.441507833490265 0 0 7.15862674594889E-02 1.46803562381282E-02 0 0
0 0 -1.10035600082583 0.262617513146013 0 0 3.53129579761609E-02 3.54254945284235E-02
7.2 5.41677552513376E-02 -5.51670268992939E-02 0 0 0.469311083669692 0.918219685747608 0 0
0 0 -5.51108933100673E-02 7.46384501263354E-02 0 0 0.652095754500325 0.826801624581935
0.469311083669692 0.918219685747608 0 0 4.31905132282156E-02 5.62444503455362E-02 0 0
0 0 -2.06133280566218E-02 -1.11845937089694 0 0 4.66803672459599E-02 6.72855551401163E-02
7.4 4.73812217535934E-02 -2.64269824463252E-02 0 0 -0.183949339136548 1.01688693135827 0 0
0 0 -5.42265548810656E-02 -7.14309298091291E-02 0 0 1.36054290845088E-02 1.05788829787634
-0.183949339136548 1.01688693135827 0 0 5.01027777033547E-02 0.027390262186175 0 0
0 0 1.09944166608021 0.228228102819272 0 0 4.55202206116931E-02 1.3235634182185E-03
7.6 0.032636950872931 -0.02421000759586 0 0 -0.759696997288496 0.712435816568157 0 0
0 0 7.08826951507943E-02 -0.025836839019776 0 0 -0.626604857108255 0.858871952493713
-0.759696997288496 0.712435816568157 0 0 -3.55422444705733E-02 -1.0617383343176E-03 0 0
0 0 -0.466954784207125 1.0285411600963 0 0 2.24708727262976E-02 -5.36660428075448E-02
7.8 5.99592304181373E-02 8.6671256708404E-04 0 0 -1.04766670176115 0.114030844466557 0 0
0 0 1.28611868284256E-03 5.67516917362704E-02 0 0 -1.02791996716243 0.314766945271763
-1.04766670176115 0.114030844466557 0 0 1.61349972080291E-02 -1.54632277682588E-02 0 0
0 0 -0.920871223985142 -0.679194772357539 0 0 -3.66968382116237E-02 -2.68891530317794E-02
8 4.64410028305103E-02 6.04713122340763E-02 0 0 -0.923348920683771 -0.528177538744089 0 0
0 0 -4.65836344285427E-02 -6.00906791163441E-03 0 0 -1.02061844241851 -0.35202147423418
-0.923348920683771 -0.528177538744089 0 0 -3.56167162346807E-02 1.08526650049065E-02 0 0
0 0 0.867244038729095 -0.762223869902136 0 0 -6.73304459820991E-02 -3.03788202147065E-02
8.2 -1.56344263303327E-02 7.56293816331085E-02 0 0 -0.43811914060009 -0.97819421972897 0 0
0 0 -5.88731823969023E-03 -3.29556584267165E-02 0 0 -0.613397728663112 -0.902946966288386
-0.43811914060009 -0.97819421972897 0 0 0.072795973364691 -1.08166554708447E-02 0 0
0 0 0.590955464797369 1.01490634524853 0 0 -3.81678520070371E-03 2.31557849390614E-02
8.4 -6.67319155580095E-02 3.07323549469214E-02 0 0 0.20937243709001 -1.05617671057257 0 0
0 0 1.21773768483956E-02 1.3062548238099E-03 0 0 1.53874241184311E-02 -1.09348829859145
0.20937243709001 -1.05617671057257 0 0 2.53517605789709E-02 5.44086975039835E-02 0 0
0 0 -1.11037262817668 0.37421351601198 0 0 7.83706177754132E-02 1.60587132309208E-02
8.6 -5.62665341281556E-02 -6.36867687807369E-02 0 0 0.783155113867144 -0.731882443432116 0 0
0 0 5.70786602660462E-03 -3.22293980132079E-02 0 0 0.658722598721084 -0.868502051407896
0.783155113867144 -0.731882443432116 0 0 8.32139999270896E-02 1.6469985540933E-03 0 0
0 0 -0.167327525519229 -1.16419758468745 0 0 2.48964631706051E-02 4.38555117398075E-02
8.8 7.57784945001859E-02 -8.20458688982236E-02 0 0 1.05371825028878 -0.135809861752448 0 0
0 0 3.49588358373861E-02 -8.33767194430909E-03 0 0 1.03354663219835 -0.327736144237432
1.05371825028878 -0.135809861752448 0 0 -1.16506295324476E-02 7.79876019829585E-02 0 0
0 0 1.16720564411854 8.05609903786281E-02 0 0 2.73209123991165E-02 -1.37849633227458E-02
9 0.103219328617603 2.99566259086264E-02 0 0 0.923400216803771 0.496038080289797 0 0
0 0 3.96713953745681E-03 6.46351953511667E-02 0 0 1.01606155567959 0.347953417934569
0.923400216803771 0.496038080289797 0 0 1.36830184705719E-02 -4.93575281723813E-02 0 0
0 0 -0.296894912593023 1.11003011060363 0 0 -6.32929847617028E-02 9.6513251869766E-03
9.2 2.68561760570465E-02 0.13187751799576 0 0 0.436071360633139 0.936107023923098 0 0
0 0 -8.54179109551918E-02 -3.13909769976409E-02 0 0 0.608498356761801 0.875387808899154
0.436071360633139 0.936107023923098 0 0 -4.89819006858744E-02 -1.03736110173272E-02 0 0
0 0 -1.01042189037893 -0.516303412835339 0 0 -1.14036268373867E-02 1.25993711093167E-02
9.4 -6.48739164509534E-02 2.91826148768956E-02 0 0 -0.197718186021289 0.99431823257279 0 0
0 0 7.35013219576759E-02 -8.46681590617023E-02 0 0 -2.38447446869499E-02 1.04445581266935
-0.197718186021289 0.99431823257279 0 0 -4.95736763117615E-02 -9.21748243036901E-02 0 0
0 0 0.709779817628403 -0.866503546872006 0 0 -7.03762578357896E-03 -9.09789154144188E-02
9.6 -4.01318618799135E-02 -6.41458295950833E-02 0 0 -0.75844136261663 0.669353563994139 0 0
0 0 0.020774544952381 0.112406656463941 0 0 -0.645624964073463 0.807709005834829
-0.75844136261663 0.669353563994139 0 0 -5.72360507174623E-02 3.98143100895347E-03 0 0
0 0 0.691088797554939 0.87293501993437 0 0 4.6269919708493E-03 -8.84835685685341E-02
9.8 4.21967356498041E-02 -3.50405506376842E-02 0 0 -0.998450833756178 0.085398263770332 0 0
0 0 -8.90461750443595E-02 -2.15040741251736E-02 0 0 -1.00271739939509 0.258707035669783
-0.998450833756178 0.085398263770332 0 0 -7.82579722713927E-02 -7.46597320161316E-02 0 0
0 0 -0.997254044525249 0.477559293590885 0 0 -4.48298094776347E-02 -0.110217152075606
10 4.95310975667305E-02 6.58993565885423E-02 0 0 -0.861153051838152 -0.535626968225623 0 0
0 0 4.82893773772602E-02 -6.22872066286403E-02 0 0 -0.968764361716189 -0.394639104204672
-0.861153051838152 -0.535626968225623 0 0 -2.13703453986919E-02 3.39242791735052E-02 0 0
0 0 -0.251860472321962 -1.08341921861344 0 0 -5.91509548287674E-02 -9.66495982631284E-03
10.2 -4.26310693942866E-02 9.62051363351464E-02 0 0 -0.376359535646869 -0.936258643720759 0 0
0 0 -0.01558184843493 5.20313288084391E-02 0 0 -0.552408168128581 -0.898288405714406
-0.376359535646869 -0.936258643720759 0 0 -8.73041230086438E-02 -3.06859449848079E-02 0 0
0 0 1.12149022193215 -2.25119470196682E-02 0 0 -2.77114301355537E-02 6.34341657636851E-03
10.4 -0.124051725512189 -1.81227180913663E-02 0 0 0.254075079099693 -0.991167619981222 0 0
0 0 5.97122866017551E-03 -0.035285787965393 0 0 8.48876961358783E-02 -1.05136700322995
0.254075079099693 -0.991167619981222 0 0 2.09942043845731E-04 3.10640592693104E-02 0 0
0 0 -0.201854557254975 1.1099353817977 0 0 -2.89816024357857E-02 -1.68610869810007E-02
10.6 -0.047730959746557 -0.110738583342308 0 0 0.781034457229233 -0.646624208041742 0 0
0 0 1.43490347670229E-02 4.15355171971962E-02 0 0 0.688632552660885 -0.809448447996644
0.781034457229233 -0.646624208041742 0 0 -8.47368867432087E-02 -0.014306022179137 0 0
0 0 -1.04828090360298 -0.424166907060565 0 0 3.63892321245657E-03 -4.66977948110654E-02
10.8 7.22798516788151E-02 -0.113805194668421 0 0 1.01584883058386 -7.45585324126423E-02 0 0
0 0 -0.07846341632171 4.89592273302025E-03 0 0 1.03520373421039 -0.256120142410245
1.01584883058386 -7.45585324126423E-02 0 0 1.53594905440391E-02 -6.03958974661427E-02 0 0
0 0 0.617883847808397 -0.937398765026096 0 0 -1.87511086874422E-02 -5.64106137146667E-02
11 0.10381019422755 4.1545965415522E-03 0 0 0.84845459517863 0.537390410984023 0 0
0 0 3.43841670955646E-02 -3.37903060381625E-02 0 0 0.982570154713846 0.385575382818522
0.84845459517863 0.537390410984023 0 0 -0.076623147328831 -3.62382367126581E-02 0 0
0 0 0.790208600696116 0.789949578266452 0 0 -2.48554124639962E-02 -1.09874707570377E-02
11.2 5.77806535700201E-03 1.78055894020617E-02 0 0 0.378887534765133 0.922307685103079 0 0
0 0 1.61737039986363E-02 5.19376844953792E-02 0 0 0.573114930797423 0.873860276902021
0.378887534765133 0.922307685103079 0 0 3.33801630937756E-02 -6.44474467575127E-02 0 0
0 0 -0.914269050952228 0.615557869420945 0 0 5.00614584592722E-02 -2.84673614938911E-02
11.4 -1.82263964424204E-03 -3.44137846409862E-02 0 0 -0.235639257461043 0.945156088919498 0 0
0 0 -1.52700435734522E-02 -7.63466300991213E-02 0 0 -0.047759011935769 1.0181792643108
-0.235639257461043 0.945156088919498 0 0 -5.15702049680105E-02 6.10696256840797E-02 0 0
