# GHZ S RI R 50
1	-0.00222181036562542	-0.00862246938348929	0	0	0.952784072344549	0.131160019122158	0	0
0	0	-0.0154649204599162	0.0114069015580531	0	0	-0.949270726273018	-0.183539049741435
0.952784072344549	0.131160019122158	0	0	0.00445253596800139	0.0410950645167683	0	0
0	0	0.169316839115153	0.896713978299591	0	0	0.00283792933086696	-0.00150220181779146
1.1	-0.00118804333139495	0.00836617204536467	0	0	0.145231815537839	-0.962075592062243	0	0
0	0	-0.0127575874674087	0.0343504701213676	0	0	0.876401145292645	-0.387847059061692
0.145231815537839	-0.962075592062243	0	0	0.00107483767974583	0.00170886960214165	0	0
0	0	0.723760664653122	-0.549641139435044	0	0	0.0345536192287509	0.025273895544916
1.2	0.00394522189062721	-0.00688957132392359	0	0	0.973279026555736	0.140073941405794	0	0
0	0	0.00863515040514971	0.0636934302722024	0	0	0.497870034021919	-0.810093295199702
0.973279026555736	0.140073941405794	0	0	0.0505931566633881	-0.00656586087427087	0	0
0	0	0.825344067130706	0.386759395946051	0	0	0.0747831242778594	0.0657469590564815
1.3	-0.00553921615447785	0.0040744908869761	0	0	0.137618257122403	-0.957889550967955	0	0
0	0	0.0166111682458463	0.0188735747452124	0	0	0.0443763178255567	0.951950158544839
0.137618257122403	-0.957889550967955	0	0	-0.0564755214714059	0.00825525140954529	0	0
0	0	-0.0603478406998126	-0.917420597280599	0	0	0.0363720842407476	-0.0197385501805945
1.4	0.0059377412698893	-0.000710013927644167	0	0	0.943128490520828	0.160782462374751	0	0
0	0	-0.0123207544228753	-0.0434520586226866	0	0	0.57908562284199	0.759595533262068
0.943128490520828	0.160782462374751	0	0	0.0160792245070866	0.00525469190596619	0	0
0	0	0.771394793592156	-0.472206796959009	0	0	0.0203010237239784	-0.0379369876225855
1.5	-0.0048506388037726	-0.00243008339736678	0	0	0.192646707892156	-0.945234885640345	0	0
0	0	-0.037198580346994	-0.0555555180175951	0	0	-0.915457861578138	-0.274174619906436
0.192646707892156	-0.945234885640345	0	0	0.0257371819795386	-0.038345639090528	0	0
0	0	-0.769377955175914	-0.461445729699088	0	0	0.0604351181492354	0.00245057344459488
1.6	0.00248935107952832	0.00458104001274788	0	0	0.962741434720164	0.210460753627031	0	0
0	0	-0.0357852649778094	-0.0184361735786488	0	0	-0.90264105954706	0.313367215989569
0.962741434720164	0.210460753627031	0	0	-0.0570924044827238	-0.0173886290382647	0	0
0	0	0.0539509574822929	-0.90290056916506	0	0	0.0444275236342056	0.0266808345641181
1.7	0.000537841059212412	-0.00525835245834596	0	0	0.199132587674754	-0.968628354253893	0	0
0	0	0.015066720095586	0.00804758687987275	0	0	0.566115911885019	-0.762042629121853
0.199132587674754	-0.968628354253893	0	0	-0.00135905417952498	0.00604147869896344	0	0
0	0	-0.82391157012288	0.381460346140332	0	0	-0.0121080332274348	-0.0484332350739778
1.8	-0.00359629797218387	0.00411005066652886	0	0	0.943796555086506	0.197116546730266	0	0
0	0	0.0443833954823538	0.0389976266621087	0	0	0.0566076446883714	-0.938627519055375
0.943796555086506	0.197116546730266	0	0	0.017892287828202	0.0640905563440009	0	0
0	0	-0.729411558640286	-0.534469284742592	0	0	-0.0227242934135904	-0.0375925424962193
1.9	0.00601769755049688	-0.00138847956819202	0	0	0.224127631657794	-0.92434822141506	0	0
0	0	0.0524096434836858	-0.00349864397895409	0	0	0.48454466605264	0.81025412043664
0.224127631657794	-0.92434822141506	0	0	0.0106892670191055	0.00822770159921859	0	0
0	0	-0.12419173507678	0.882641245761467	0	0	0.0348668434876707	-0.0308406741455501
2	-0.00704299070882022	-0.00239781788761762	0	0	0.925330548885709	0.250500072318188	0	0
0	0	0.0150448658817394	-0.00553718581846155	0	0	0.87024590070347	0.377577319821306
0.925330548885709	0.250500072318188	0	0	-0.0559372327807396	-0.0197697134667808	0	0
0	0	-0.829657295116352	0.304455292739837	0	0	-0.0342026780523664	0.0468882577169791
2.1	0.00632328143573594	0.00648227045502207	0	0	0.259225360389405	-0.935034046762331	0	0
0	0	-0.0300002802243651	0.00802933000888238	0	0	-0.925372318191028	0.182113643557388
0.259225360389405	-0.935034046762331	0	0	0.0728807454824606	0.00310065550250278	0	0
0	0	0.66081432376166	0.593777462130363	0	0	0.00771241294978077	0.00694152257928531
2.2	-0.00356906231760661	-0.0101307411971905	0	0	0.93835720179845	0.265593837515693	0	0
0	0	-0.0485829834152714	0.0171014937797256	0	0	-0.65036007676074	0.668441386545043
0.93835720179845	0.265593837515693	0	0	0.0123806618894108	-0.0106938029612066	0	0
0	0	-0.222249765576789	0.864523755905419	0	0	-0.00619163205149663	-0.043175491736105
2.3	-0.000960761547240797	0.0123734803779123	0	0	0.27319042779747	-0.931518031913504	0	0
0	0	-0.0306745146279683	0.0193384459082627	0	0	0.154594388429824	-0.907600877899314
0.27319042779747	-0.931518031913504	0	0	0.0506029314373105	-0.0388928211261552	0	0
0	0	0.860889174242596	-0.21328056036708	0	0	0.050602656877446	-0.062712744194325
2.4	0.00641996284559015	-0.0125556397386185	0	0	0.923111517046257	0.281185868299361	0	0
0	0	-0.000275270348335735	0.00133800330655634	0	0	-0.386252268945569	-0.840181032470322
0.923111517046257	0.281185868299361	0	0	-0.0883196226860183	0.0408723334023362	0	0
0	0	0.59429656277353	0.652211171147787	0	0	-0.0492330606201245	-0.0457115230984341
2.5	-0.0121085900792077	0.0103975744591704	0	0	0.293744429630808	-0.91620567421043	0	0
0	0	0.0195795351142604	-0.0357485593060487	0	0	0.79972644844857	0.484727557976423
0.293744429630808	-0.91620567421043	0	0	-0.0136955408894834	-0.0206301301504345	0	0
0	0	0.310643855939517	-0.81256048817132	0	0	-0.00184495188448995	-0.0112171527059118
2.6	0.0168504637942688	-0.00599994970713772	0	0	0.913181284270964	0.303713721646171	0	0
0	0	0.0183222932409086	-0.0397444504547146	0	0	0.929307226855926	-0.0743010722521568
0.913181284270964	0.303713721646171	0	0	0.000480055803900703	-0.0308134735145562	0	0
0	0	0.864269723141494	-0.0768276471716633	0	0	0.00148872485104989	-0.0632207510387987
2.7	-0.0198121147287536	-0.000315795951841824	0	0	0.315895803179433	-0.91073040752888	0	0
0	0	0.0212767210502997	-0.0107054111064658	0	0	-0.701328776491199	0.584465103716311
0.315895803179433	-0.91073040752888	0	0	0.0044635744120368	-0.0106129052698892	0	0
0	0	-0.469094460171193	-0.743595067854098	0	0	0.00486769489547822	0.027098338998554
2.8	0.0199682594846505	0.00764449631807719	0	0	0.904158203993014	0.325419617542814	0	0
0	0	0.00980680081267094	0.0120702727623344	0	0	-0.262279903073709	0.85819801128166
0.904158203993014	0.325419617542814	0	0	0.0283247666226519	0.0628823922392013	0	0
0	0	0.412907244867214	-0.781778970303046	0	0	-0.0682145501774913	-0.0082980047836148
2.9	-0.0169231610366472	-0.0149028613480677	0	0	0.337809066042157	-0.890955968308904	0	0
0	0	0.000467616829226755	0.0370231368645667	0	0	-0.242291623774212	-0.867689840443694
0.337809066042157	-0.890955968308904	0	0	-0.0345782045900784	0.051375010668632	0	0
0	0	-0.871285489426816	0.00616253848162673	0	0	-0.0313994777810751	0.0528226041181653
3	0.0111143488832852	0.0213565340683241	0	0	0.887995451147182	0.359229632077124	0	0
0	0	-0.00921690318207961	0.0292903150985722	0	0	-0.716001193679869	-0.583952952518507
0.887995451147182	0.359229632077124	0	0	-0.00537787120465858	-0.0121510543706847	0	0
0	0	-0.404741458885795	-0.761776968655164	0	0	0.0747603967616913	-0.0467987771742126
3.1	-0.00293526589765295	-0.025111173027669	0	0	0.378313160266779	-0.88315750890007	0	0
0	0	-0.0185550575739494	0.0122051063183168	0	0	0.921218655877787	0.0426531568915892
0.378313160266779	-0.88315750890007	0	0	0.0226575091864064	-0.0715856726619857	0	0
0	0	-0.502292059360373	0.711302814673588	0	0	0.0404023141929336	0.0641928995572994
3.2	-0.00623710870851607	0.0261904253348561	0	0	0.888295517177312	0.395610120172338	0	0
0	0	-0.0170979331982598	-0.00533354806805103	0	0	0.775218352508291	-0.475522331393801
0.888295517177312	0.395610120172338	0	0	0.0158178601774845	0.0256320675195464	0	0
0	0	-0.873511427262644	-0.116267400656422	0	0	0.0364494612848191	0.0473989211854682
3.3	0.0149444791222167	-0.0234089793271427	0	0	0.401394837401243	-0.888641608013232	0	0
0	0	-0.00207059633236999	-0.022363557226409	0	0	-0.377239211210723	0.823606308064599
0.401394837401243	-0.888641608013232	0	0	0.073458382816588	0.00256929384800265	0	0
0	0	0.322424796336767	0.826313318187275	0	0	-0.0735106271635552	0.0815724944715884
3.4	-0.0220696166721553	0.016931355916453	0	0	0.87582602995899	0.405395767697481	0	0
0	0	-0.00543142418248173	-0.038716760756455	0	0	0.166587423190181	0.896199931163077
0.87582602995899	0.405395767697481	0	0	-0.0983218330333853	0.0493740376683646	0	0
0	0	-0.579022053242085	0.669356214081174	0	0	-0.0186765325535712	0.0385716532156683
3.5	0.0267758106771838	-0.00844106302411553	0	0	0.417335634085946	-0.870722005984953	0	0
0	0	0.00734722796955958	-0.0290852506972319	0	0	-0.670360205468274	-0.626462115173382
0.417335634085946	-0.870722005984953	0	0	-0.0242737511139764	-0.0467566360190624	0	0
0	0	0.836715617976948	0.195313854167485	0	0	-0.109474977348696	-0.0158786417701798
3.6	-0.0282035560832767	-0.000768021883627989	0	0	0.868578291369635	0.421193175132203	0	0
0	0	0.0190725195188932	0.00218633173207664	0	0	-0.90603785690812	-0.143005487348538
0.868578291369635	0.421193175132203	0	0	-0.00201930587874944	0.0672402289418682	0	0
0	0	0.214715323617124	0.838448379102702	0	0	-0.0537758227845053	-0.00901406455998906
3.7	0.0255137219235719	0.0106143176963198	0	0	0.438323488013753	-0.853755792237391	0	0
0	0	0.0128814229112077	0.0344225758163012	0	0	0.828180957984585	-0.374488134862461
0.438323488013753	-0.853755792237391	0	0	0.119202462868152	-0.0418999199955235	0	0
0	0	0.654283118150077	-0.574884561322455	0	0	-0.0550129333081495	-0.0230335860646165
3.8	-0.0199563431217125	-0.018790616731679	0	0	0.853564684764988	0.454524197405227	0	0
0	0	0.0140151313190651	0.0483355855317919	0	0	0.451568305243629	-0.765130366523673
0.853564684764988	0.454524197405227	0	0	-0.00813941058512998	0.0260771599511199	0	0
0	0	0.818048880263976	0.29443601951908	0	0	0.0310342388862851	0.0535855640563125
3.9	0.0123212814697826	0.0234939510741405	0	0	0.454210629281867	-0.855785436554191	0	0
0	0	0.0111657170781997	0.0142860684059712	0	0	0.0785007873620883	0.880247697848508
0.454210629281867	-0.855785436554191	0	0	0.0283904136143878	0.0776431560043444	0	0
0	0	-0.141142104395765	-0.858317925790397	0	0	-0.0240407594238138	-0.00955580964002572
4	-0.00290523470061478	-0.0245902442956455	0	0	0.842014542898793	0.461368623461714	0	0
0	0	-0.015471436555045	-0.0130124855069581	0	0	0.567928996120684	0.679925929647612
0.842014542898793	0.461368623461714	0	0	0.0214039972434763	-0.0927190552177998	0	0
0	0	0.673726925158001	-0.52418792809585	0	0	0.00805058867508799	-0.00696052626838587
4.1	-0.00580051492171735	0.0221040005701823	0	0	0.465612595975079	-0.832822775210783	0	0
0	0	-0.0394907840658448	-0.0352431241137336	0	0	-0.85347071924115	-0.250126195571444
0.465612595975079	-0.832822775210783	0	0	-0.0195488221689161	-0.115801478766995	0	0
0	0	-0.760692745098209	-0.366903332962934	0	0	0.0113791914177299	-0.0862197318751351
4.2	0.0129095140378955	-0.0168538760291577	0	0	0.832420517993404	0.474511364134686	0	0
0	0	-0.0465049123757622	-0.0151863865712778	0	0	-0.844991676430044	0.274793654338097
0.832420517993404	0.474511364134686	0	0	-0.0247026666004301	0.0283198064397289	0	0
0	0	-0.0180686828873018	-0.84767884254454	0	0	-0.00479165904849932	0.040371609538534
4.3	-0.0171822587438501	0.00919653905159385	0	0	0.479854491671256	-0.830295012529092	0	0
0	0	-0.00605868638339882	0.007255341849372	0	0	0.539887251753311	-0.69718584016982
0.479854491671256	-0.830295012529092	0	0	0.0229135794446194	0.0612355773038398	0	0
0	0	-0.748592962738687	0.414521768610083	0	0	0.0144554682360046	0.000986237742203584
4.4	0.0177594059996405	-0.000275324155839885	0	0	0.818998570977302	0.488328381408276	0	0
0	0	0.0371806155605785	0.00570342669473398	0	0	0.0591435936544228	-0.883285818767769
0.818998570977302	0.488328381408276	0	0	-0.019957182874449	-0.0492066480652411	0	0
0	0	-0.715273699752304	-0.444466960387106	0	0	0.0322095562600281	0.00514060985237006
4.5	-0.0144868864638	-0.00796504919468212	0	0	0.495995427967712	-0.805415292783025	0	0
0	0	0.0631656074747621	-0.00184272483795514	0	0	0.449533597222241	0.765366146410849
0.495995427967712	-0.805415292783025	0	0	-0.0311964939573755	0.0423788081764787	0	0
0	0	-0.073075686777432	0.828651754662812	0	0	0.0945985073080879	-0.0454985862596248
4.6	0.00799241771761132	0.0142582270397272	0	0	0.793934841034919	0.511525437991823	0	0
0	0	0.0456787117087343	-0.0232411300454257	0	0	0.818671549567582	0.365119186289793
0.793934841034919	0.511525437991823	0	0	0.00321437660737248	0.0102629910560729	0	0
0	0	-0.765484799103415	0.318877859787566	0	0	0.0775581095306991	0.0188267308376595
4.7	0.000376237702163991	-0.0174991144000513	0	0	0.525671384079435	-0.794715482417829	0	0
0	0	-0.0254013615052196	-0.0061808725019382	0	0	-0.87585881757124	0.163111972249366
0.525671384079435	-0.794715482417829	0	0	0.0489758489299174	-0.0501874686915092	0	0
0	0	0.634082660285333	0.546233090207501	0	0	0.0768313104749027	-0.066429352504682
4.8	-0.00960424298886297	0.0172145644670158	0	0	0.802534490043908	0.536340672543469	0	0
0	0	-0.0602628365799901	0.0313343294918028	0	0	-0.631420697137117	0.606103254472722
0.802534490043908	0.536340672543469	0	0	0.0365041073769716	-0.0443727869156809	0	0
0	0	-0.200678626809232	0.824669656804527	0	0	0.00670602403852575	-0.0714465199658064
4.9	0.0180491345385882	-0.0127516153642717	0	0	0.541282824923116	-0.799145090499707	0	0
0	0	-0.041384946062732	0.0559178229266296	0	0	0.178091449183295	-0.85795979467493
0.541282824923116	-0.799145090499707	0	0	-0.0856757489564124	0.0140246016652697	0	0
0	0	0.813780047679791	-0.222740704495929	0	0	0.0811146801718201	-0.0102125726749717
5	-0.0236398793134366	0.00530384610204807	0	0	0.790282900788871	0.536183141591879	0	0
0	0	-0.000358897183405992	0.0186528850210564	0	0	-0.350412677272969	-0.807536932569669
0.790282900788871	0.536183141591879	0	0	-0.0218503132437104	0.0591177164234463	0	0
0	0	0.572761939563237	0.609210227081302	0	0	-0.0408187601680752	0.0141278861402232
5.1	0.0260455280149449	0.00388750540532831	0	0	0.535270091737781	-0.782895473753004	0	0
0	0	0.0404164971567829	-0.0344912601675337	0	0	0.742889545834564	0.460419448714682
0.535270091737781	-0.782895473753004	0	0	-0.0417563923600488	-0.0232558414186236	0	0
0	0	0.271578512944285	-0.777864893365447	0	0	-0.0687878863910763	0.0338270672427979
5.2	-0.0246245617918762	-0.0146795095922732	0	0	0.769267827631835	0.553825358914309	0	0
0	0	0.0184119142004326	-0.0747910310845495	0	0	0.872503116832144	-0.0375841032932131
0.769267827631835	0.553825358914309	0	0	0.0423462345369718	0.00119093649600151	0	0
0	0	0.821925699568725	-0.121141228867181	0	0	-0.0446871621837656	-0.0570841285595995
5.3	0.0191638531331374	0.0243195618321087	0	0	0.571800624336038	-0.764612953327856	0	0
0	0	-0.0121636403630014	-0.0412114805468131	0	0	-0.691876707554078	0.531792207713274
0.571800624336038	-0.764612953327856	0	0	-0.0160362324445267	0.0415982851880141	0	0
0	0	-0.488608044315466	-0.671227158934507	0	0	0.03604603023075	-0.0252865862197997
5.4	-0.010735108235021	-0.0306218907173415	0	0	0.760777130305562	0.575557923311558	0	0
0	0	-0.0314348598172862	0.015303263046112	0	0	-0.269230736683715	0.83435207028427
0.760777130305562	0.575557923311558	0	0	0.104821222898814	0.0391918120428354	0	0
0	0	0.371627343822807	-0.741929681841652	0	0	0.000454296775905517	-0.0227812532405624
5.5	0.000775712180529946	0.0336448069687318	0	0	0.580810406990896	-0.766070749443757	0	0
0	0	0.0212518430747387	0.0619886178019163	0	0	-0.243611074223272	-0.841628140581537
0.580810406990896	-0.766070749443757	0	0	-0.0226636958062239	-0.0149538984960733	0	0
0	0	-0.828934429300516	0.0291792694785598	0	0	-0.0366088237082572	-0.0223021305091063
5.6	0.010260704787691	-0.0321394734388894	0	0	0.757678010902677	0.586841892208581	0	0
0	0	0.0401064534877355	0.0586775683302795	0	0	-0.671239526718387	-0.539333530862353
0.757678010902677	0.586841892208581	0	0	-0.06081716120003	-0.0872919585355808	0	0
0	0	-0.398956902522075	-0.719055020930735	0	0	-0.0689848894151307	-0.0937606618081331
5.7	-0.0205455874465889	0.0267758959620833	0	0	0.598893709015425	-0.754306702625941	0	0
0	0	0.0189810036598	-0.00679025868120741	0	0	0.862279329957629	0.0691069518399839
0.598893709015425	-0.754306702625941	0	0	0.0204435931247674	0.053866725700605	0	0
0	0	-0.464290440584039	0.698727969443861	0	0	-0.0674634101820226	0.00587233696761434
5.8	0.0271442489672462	-0.0176613614357929	0	0	0.7410032272621	0.600463565826468	0	0
0	0	-0.0233039924355129	-0.0338680761681995	0	0	0.755701917412417	-0.420947104406087
0.7410032272621	0.600463565826468	0	0	0.0346810598464336	-0.0517021653087905	0	0
0	0	-0.831218498744512	-0.0593808637003929	0	0	-0.0597772883788588	-0.0197356882696921
5.9	-0.0301386304139011	0.00639307494008618	0	0	0.614126856924048	-0.727912266094482	0	0
0	0	-0.0574469681805847	-0.0309201626252826	0	0	-0.387903496477639	0.770571779034104
0.614126856924048	-0.727912266094482	0	0	-0.0295858263884005	0.0835806158035946	0	0
0	0	0.343567504382366	0.751239510742096	0	0	-0.0759866456139668	-0.0248749298601294
6	0.0289089725165013	0.00482991028623412	0	0	0.719172784018287	0.629341944231102	0	0
0	0	-0.0345750836622713	0.0023010267563166	0	0	0.144891456982972	0.855057782370013
0.719172784018287	0.629341944231102	0	0	0.0175929405895758	0.0260824708442183	0	0
0	0	-0.507915227245309	0.638567085242177	0	0	0.0162155670498286	-0.0964785328880659
6.1	-0.0231508510473382	-0.014200130006197	0	0	0.639604441985723	-0.708669172135273	0	0
0	0	0.0157287488593354	0.0100916842794975	0	0	-0.611257709317695	-0.618182050340459
0.639604441985723	-0.708669172135273	0	0	0.0235480594470707	-0.101704709002549	0	0
0	0	0.811646532565701	0.177864512800839	0	0	-0.030692741841099	-0.0298508458192431
6.2	0.0142560694052449	0.0201100375245044	0	0	0.697900192372625	0.650402623977855	0	0
0	0	0.03935823648796	-0.0140334832972813	0	0	-0.847308633768471	-0.177536912355519
0.697900192372625	0.650402623977855	0	0	0.00505923595562681	0.00377626310419872	0	0
0	0	0.239110218928938	0.788444479547813	0	0	-0.00606422511091577	0.054781564279255
6.3	-0.00408220735116369	-0.0219373334913367	0	0	0.660964749250734	-0.69246253653193	0	0
0	0	0.044396941803613	-0.0120625306868248	0	0	0.802535127361529	-0.32362971537449
0.660964749250734	-0.69246253653193	0	0	-0.0170197258278726	0.0312809962120069	0	0
0	0	0.586469677175428	-0.583471658117343	0	0	0.0136317157426545	-0.00978511623403623
6.4	-0.00565120397286377	0.0195138165460885	0	0	0.694616054827253	0.669221870992354	0	0
0	0	0.0122066888912927	0.00882849124352702	0	0	0.460863698739003	-0.728187564715564
0.694616054827253	0.669221870992354	0	0	-0.0169842759929762	-0.0522149930741083	0	0
0	0	0.785027347983846	0.259832906238448	0	0	0.0462285092059461	-0.0523302432691852
6.5	0.0133160248789301	-0.0130958633064556	0	0	0.672614577338645	-0.693345927752722	0	0
0	0	-0.0146808669958368	0.0243831985918371	0	0	0.0315865186422077	0.868460492437652
0.672614577338645	-0.693345927752722	0	0	0.00570432605783355	0.00573757517787894	0	0
0	0	-0.121974392541633	-0.809175621026031	0	0	0.0603197414344545	-0.0335953869920003
6.6	-0.0174233199947277	0.00389421922142094	0	0	0.685809958887123	0.670656852990261	0	0
0	0	-0.013699393716292	0.0265796200684127	0	0	0.503162214894258	0.711052184939253
0.685809958887123	0.670656852990261	0	0	-0.042751845422682	0.0490884014084948	0	0
0	0	0.656018617028942	-0.484780736924297	0	0	0.074424693391828	-0.0104024869028909
6.7	0.0172299538018853	0.00635019398102466	0	0	0.67460370537203	-0.672558050414318	0	0
0	0	-0.0298064552895729	-0.000480557075310452	0	0	-0.815430510128388	-0.28912564051076
0.67460370537203	-0.672558050414318	0	0	0.0263715614192723	0.032545547927807	0	0
0	0	-0.73698060464581	-0.362362761871379	0	0	0.0554027899340066	-0.00552548676075128
6.8	-0.0122763991399048	-0.0157656444874342	0	0	0.652673069046759	0.68376190099649	0	0
0	0	-0.0295257935945696	-0.0152245456167867	0	0	-0.819527109721571	0.237060996010922
0.652673069046759	0.68376190099649	0	0	0.0952897876138424	-0.0500657585698749	0	0
