# Hz S RI R 50
5e+10  0.03441  -0.02024  0.02771  0.3568  -0.1062  0.3145  -0.01143  0.02601
5.01e+10  -0.02877  0.02503  0.3538  0.07324  0.2296  0.2295  0.01276  -0.01295
5.02e+10  0.004599  -0.03713  0.1918  -0.3122  0.2939  -0.1207  0.005767  0.01862
5.03e+10  0.01225  0.03596  -0.2207  -0.2967  -0.00533  -0.3124  0.00336  -0.02011
5.04e+10  -0.03561  -0.03162  -0.3576  0.1113  -0.2827  -0.1189  0.009987  0.0102
5.05e+10  0.03307  0.01961  0.003915  0.3825  -0.2296  0.1956  -0.003664  -0.02488
5.06e+10  -0.03672  0.01461  0.3726  0.1078  0.07334  0.289  -0.006269  0.004193
5.07e+10  0.03774  -0.02309  0.2308  -0.3137  0.2919  0.04518  -0.01549  -0.01449
5.08e+10  -0.0163  0.02915  -0.2074  -0.3356  0.1496  -0.2504  -0.001801  0.02621
5.09e+10  -0.002889  -0.03136  -0.3864  0.08811  -0.1616  -0.2385  0.0001336  -0.01646
5.1e+10  0.01689  0.03072  -0.02918  0.3978  -0.2809  0.03362  0.00566  0.02049
5.11e+10  -0.02031  -0.0106  0.3677  0.1578  -0.08907  0.2639  -0.01061  -0.02442
5.12e+10  0.03353  -0.002449  0.2898  -0.277  0.2075  0.1806  0.006822  0.02911
5.13e+10  -0.023  0.01479  -0.1368  -0.3785  0.239  -0.1256  -0.01141  -0.02365
5.14e+10  0.02178  -0.03022  -0.4046  -0.0009781  -0.01333  -0.2649  0.01073  0.03046
5.15e+10  -0.005459  0.03222  -0.1236  0.3878  -0.2357  -0.1098  -0.00704  -0.02266
5.16e+10  -0.00415  -0.04314  0.3318  0.2491  -0.2  0.1587  0.009427  0.02498
5.17e+10  0.01607  0.03582  0.3614  -0.2005  0.06944  0.2434  -0.002003  -0.02175
5.18e+10  -0.02556  -0.03694  -0.03387  -0.4068  0.2494  0.02501  0.001951  0.02209
5.19e+10  0.02926  0.02014  -0.3871  -0.1199  0.1216  -0.2155  0.005749  -0.0204
5.2e+10  -0.03906  -0.01542  -0.2406  0.3219  -0.1354  -0.2018  0.000173  0.02301
5.21e+10  0.02664  0.006302  0.2231  0.3347  -0.2354  0.02634  0.01212  -0.03632
5.22e+10  -0.02115  0.007505  0.3942  -0.08912  -0.07961  0.2166  -0.0165  0.02549
5.23e+10  0.00949  -0.01228  0.07244  -0.398  0.1571  0.1609  0.008925  -0.03699
5.24e+10  0.0002644  0.01482  -0.3357  -0.2248  0.2096  -0.06833  -0.01992  0.03462
5.25e+10  -0.01161  -0.00484  -0.3342  0.2257  0.0363  -0.2132  0.005402  -0.03627
5.26e+10  0.02767  0.002052  0.08207  0.3904  -0.1651  -0.1327  -0.02285  0.04537
5.27e+10  -0.02775  -0.002479  0.3909  0.07146  -0.1944  0.07626  0.01852  -0.009162
5.28e+10  0.02586  -0.01136  0.2054  -0.3382  -0.03179  0.2045  0.001447  0.03336
5.29e+10  -0.03416  0.01936  -0.2306  -0.3096  0.1599  0.1312  0.03169  -0.03127
5.3e+10  0.03586  -0.01738  -0.373  0.09017  0.1949  -0.0747  -0.02236  0.01064
5.31e+10  -0.03051  0.02085  -0.06785  0.3736  0.02961  -0.2088  0.03052  -0.01557
5.32e+10  0.02964  -0.02564  0.3109  0.2131  -0.1717  -0.1302  -0.02956  -0.004119
5.33e+10  -0.02697  0.02871  0.3148  -0.1941  -0.2026  0.08871  0.02657  -0.005961
5.34e+10  0.02843  -0.02945  -0.045  -0.3622  -0.02017  0.2275  -0.04254  -0.00827
5.35e+10  -0.02022  0.024  -0.3423  -0.114  0.2003  0.127  0.03103  0.01718
5.36e+10  0.01171  -0.02693  -0.2472  0.2521  0.2108  -0.128  -0.03637  -0.02026
5.37e+10  -0.00457  0.02213  0.1181  0.3255  -0.0177  -0.2547  0.02351  0.02966
5.38e+10  -0.0008575  -0.02106  0.3383  0.03277  -0.2423  -0.1026  -0.02598  -0.0191
5.39e+10  0.004115  0.0007008  0.1717  -0.2897  -0.2071  0.1705  0.02891  0.0388
5.4e+10  -0.02667  0.007659  -0.1821  -0.2774  0.05818  0.2675  -0.002711  -0.03907
5.41e+10  0.023  -0.009093  -0.3265  0.03722  0.2711  0.06841  0.002786  0.02685
5.42e+10  -0.02594  0.02683  -0.113  0.305  0.1846  -0.2147  0.00487  -0.03121
5.43e+10  0.0254  -0.03168  0.2203  0.2371  -0.1073  -0.2658  -0.01144  0.02057
5.44e+10  -0.02681  0.0476  0.3089  -0.093  -0.2858  -0.02974  0.01489  -0.02569
5.45e+10  0.03504  -0.03864  0.05489  -0.3221  -0.1613  0.2386  -0.03538  0.009285
5.46e+10  -0.01265  0.03749  -0.2656  -0.1969  0.1385  0.2554  0.01887  0.00483
5.47e+10  0.01479  -0.05096  -0.2979  0.1366  0.2922  -0.007801  -0.02605  0.008078
5.48e+10  -0.01554  0.0356  -0.02451  0.3251  0.1321  -0.2621  0.03332  0.01594
5.49e+10  0.001767  -0.02999  0.2733  0.1739  -0.1695  -0.2429  -0.0157  -0.01877
5.5e+10  0.007704  0.02078  0.2752  -0.1642  -0.2961  0.02643  0.01727  0.02292
5.51e+10  -0.01981  -0.01964  -0.02767  -0.3176  -0.1285  0.268  -0.0009072  -0.0273
5.52e+10  0.01858  0.009225  -0.2981  -0.1163  0.1666  0.2456  -9.737e-05  0.02083
5.53e+10  -0.03177  0.002048  -0.2386  0.2139  0.2954  -0.0218  0.009386  -0.02762
5.54e+10  0.03294  -0.00631  0.08415  0.3092  0.133  -0.2642  -0.01799  0.01766
5.55e+10  -0.04341  0.01321  0.3148  0.06164  -0.1546  -0.2521  0.02059  -0.0185
5.56e+10  0.04118  -0.007389  0.1974  -0.254  -0.295  -0.001664  -0.02952  0.006739
5.57e+10  -0.03967  0.02079  -0.1298  -0.2969  -0.1484  0.2562  0.02014  -0.00376
5.58e+10  0.04987  -0.0207  -0.3216  -0.03693  0.1505  0.2549  -0.033  0.00302
5.59e+10  -0.05071  0.01594  -0.196  0.2629  0.2958  0.003145  0.02598  0.01903
5.6e+10  0.04697  -0.01414  0.1446  0.2998  0.1607  -0.2468  -0.01458  -0.01514
5.61e+10  -0.04694  0.01974  0.3369  0.0006494  -0.124  -0.2642  0.01381  0.02385
5.62e+10  0.04994  -0.01301  0.1537  -0.3025  -0.2882  -0.0284  0.001477  -0.02431
5.63e+10  -0.04011  0.008732  -0.1895  -0.2832  -0.1682  0.2336  -0.005041  0.02291
5.64e+10  0.03304  -0.007108  -0.3383  0.02144  0.1142  0.2625  0.01925  -0.02125
5.65e+10  -0.02062  0.01084  -0.1447  0.3042  0.2847  0.04189  -0.02075  0.008926
5.66e+10  0.01984  -0.01332  0.1961  0.2724  0.1887  -0.221  0.02151  -0.01012
5.67e+10  -0.002306  0.005802  0.335  -0.03811  -0.09085  -0.278  -0.03029  0.002232
5.68e+10  -0.01506  -0.02356  0.1346  -0.3109  -0.2875  -0.06709  0.02642  0.01316
5.69e+10  0.01087  0.02979  -0.2051  -0.2734  -0.2089  0.2131  -0.01485  -0.01501
5.7e+10  -0.02394  -0.03041  -0.3415  0.04699  0.06929  0.2917  0.01754  0.01787
5.71e+10  0.03037  0.04505  -0.1317  0.3195  0.2874  0.09339  -0.003152  -0.03037
5.72e+10  -0.02632  -0.0518  0.2046  0.2832  0.2276  -0.2014  -0.008353  0.01836
5.73e+10  0.02255  0.05657  0.3521  -0.02481  -0.05851  -0.2999  0.008491  -0.01808
5.74e+10  -0.01695  -0.05683  0.163  -0.3166  -0.2872  -0.1092  -0.01741  0.008336
5.75e+10  0.01437  0.05934  -0.19  -0.3038  -0.2481  0.1843  0.01173  -0.004729
5.76e+10  -0.005053  -0.0612  -0.3604  0.0004615  0.02439  0.3096  -0.0181  -0.0024
5.77e+10  -0.003337  0.05705  -0.1982  0.3061  0.2787  0.141  0.005437  0.01402
5.78e+10  0.008408  -0.04916  0.1555  0.3328  0.2704  -0.1597  -0.001095  -0.01094
5.79e+10  -0.004902  0.04219  0.3679  0.03333  0.02294  -0.3152  -0.008887  0.01696
5.8e+10  0.004652  -0.04433  0.2126  -0.3038  -0.2454  -0.2022  0.0137  -0.005551
5.81e+10  -0.01083  0.03417  -0.1465  -0.3434  -0.3055  0.09473  -0.01416  0.01477
5.82e+10  -0.005246  -0.02234  -0.3711  -0.06446  -0.08228  0.3102  0.03485  -0.0005125
5.83e+10  0.01498  0.03296  -0.2517  0.2803  0.2148  0.2421  -0.01707  -0.01587
5.84e+10  -0.01188  -0.02983  0.1209  0.3596  0.324  -0.02994  0.01768  0.007102
5.85e+10  0.02298  0.0273  0.3747  0.06753  0.1714  -0.2787  -0.01343  -0.02005
5.86e+10  -0.02911  -0.03065  0.2547  -0.2844  -0.1353  -0.2997  0.005886  0.0127
5.87e+10  0.03826  0.04042  -0.09211  -0.369  -0.3277  -0.04287  -0.002194  -0.02465
5.88e+10  -0.0228  -0.0536  -0.3605  -0.1259  -0.2186  0.25  -0.02272  0.0073
5.89e+10  0.01962  0.03744  -0.2889  0.2542  0.06956  0.327  0.002154  0.006895
5.9e+10  -0.03  -0.05307  0.08868  0.3716  0.2993  0.1509  -0.01354  0.006367
5.91e+10  0.004832  0.05836  0.3674  0.1082  0.3035  -0.1435  0.01688  0.01963
5.92e+10  -0.005165  -0.0413  0.2866  -0.2564  0.05982  -0.3313  0.001038  -0.01712
5.93e+10  0.006949  0.04304  -0.06362  -0.3788  -0.2368  -0.2403  0.0005356  0.01907
5.94e+10  -0.007997  -0.03982  -0.3569  -0.1391  -0.3347  0.04431  0.01201  -0.01496
5.95e+10  0.004038  0.04463  -0.2974  0.2405  -0.1742  0.2895  -0.005558  0.004811
5.96e+10  -0.002177  -0.03332  0.0586  0.3788  0.1191  0.3152  0.01425  -0.007675
5.97e+10  0.01494  0.03865  0.3525  0.1466  0.3231  0.09231  -0.0125  -0.01286
5.98e+10  -0.008242  -0.04675  0.3098  -0.2206  0.2645  -0.207  -0.0008484  0.01016
5.99e+10  0.005402  0.04921  -0.02797  -0.3785  -0.01013  -0.3342  0.002856  -0.01548
6e+10  0.005526  -0.0498  -0.3371  -0.1737  -0.2746  -0.1901  -0.01766  0.006901
6.01e+10  -0.001621  0.04636  -0.3256  0.1958  -0.3138  0.1119  0.009319  -0.004685
6.02e+10  0.01438  -0.06248  -0.009643  0.3765  -0.08729  0.3179  -0.03059  0.007337
6.03e+10  -0.03856  0.04578  0.309  0.2138  0.2081  0.2511  0.02531  0.023
6.04e+10  0.0297  -0.03817  0.348  -0.1446  0.3247  -0.02926  -0.01264  -0.01458
6.05e+10  -0.04143  0.04161  0.06841  -0.3667  0.1556  -0.2844  0.02077  0.02427
6.06e+10  0.04828  -0.02793  -0.2669  -0.258  -0.1477  -0.2857  -0.003954  -0.03038
6.07e+10  -0.05262  0.0185  -0.3574  0.08211  -0.3149  -0.03788  -0.001443  0.03033
6.08e+10  0.04456  -0.001853  -0.1177  0.3443  -0.2038  0.2377  0.02291  -0.02571
6.09e+10  -0.03287  0.009505  0.2355  0.2733  0.08516  0.2995  -0.02195  5.344e-05
6.1e+10  0.03886  -0.006433  0.3517  -0.05609  0.3002  0.08254  0.0158  -0.001333
6.11e+10  -0.02213  -0.003478  0.1477  -0.3219  0.2167  -0.2233  -0.02604  -0.01682
6.12e+10  0.003565  -0.009948  -0.192  -0.2941  -0.0868  -0.3028  0.002757  0.03529
6.13e+10  -0.00182  0.02478  -0.3476  0.01963  -0.3082  -0.09187  0.00902  -0.02732
6.14e+10  0.0007004  -0.02987  -0.1475  0.3136  -0.259  0.203  -0.01859  0.03193
6.15e+10  0.002588  0.04184  0.2007  0.2814  0.01234  0.335  0.03378  -0.01915
6.16e+10  0.009617  -0.05455  0.3449  -0.023  0.2801  0.1924  -0.03522  0.007713
6.17e+10  -0.02828  0.05825  0.169  -0.3067  0.3173  -0.1141  0.03863  0.008916
6.18e+10  0.0507  -0.04788  -0.1776  -0.316  0.1007  -0.3168  -0.02391  -0.02351
6.19e+10  -0.06186  0.02852  -0.3795  -0.0008066  -0.1653  -0.2798  0.01166  0.02586
6.2e+10  0.06963  -0.006106  -0.1923  0.3428  -0.302  -0.08241  0.008223  -0.02568
6.21e+10  -0.06523  -0.02029  0.1959  0.3485  -0.2587  0.1493  -0.01898  0.008213
6.22e+10  0.04869  0.04496  0.3973  0.04682  -0.0523  0.2774  0.01994  0.00309
6.23e+10  -0.01785  -0.05178  0.2821  -0.2824  0.1782  0.1999  -0.01781  -0.0227
6.24e+10  0.004311  0.04223  -0.0533  -0.3936  0.254  -0.01818  -0.003599  0.03096
6.25e+10  0.007952  -0.04123  -0.3529  -0.1765  0.1441  -0.2009  0.01192  -0.02472
6.26e+10  -0.02019  0.0262  -0.3427  0.1921  -0.06194  -0.2306  -0.0241  0.02795
6.27e+10  0.01353  -0.0129  -0.04302  0.3912  -0.2139  -0.0894  0.04134  -0.007805
6.28e+10  -0.005643  0.01444  0.2864  0.2671  -0.1952  0.1156  -0.03184  -0.01141
6.29e+10  0.005313  -0.01555  0.3801  -0.07706  -0.02794  0.2222  0.02773  0.02039
6.3e+10  -0.001269  0.01801  0.1413  -0.3567  0.1522  0.1619  -0.01112  -0.03351
6.31e+10  0.00236  -0.02421  -0.2268  -0.3042  0.2208  -0.01185  -0.005933  0.02717
6.32e+10  -0.00623  0.03136  -0.3776  0.02133  0.1248  -0.1802  0.0195  -0.02314
6.33e+10  0.02232  -0.03248  -0.2019  0.3172  -0.07283  -0.205  -0.03172  -0.001428
6.34e+10  -0.02685  0.01966  0.1443  0.3481  -0.2085  -0.06552  0.01385  0.01573
6.35e+10  0.0307  -0.02184  0.3673  0.06672  -0.1822  0.121  -0.01485  -0.01483
6.36e+10  -0.04307  0.00855  0.2555  -0.2702  -0.02293  0.2163  0.0008527  0.03456
6.37e+10  0.03488  0.007363  -0.0813  -0.3647  0.1546  0.151  0.02574  -0.01936
6.38e+10  -0.02839  -0.009451  -0.3489  -0.131  0.2134  -0.03047  -0.02399  0.003685
6.39e+10  0.02441  0.0143  -0.3001  0.2174  0.1061  -0.1869  0.02633  0.005671
6.4e+10  -0.0184  -0.01615  0.0169  0.3701  -0.08001  -0.1991  -0.01182  -0.0206
6.41e+10  0.01323  0.01629  0.3143  0.1968  -0.2058  -0.0574  0.000154  0.02236
6.42e+10  -0.00974  -0.01146  0.3437  -0.1415  -0.1681  0.1304  0.01977  -0.02459
6.43e+10  0.01567  0.01021  0.08404  -0.3606  0.004489  0.2129  -0.03414  0.0003721
6.44e+10  -0.01532  -0.0184  -0.2475  -0.273  0.172  0.1268  0.02496  0.01528
6.45e+10  0.01071  0.02164  -0.3628  0.05654  0.2067  -0.05504  -0.01908  -0.02676
6.46e+10  -0.005924  -0.02573  -0.1531  0.3324  0.08514  -0.1957  0.0009938  0.03211
6.47e+10  0.0007521  0.02899  0.1868  0.3154  -0.1052  -0.1842  0.006924  -0.02731
6.48e+10  0.0112  -0.03819  0.3639  0.02863  -0.2084  -0.02433  -0.02365  0.02399
6.49e+10  -0.0319  0.02917  0.2319  -0.2837  -0.146  0.1492  0.02398  0.009699
6.5e+10  0.02825  -0.0172  -0.1093  -0.3529  0.02666  0.2063  0.006109  -0.01208
6.51e+10  -0.03405  0.01694  -0.3521  -0.1121  0.1805  0.09976  -0.002243  0.01579
6.52e+10  0.03728  0.001319  -0.2995  0.2148  0.1855  -0.08843  0.02871  -0.03137
6.53e+10  -0.02723  -0.009966  -0.006669  0.3695  0.03485  -0.2035  -0.03574  0.007945
6.54e+10  0.01947  0.0152  0.3005  0.2104  -0.142  -0.1537  0.03302  -0.004084
6.55e+10  -0.009867  -0.009546  0.3394  -0.1406  -0.2114  0.0129  -0.01982  -0.02605
6.56e+10  0.01632  0.007614  0.07496  -0.3599  -0.1223  0.1781  -0.009173  0.01355
6.57e+10  -0.006727  -0.0119  -0.2455  -0.2773  0.07471  0.207  0.001039  -0.02401
6.58e+10  0.009036  -0.006302  -0.3694  0.035  0.216  0.06519  -0.04395  0.02276
6.59e+10  -0.02822  0.0007722  -0.1816  0.3223  0.1911  -0.1328  0.03577  0.0164
6.6e+10  0.02755  0.01028  0.1621  0.337  0.01812  -0.2426  -0.02823  -0.01395
6.61e+10  -0.03143  -0.0168  0.371  0.06184  -0.1824  -0.1723  0.01922  0.03435
6.62e+10  0.02691  0.03118  0.2706  -0.2617  -0.2578  0.03658  0.001405  -0.02578
6.63e+10  -0.01908  -0.04403  -0.05347  -0.3706  -0.1391  0.2309  -0.007652  0.02796
6.64e+10  -0.005875  0.05685  -0.3321  -0.1669  0.08133  0.2668  0.02934  -0.007157
6.65e+10  0.03048  -0.0424  -0.3244  0.1855  0.2569  0.1312  -0.008848  -0.0131
6.66e+10  -0.04009  0.0304  -0.02312  0.3733  0.2798  -0.0923  0.005004  0.008447
6.67e+10  0.05174  -0.009615  0.2936  0.2297  0.1265  -0.269  0.01141  -0.01797
6.68e+10  -0.04648  -0.01095  0.3565  -0.1029  -0.1133  -0.2745  -0.02103  -0.002907
6.69e+10  0.03831  0.03102  0.123  -0.3486  -0.2812  -0.09248  0.0191  0.004126
6.7e+10  -0.009856  -0.03421  -0.2108  -0.3045  -0.2537  0.1455  -0.01941  -0.03388
6.71e+10  0.009876  0.02182  -0.371  -0.003839  -0.05903  0.2829  -0.02234  0.0273
6.72e+10  -0.00264  -0.02998  -0.2226  0.2935  0.1792  0.2249  0.01006  -0.007961
6.73e+10  -0.006388  0.0156  0.1057  0.3527  0.2853  0.006244  -0.02605  0.01393
6.74e+10  -0.004843  -0.01197  0.3511  0.1114  0.1915  -0.21  0.02154  0.01934
6.75e+10  0.008719  0.01825  0.2891  -0.2267  -0.03687  -0.2822  0.000304  -0.01827
6.76e+10  -0.007359  -0.02796  -0.02452  -0.3662  -0.2418  -0.1529  -0.01426  0.01843
6.77e+10  -0.001125  0.03152  -0.3124  -0.1918  -0.2717  0.09277  0.02535  0.002741
6.78e+10  0.004676  -0.03449  -0.3334  0.1542  -0.1065  0.2697  -0.01487  -0.01208
6.79e+10  -0.01587  0.03997  -0.04064  0.365  0.1268  0.263  0.01275  0.02057
6.8e+10  0.03372  -0.03421  0.2857  0.2286  0.2813  0.08298  0.007103  -0.03187
6.81e+10  -0.04013  0.01526  0.3537  -0.1012  0.2431  -0.1646  -0.03131  0.01684
6.82e+10  0.03572  -0.008114  0.132  -0.3438  0.01756  -0.2928  0.02623  0.0009425
6.83e+10  -0.04276  -0.002948  -0.208  -0.304  -0.2149  -0.2005  -0.02994  -0.003802
6.84e+10  0.03248  0.02118  -0.3696  0.01785  -0.2949  0.02198  0.01902  0.02757
6.85e+10  -0.02006  -0.02219  -0.1839  0.3217  -0.1824  0.2338  0.005192  -0.01683
6.86e+10  0.01371  0.02362  0.1474  0.3386  0.07139  0.288  -0.009267  0.01018
6.87e+10  -0.00747  -0.02226  0.3555  0.09887  0.2748  0.1115  0.01952  0.009713
6.88e+10  0.004613  0.02255  0.2894  -0.2301  0.2606  -0.1456  -0.002078  -0.02216
6.89e+10  -0.0003965  -0.0218  -0.03929  -0.3677  0.06826  -0.2929  -0.005393  0.02821
6.9e+10  0.0007586  0.02269  -0.3284  -0.167  -0.1715  -0.2489  0.03463  -0.02497
6.91e+10  0.004983  -0.02956  -0.3292  0.1587  -0.3013  -0.02312  -0.03866  -0.001978
6.92e+10  -0.0176  0.03039  -0.08619  0.3526  -0.1986  0.231  0.03867  0.01653
6.93e+10  0.03007  -0.02399  0.2268  0.2793  0.05839  0.3023  -0.02021  -0.0417
6.94e+10  -0.03652  0.01224  0.3554  -0.03762  0.2635  0.165  -0.005609  0.03442
6.95e+10  0.04435  -0.002465  0.1542  -0.3181  0.3018  -0.07094  0.01715  -0.03093
6.96e+10  -0.04657  -0.02614  -0.1678  -0.3081  0.15  -0.2671  -0.03824  0.006956
6.97e+10  0.01936  0.04204  -0.3416  -0.06694  -0.1137  -0.2838  0.01814  0.02127
6.98e+10  -0.005903  -0.03764  -0.2678  0.2252  -0.2923  -0.09156  -0.003472  -0.01622
6.99e+10  -0.01003  0.04031  0.0262  0.3473  -0.263  0.1563  -0.006831  0.02143
7e+10  0.0279  -0.02454  0.2969  0.1822  -0.06001  0.299  0.0267  -0.004939
7.01e+10  -0.02578  0.006335  0.3255  -0.1221  0.1915  0.2354  -0.0194  -0.01933
7.02e+10  0.01591  -0.0004174  0.1099  -0.3269  0.3017  -0.004483  0.002465  0.02932
7.03e+10  -0.009617  0.003353  -0.195  -0.2805  0.1931  -0.2282  0.02016  -0.02589
7.04e+10  0.01079  -0.009395  -0.338  0.006347  -0.02797  -0.2957  -0.03041  0.005833
7.05e+10  -0.01483  0.007731  -0.1861  0.2767  -0.2343  -0.1802  0.03161  0.007745
7.06e+10  0.01605  -0.01494  0.09928  0.3134  -0.2859  0.06497  -0.03066  -0.03333
7.07e+10  -0.03942  0.007725  0.2978  0.1245  -0.1272  0.2628  -0.006503  0.04651
7.08e+10  0.03403  0.01868  0.2781  -0.1617  0.1118  0.2687  0.02025  -0.01824
7.09e+10  -0.02855  -0.0223  0.01592  -0.3189  0.267  0.11  -0.0194  0.01827
7.1e+10  0.02008  0.04161  -0.2492  -0.1931  0.2628  -0.1174  0.032  0.006923
7.11e+10  0.002944  -0.04452  -0.3048  0.06581  0.0729  -0.2776  -0.006558  -0.01892
7.12e+10  -0.0244  0.04191  -0.1539  0.2686  -0.1767  -0.2247  -0.001538  0.02101
7.13e+10  0.04203  -0.01776  0.1136  0.287  -0.2836  -0.01317  0.02845  -0.007958
7.14e+10  -0.03741  0.001805  0.3035  0.06492  -0.2098  0.1904  -0.008717  -0.01572
7.15e+10  0.03891  0.01284  0.222  -0.2129  -0.009832  0.2832  0.01085  0.008062
7.16e+10  -0.02408  -0.02882  -0.02044  -0.3068  0.2136  0.1868  0.006894  -0.02933
7.17e+10  0.008217  0.03111  -0.2391  -0.1939  0.2774  -0.06189  -0.02554  0.004063
7.18e+10  0.007905  -0.02288  -0.3022  0.05644  0.1282  -0.253  0.02615  0.00315
7.19e+10  -0.004681  0.01011  -0.1253  0.2814  -0.08889  -0.2695  -0.01978  -0.03594
7.2e+10  0.00291  -0.01467  0.1664  0.2596  -0.2534  -0.1315  -0.0178  0.02011
7.21e+10  -0.008843  0.008144  0.307  0.03221  -0.2679  0.1059  0.003554  -0.008178
7.22e+10  -0.003739  -0.006448  0.2317  -0.204  -0.07894  0.2773  -0.02642  0.005934
7.23e+10  -0.0003673  0.02622  -0.0148  -0.3118  0.1599  0.2402  0.01191  0.03328
7.24e+10  0.0205  -0.02117  -0.2679  -0.1661  0.282  0.06289  0.01911  -0.02103
7.25e+10  -0.02389  0.01568  -0.2849  0.139  0.2523  -0.1434  -0.02298  0.01242
7.26e+10  0.03711  -0.005004  -0.05679  0.3148  0.07321  -0.2817  0.03458  0.008149
7.27e+10  -0.03328  -0.01102  0.2002  0.2502  -0.173  -0.236  -0.0132  -0.02298
7.28e+10  0.03352  0.02779  0.3184  0.01847  -0.2924  -0.0148  0.01139  0.02588
7.29e+10  -0.003185  -0.04373  0.2113  -0.2378  -0.2127  0.2026  0.02644  -0.03406
7.3e+10  -0.008597  0.02542  -0.07859  -0.3114  -0.0162  0.2952  -0.02657  -0.01294
7.31e+10  0.01429  -0.03085  -0.3027  -0.11  0.1955  0.2254  0.007407  0.002697
7.32e+10  -0.03022  0.01432  -0.2796  0.1618  0.3012  -0.001272  -0.01051  -0.02433
7.33e+10  0.0251  -0.002112  -0.0547  0.3192  0.2011  -0.2269  -0.02352  0.01305
7.34e+10  -0.01947  -0.006672  0.2208  0.2358  -0.02108  -0.3054  0.01949  0.002003
7.35e+10  0.01476  0.001188  0.3221  -0.04019  -0.2328  -0.2027  -0.0247  -0.02662
7.36e+10  -0.02327  -0.009681  0.1652  -0.2809  -0.3099  0.03072  -0.0157  0.03432
7.37e+10  0.01359  0.01701  -0.1099  -0.3089  -0.1829  0.2574  0.0208  -0.01504
7.38e+10  -0.01256  -0.02011  -0.3097  -0.1122  0.07272  0.3104  -0.0378  0.006296
7.39e+10  0.004889  0.02731  -0.2788  0.1793  0.2784  0.1619  0.03031  0.02596
7.4e+10  0.005726  -0.03542  -0.02772  0.3313  0.3119  -0.09408  -0.01138  -0.03689
7.41e+10  -0.03237  0.02994  0.2332  0.2333  0.1341  -0.3  -0.01935  0.04042
7.42e+10  0.04172  -0.005805  0.3243  -0.01793  -0.1488  -0.2979  0.03937  -0.01162
