# Hz S RI R 50
5e+10  0.03435  -0.02021  0.02821  0.3567  -0.1056  0.3145  -0.01132  0.02606
5.01e+10  -0.02871  0.02501  0.3538  0.07276  0.2298  0.2289  0.01269  -0.01294
5.02e+10  0.004588  -0.03707  0.1913  -0.3123  0.2935  -0.1212  0.005871  0.01863
5.03e+10  0.01227  0.03591  -0.2211  -0.2964  -0.005796  -0.3122  0.003309  -0.02012
5.04e+10  -0.03562  -0.03159  -0.3574  0.1117  -0.2828  -0.1184  0.01004  0.01017
5.05e+10  0.03305  0.01959  0.00435  0.3824  -0.2292  0.1959  -0.003739  -0.02486
5.06e+10  -0.0367  0.01462  0.3726  0.1073  0.07386  0.2888  -0.006235  0.004175
5.07e+10  0.03772  -0.02308  0.2304  -0.3139  0.2919  0.04458  -0.01553  -0.01447
5.08e+10  -0.01631  0.02916  -0.2077  -0.3353  0.149  -0.2507  -0.001695  0.02621
5.09e+10  -0.002898  -0.03133  -0.3861  0.08856  -0.162  -0.2381  3.221e-05  -0.01646
5.1e+10  0.01686  0.03072  -0.02878  0.3978  -0.2808  0.03418  0.005736  0.02046
5.11e+10  -0.02029  -0.01061  0.3679  0.1573  -0.08851  0.264  -0.01071  -0.02439
5.12e+10  0.03349  -0.002452  0.2895  -0.2772  0.2078  0.1801  0.00694  0.02909
5.13e+10  -0.02298  0.01476  -0.1371  -0.3783  0.2387  -0.126  -0.0115  -0.02359
5.14e+10  0.02173  -0.03019  -0.4045  -0.0004485  -0.01384  -0.2648  0.01083  0.03042
5.15e+10  -0.005427  0.03218  -0.1231  0.3879  -0.2358  -0.1093  -0.007141  -0.02261
5.16e+10  -0.004197  -0.0431  0.3321  0.2486  -0.1997  0.159  0.009498  0.02494
5.17e+10  0.01608  0.03577  0.3611  -0.201  0.06984  0.2432  -0.002079  -0.02173
5.18e+10  -0.0256  -0.03688  -0.03443  -0.4066  0.2494  0.02451  0.002031  0.02207
5.19e+10  0.02928  0.0201  -0.3872  -0.1194  0.1212  -0.2157  0.005662  -0.0204
5.2e+10  -0.03906  -0.01539  -0.2401  0.3222  -0.1357  -0.2015  0.0002715  0.02302
5.21e+10  0.02667  0.006259  0.2235  0.3343  -0.2353  0.02669  0.012  -0.03636
5.22e+10  -0.02115  0.007518  0.394  -0.08962  -0.07925  0.2167  -0.01639  0.02557
5.23e+10  0.009518  -0.01227  0.07188  -0.3981  0.1573  0.1606  0.008768  -0.03704
5.24e+10  0.0002364  0.01482  -0.336  -0.2243  0.2094  -0.06863  -0.0198  0.03469
5.25e+10  -0.01159  -0.004854  -0.3339  0.226  0.03594  -0.2133  0.005249  -0.03633
5.26e+10  0.02763  0.002017  0.08252  0.3902  -0.1653  -0.1324  -0.02273  0.04544
5.27e+10  -0.02772  -0.002426  0.391  0.07101  -0.1943  0.0766  0.01844  -0.009205
5.28e+10  0.02581  -0.01139  0.205  -0.3384  -0.03135  0.2045  0.001549  0.0334
5.29e+10  -0.03411  0.01941  -0.2308  -0.3093  0.1601  0.1309  0.03161  -0.03138
5.3e+10  0.0358  -0.01743  -0.3729  0.09054  0.1947  -0.0751  -0.02232  0.01075
5.31e+10  -0.03047  0.0209  -0.06743  0.3736  0.02918  -0.2089  0.03045  -0.01566
5.32e+10  0.02961  -0.02569  0.311  0.2127  -0.172  -0.1298  -0.02952  -0.003995
5.33e+10  -0.02693  0.02876  0.3146  -0.1944  -0.2023  0.08916  0.02656  -0.006061
5.34e+10  0.0284  -0.02953  -0.04531  -0.3621  -0.01963  0.2275  -0.04255  -0.008092
5.35e+10  -0.02019  0.02406  -0.3424  -0.1136  0.2006  0.1265  0.0311  0.01706
5.36e+10  0.01167  -0.02696  -0.2469  0.2523  0.2105  -0.1285  -0.03642  -0.02011
5.37e+10  -0.004559  0.02217  0.1184  0.3253  -0.01823  -0.2547  0.0236  0.02956
5.38e+10  -0.0008618  -0.02109  0.3383  0.03242  -0.2425  -0.102  -0.0261  -0.01897
5.39e+10  0.004099  0.0007271  0.1714  -0.2898  -0.2067  0.1709  0.02904  0.03874
5.4e+10  -0.02661  0.007684  -0.1824  -0.2772  0.0588  0.2673  -0.002847  -0.03902
5.41e+10  0.02296  -0.009105  -0.3265  0.03764  0.2712  0.06776  0.002883  0.02684
5.42e+10  -0.02585  0.02686  -0.1127  0.3051  0.1841  -0.215  0.004764  -0.03123
5.43e+10  0.02532  -0.03172  0.2206  0.2368  -0.1079  -0.2655  -0.01134  0.02062
5.44e+10  -0.02669  0.04765  0.3088  -0.09341  -0.2859  -0.02909  0.01482  -0.02577
5.45e+10  0.03493  -0.03871  0.05445  -0.3222  -0.1608  0.2389  -0.03534  0.0094
5.46e+10  -0.01255  0.03753  -0.2658  -0.1966  0.1391  0.2551  0.01887  0.004759
5.47e+10  0.01467  -0.051  -0.2977  0.137  0.2921  -0.008418  -0.02603  0.008177
5.48e+10  -0.01546  0.03567  -0.02412  0.3251  0.1314  -0.2624  0.03339  0.01584
5.49e+10  0.001718  -0.03001  0.2735  0.1735  -0.17  -0.2425  -0.01578  -0.01869
5.5e+10  0.007729  0.0208  0.275  -0.1645  -0.296  0.02705  0.01736  0.02286
5.51e+10  -0.01981  -0.01961  -0.02809  -0.3175  -0.1279  0.2682  -0.0009872  -0.02729
5.52e+10  0.01857  0.0092  -0.2983  -0.1158  0.1671  0.2452  -1.728e-05  0.02083
5.53e+10  -0.03175  0.002094  -0.2383  0.2142  0.2953  -0.02245  0.0093  -0.02764
5.54e+10  0.03289  -0.006381  0.08458  0.309  0.1325  -0.2644  -0.0179  0.01774
5.55e+10  -0.04336  0.01331  0.3148  0.0612  -0.1551  -0.2517  0.02054  -0.01858
5.56e+10  0.04114  -0.007472  0.1971  -0.2542  -0.2949  -0.001003  -0.02946  0.006824
5.57e+10  -0.0396  0.02088  -0.1302  -0.2967  -0.1477  0.2565  0.02011  -0.00384
5.58e+10  0.0498  -0.02082  -0.3216  -0.03652  0.151  0.2545  -0.03301  0.003123
5.59e+10  -0.05065  0.01607  -0.1956  0.2631  0.2957  0.002489  0.02602  0.01895
5.6e+10  0.04692  -0.01426  0.1449  0.2996  0.1602  -0.2471  -0.01465  -0.01506
5.61e+10  -0.04688  0.01987  0.3369  0.000182  -0.1245  -0.2638  0.01389  0.02382
5.62e+10  0.0499  -0.01314  0.1533  -0.3027  -0.2883  -0.02777  0.001391  -0.02431
5.63e+10  -0.0401  0.008843  -0.1899  -0.2829  -0.1677  0.2339  -0.004955  0.02295
5.64e+10  0.03304  -0.007192  -0.3382  0.0219  0.1148  0.2622  0.01917  -0.02131
5.65e+10  -0.02061  0.0109  -0.1443  0.3044  0.2848  0.04125  -0.02071  0.008994
5.66e+10  0.01983  -0.01336  0.1964  0.2721  0.1881  -0.2214  0.02146  -0.0102
5.67e+10  -0.00232  0.00579  0.3349  -0.03847  -0.09149  -0.2778  -0.03029  0.00233
5.68e+10  -0.01508  -0.02351  0.1343  -0.311  -0.2876  -0.06642  0.02647  0.01307
5.69e+10  0.01094  0.02972  -0.2053  -0.2732  -0.2083  0.2136  -0.0149  -0.01493
5.7e+10  -0.02401  -0.03031  -0.3415  0.0473  0.06998  0.2915  0.0176  0.01782
5.71e+10  0.03047  0.04494  -0.1314  0.3196  0.2875  0.09267  -0.003252  -0.03034
5.72e+10  -0.02646  -0.0517  0.2048  0.283  0.2271  -0.2019  -0.00826  0.01839
5.73e+10  0.02269  0.05647  0.3521  -0.02516  -0.0592  -0.2998  0.008426  -0.01811
5.74e+10  -0.01711  -0.05676  0.1627  -0.3168  -0.2874  -0.1086  -0.01737  0.00839
5.75e+10  0.01453  0.05927  -0.1903  -0.3035  -0.2477  0.1848  0.01173  -0.004783
5.76e+10  -0.005234  -0.06118  -0.3604  0.0008082  0.02512  0.3095  -0.01811  -0.002346
5.77e+10  -0.003179  0.05707  -0.1979  0.3063  0.279  0.1403  0.005492  0.014
5.78e+10  0.008281  -0.04918  0.1558  0.3326  0.27  -0.1604  -0.001149  -0.01094
5.79e+10  -0.004796  0.04222  0.3679  0.03299  0.02218  -0.3152  -0.008842  0.01698
5.8e+10  0.00455  -0.04434  0.2123  -0.3039  -0.2459  -0.2016  0.01368  -0.005589
5.81e+10  -0.01075  0.03418  -0.1468  -0.3433  -0.3053  0.09546  -0.01411  0.01484
5.82e+10  -0.00529  -0.02232  -0.3711  -0.06409  -0.08152  0.3103  0.03485  -0.0006162
5.83e+10  0.01505  0.03289  -0.2514  0.2805  0.2154  0.2415  -0.01712  -0.01579
5.84e+10  -0.01194  -0.02977  0.1211  0.3594  0.3239  -0.03071  0.01771  0.007046
5.85e+10  0.02305  0.02721  0.3747  0.06729  0.1706  -0.2792  -0.01348  -0.02001
5.86e+10  -0.02918  -0.03052  0.2545  -0.2846  -0.136  -0.2994  0.005941  0.01268
5.87e+10  0.03838  0.0403  -0.09234  -0.3689  -0.3278  -0.04202  -0.002272  -0.02464
5.88e+10  -0.02294  -0.05351  -0.3605  -0.1256  -0.2179  0.2506  -0.0227  0.007363
5.89e+10  0.01975  0.03735  -0.2887  0.2543  0.07041  0.3268  0.002159  0.006873
5.9e+10  -0.03014  -0.05298  0.08887  0.3715  0.2997  0.1501  -0.01353  0.006396
5.91e+10  0.005007  0.05833  0.3674  0.108  0.3031  -0.1443  0.01694  0.01959
5.92e+10  -0.005292  -0.04128  0.2864  -0.2566  0.05892  -0.3314  0.0009752  -0.01711
5.93e+10  0.007067  0.04301  -0.06387  -0.3787  -0.2374  -0.2397  0.0006181  0.01907
5.94e+10  -0.008119  -0.03979  -0.357  -0.1388  -0.3345  0.0452  0.01196  -0.01499
5.95e+10  0.004155  0.04458  -0.2972  0.2407  -0.1736  0.2899  -0.00554  0.004832
5.96e+10  -0.002279  -0.0333  0.05889  0.3788  0.1199  0.3149  0.01422  -0.007717
5.97e+10  0.01505  0.0386  0.3526  0.1463  0.3233  0.09156  -0.01252  -0.01283
5.98e+10  -0.00838  -0.0467  0.3095  -0.2209  0.264  -0.2076  -0.0007932  0.01015
5.99e+10  0.005556  0.04917  -0.02844  -0.3784  -0.01082  -0.3341  0.002816  -0.0155
6e+10  0.005382  -0.04979  -0.3373  -0.1733  -0.275  -0.1895  -0.01765  0.006933
6.01e+10  -0.001438  0.04635  -0.3253  0.1962  -0.3135  0.1126  0.009297  -0.004724
6.02e+10  0.01417  -0.06251  -0.00919  0.3765  -0.08663  0.3181  -0.03058  0.007437
6.03e+10  -0.03839  0.04587  0.3092  0.2134  0.2085  0.2507  0.02537  0.02293
6.04e+10  0.02955  -0.03827  0.3477  -0.1451  0.3246  -0.02998  -0.01268  -0.01451
6.05e+10  -0.04129  0.04172  0.06793  -0.3667  0.155  -0.2847  0.02086  0.02422
6.06e+10  0.04818  -0.02809  -0.2672  -0.2577  -0.1483  -0.2854  -0.004049  -0.03036
6.07e+10  -0.05253  0.01867  -0.3573  0.08254  -0.315  -0.03718  -0.001332  0.03036
6.08e+10  0.04452  -0.001982  -0.1172  0.3444  -0.2033  0.2382  0.02283  -0.02579
6.09e+10  -0.03283  0.009621  0.2358  0.273  0.08583  0.2993  -0.02195  0.0001222
6.1e+10  0.03881  -0.006542  0.3516  -0.0564  0.3004  0.08179  0.0158  -0.001399
6.11e+10  -0.02212  -0.003411  0.1474  -0.3219  0.2161  -0.2237  -0.02608  -0.01674
6.12e+10  0.003532  -0.009934  -0.1923  -0.2939  -0.08751  -0.3026  0.002863  0.03526
6.13e+10  -0.001752  0.02477  -0.3475  0.02002  -0.3084  -0.09121  0.008892  -0.02734
6.14e+10  0.0006031  -0.02985  -0.1472  0.3137  -0.2586  0.2035  -0.01847  0.03198
6.15e+10  0.002717  0.0418  0.2009  0.2811  0.01292  0.3349  0.0337  -0.01928
6.16e+10  0.009431  -0.05456  0.3449  -0.0233  0.2803  0.1918  -0.0352  0.00782
6.17e+10  -0.02808  0.05829  0.1688  -0.3068  0.3169  -0.1147  0.03868  0.008807
6.18e+10  0.0505  -0.048  -0.1778  -0.3159  0.09988  -0.3169  -0.024  -0.0234
6.19e+10  -0.06171  0.02868  -0.3795  -0.0006429  -0.1658  -0.2793  0.01177  0.02583
6.2e+10  0.06957  -0.006281  -0.1923  0.3428  -0.302  -0.08165  0.008116  -0.02569
6.21e+10  -0.06523  -0.02009  0.196  0.3484  -0.2582  0.1499  -0.01898  0.008289
6.22e+10  0.04876  0.04479  0.3973  0.04681  -0.05157  0.2774  0.01997  0.003005
6.23e+10  -0.01799  -0.05169  0.282  -0.2823  0.1787  0.1993  -0.01788  -0.02265
6.24e+10  0.004427  0.0422  -0.05323  -0.3935  0.2538  -0.01892  -0.003511  0.03096
6.25e+10  0.007824  -0.04126  -0.3528  -0.1766  0.1434  -0.2013  0.01182  -0.02477
6.26e+10  -0.02012  0.02624  -0.3427  0.1919  -0.06267  -0.2304  -0.024  0.02802
6.27e+10  0.01347  -0.01293  -0.04313  0.3912  -0.2141  -0.08871  0.0413  -0.007887
6.28e+10  -0.005606  0.01444  0.2862  0.2671  -0.1948  0.1162  -0.03187  -0.0113
6.29e+10  0.005252  -0.01555  0.38  -0.07698  -0.02721  0.2223  0.02781  0.0203
6.3e+10  -0.001187  0.01801  0.1413  -0.3566  0.1527  0.1614  -0.0112  -0.03344
6.31e+10  0.002272  -0.02419  -0.2267  -0.3041  0.2208  -0.01255  -0.005816  0.02719
6.32e+10  -0.006112  0.03138  -0.3774  0.02136  0.1244  -0.1806  0.01942  -0.02321
6.33e+10  0.0222  -0.03255  -0.2017  0.3171  -0.07343  -0.2048  -0.03171  -0.001333
6.34e+10  -0.02675  0.01976  0.1444  0.3478  -0.2088  -0.065  0.01389  0.01568
6.35e+10  0.03061  -0.02195  0.3672  0.06647  -0.1818  0.1215  -0.0149  -0.01477
6.36e+10  -0.04304  0.008688  0.2552  -0.2702  -0.02239  0.2164  0.0009505  0.03457
6.37e+10  0.03488  0.007228  -0.0815  -0.3645  0.155  0.1507  0.02566  -0.01941
6.38e+10  -0.02841  -0.009359  -0.3488  -0.1307  0.2134  -0.03099  -0.02398  0.00378
6.39e+10  0.02445  0.01421  -0.2998  0.2177  0.1057  -0.1871  0.02635  0.005565
6.4e+10  -0.01845  -0.01608  0.01723  0.3699  -0.08045  -0.199  -0.01188  -0.02056
6.41e+10  0.01328  0.01621  0.3144  0.1965  -0.206  -0.05699  0.0002328  0.02237
6.42e+10  -0.009774  -0.0114  0.3435  -0.1419  -0.1678  0.1308  0.01968  -0.02465
6.43e+10  0.0157  0.01015  0.08364  -0.3606  0.004904  0.2128  -0.03411  0.0004777
6.44e+10  -0.01538  -0.01833  -0.2478  -0.2727  0.1723  0.1264  0.02502  0.0152
6.45e+10  0.01078  0.02158  -0.3626  0.05691  0.2067  -0.05549  -0.01917  -0.02671
6.46e+10  -0.006025  -0.02569  -0.1528  0.3325  0.08469  -0.1959  0.001106  0.03211
6.47e+10  0.000856  0.02897  0.187  0.3154  -0.1056  -0.1839  0.006853  -0.02735
6.48e+10  0.01106  -0.03823  0.3639  0.02842  -0.2084  -0.02381  -0.02359  0.02408
6.49e+10  -0.03177  0.02925  0.2318  -0.2838  -0.1456  0.1496  0.02399  0.00963
6.5e+10  0.02815  -0.01729  -0.1095  -0.3528  0.02715  0.2062  0.006043  -0.01208
6.51e+10  -0.03397  0.01704  -0.3521  -0.1119  0.1808  0.09928  -0.002173  0.01583
6.52e+10  0.03728  0.001205  -0.2993  0.2149  0.1853  -0.08887  0.0286  -0.03147
6.53e+10  -0.02726  -0.009854  -0.006515  0.3695  0.03426  -0.2035  -0.0357  0.008109
6.54e+10  0.01953  0.01513  0.3005  0.2103  -0.1424  -0.1532  0.03303  -0.004208
6.55e+10  -0.009896  -0.009495  0.3393  -0.1408  -0.2114  0.01347  -0.01989  -0.02598
6.56e+10  0.01637  0.007558  0.07497  -0.36  -0.1217  0.1785  -0.009096  0.01353
6.57e+10  -0.00676  -0.0119  -0.2455  -0.2773  0.07529  0.2069  0.0009396  -0.02408
6.58e+10  0.009066  -0.006381  -0.3694  0.03504  0.2161  0.06459  -0.04391  0.02289
6.59e+10  -0.02822  0.0008419  -0.1816  0.3222  0.1908  -0.1334  0.03581  0.01626
6.6e+10  0.02759  0.01018  0.1621  0.3371  0.01747  -0.2427  -0.02831  -0.01387
6.61e+10  -0.03149  -0.01671  0.371  0.06183  -0.1829  -0.1719  0.01934  0.03428
6.62e+10  0.02702  0.03106  0.2706  -0.2617  -0.2578  0.03729  0.001245  -0.02575
6.63e+10  -0.01921  -0.04398  -0.05361  -0.3705  -0.1387  0.2313  -0.007521  0.02801
6.64e+10  -0.005707  0.05686  -0.3322  -0.1666  0.08191  0.2668  0.0293  -0.007224
6.65e+10  0.0303  -0.04244  -0.3242  0.1857  0.2573  0.1308  -0.008883  -0.01301
6.66e+10  -0.04001  0.03051  -0.02279  0.3733  0.2798  -0.09277  0.00503  0.008418
6.67e+10  0.05166  -0.009752  0.2938  0.2293  0.1262  -0.2692  0.01139  -0.01801
6.68e+10  -0.04651  -0.0108  0.3563  -0.1033  -0.1137  -0.2744  -0.02104  -0.002903
6.69e+10  0.0384  0.03087  0.1226  -0.3488  -0.2814  -0.09215  0.01915  0.004054
6.7e+10  -0.009902  -0.03415  -0.2112  -0.3041  -0.2535  0.1459  -0.01955  -0.03376
6.71e+10  0.009977  0.0218  -0.371  -0.003349  -0.05874  0.2828  -0.0222  0.02732
6.72e+10  -0.002684  -0.02994  -0.2223  0.2937  0.1794  0.2247  0.01012  -0.008007
6.73e+10  -0.006336  0.01561  0.1063  0.3526  0.2852  0.005938  -0.02603  0.014
6.74e+10  -0.004889  -0.01196  0.3513  0.111  0.1912  -0.2102  0.02158  0.01924
6.75e+10  0.008819  0.01821  0.2888  -0.2271  -0.03724  -0.282  0.0002142  -0.01828
6.76e+10  -0.007438  -0.02793  -0.02517  -0.3662  -0.242  -0.1526  -0.01423  0.01852
6.77e+10  -0.001014  0.0315  -0.3127  -0.1914  -0.2716  0.0931  0.02536  0.002621
6.78e+10  0.004572  -0.03452  -0.3333  0.1546  -0.1061  0.2699  -0.01486  -0.01198
6.79e+10  -0.01575  0.04  -0.04013  0.365  0.1272  0.2626  0.01287  0.02042
6.8e+10  0.03358  -0.03428  0.2859  0.2283  0.2813  0.08244  0.006999  -0.03193
6.81e+10  -0.04002  0.01544  0.3536  -0.1015  0.2429  -0.165  -0.03127  0.01695
6.82e+10  0.03567  -0.008259  0.1315  -0.344  0.01709  -0.2928  0.02624  0.0008505
6.83e+10  -0.04278  -0.002816  -0.2084  -0.3038  -0.2151  -0.2001  -0.03  -0.003715
6.84e+10  0.03252  0.02108  -0.3697  0.01814  -0.295  0.02244  0.01907  0.02753
6.85e+10  -0.02008  -0.02206  -0.1836  0.3221  -0.182  0.234  0.00519  -0.01686
6.86e+10  0.01377  0.02355  0.1477  0.3386  0.0719  0.2878  -0.0092  0.0102
6.87e+10  -0.007535  -0.0222  0.3556  0.09846  0.2748  0.111  0.01957  0.009659
6.88e+10  0.004704  0.02248  0.2892  -0.2304  0.2602  -0.1461  -0.002173  -0.02213
6.89e+10  -0.0004811  -0.02181  -0.03963  -0.3676  0.06775  -0.2928  -0.005274  0.02826
6.9e+10  0.0008828  0.02267  -0.3286  -0.1667  -0.172  -0.2485  0.03459  -0.0251
6.91e+10  0.004867  -0.02959  -0.3291  0.159  -0.3013  -0.0224  -0.03868  -0.001848
6.92e+10  -0.01748  0.03045  -0.08607  0.3528  -0.198  0.2315  0.0388  0.0164
6.93e+10  0.02998  -0.02412  0.2271  0.2792  0.05906  0.302  -0.02037  -0.04164
6.94e+10  -0.03644  0.01241  0.3554  -0.0379  0.2638  0.1643  -0.005426  0.03444
6.95e+10  0.0443  -0.002656  0.154  -0.3183  0.3016  -0.07172  0.01705  -0.03099
6.96e+10  -0.04666  -0.02594  -0.1679  -0.308  0.1491  -0.2675  -0.03831  0.007104
6.97e+10  0.01952  0.04191  -0.3417  -0.06681  -0.1145  -0.2833  0.0182  0.02115
6.98e+10  -0.006046  -0.03757  -0.2677  0.2253  -0.2924  -0.09075  -0.003575  -0.01622
6.99e+10  -0.009877  0.04031  0.02641  0.3474  -0.2625  0.157  -0.006777  0.02151
7e+10  0.02777  -0.02459  0.2969  0.1823  -0.05913  0.2992  0.02676  -0.005013
7.01e+10  -0.02574  0.006452  0.3255  -0.1223  0.192  0.2347  -0.01947  -0.01922
7.02e+10  0.01591  -0.0004758  0.1097  -0.3271  0.3016  -0.005386  0.002588  0.02933
7.03e+10  -0.009559  0.003396  -0.1951  -0.2805  0.1924  -0.2287  0.02005  -0.02595
7.04e+10  0.01072  -0.009459  -0.3382  0.006634  -0.02887  -0.2956  -0.03041  0.005933
7.05e+10  -0.01476  0.007839  -0.186  0.2768  -0.2347  -0.1795  0.0316  0.007637
7.06e+10  0.01597  -0.01505  0.09958  0.3134  -0.2857  0.06583  -0.03077  -0.03331
7.07e+10  -0.0394  0.00791  0.298  0.1244  -0.1263  0.2633  -0.006348  0.04653
7.08e+10  0.03408  0.01849  0.278  -0.162  0.1125  0.2684  0.0202  -0.01831
7.09e+10  -0.02865  -0.02217  0.01563  -0.319  0.2673  0.1091  -0.01938  0.01834
7.1e+10  0.02026  0.04152  -0.2494  -0.193  0.2624  -0.1182  0.03205  0.0068
7.11e+10  0.002766  -0.04451  -0.3048  0.06596  0.07203  -0.2778  -0.00663  -0.01891
7.12e+10  -0.02423  0.04203  -0.1538  0.2688  -0.1773  -0.2242  -0.001457  0.02104
7.13e+10  0.04195  -0.01793  0.1139  0.2869  -0.2836  -0.01231  0.02841  -0.008039
7.14e+10  -0.0374  0.002013  0.3036  0.06463  -0.2094  0.191  -0.00869  -0.01567
7.15e+10  0.03893  0.01265  0.2218  -0.2131  -0.00906  0.2833  0.01087  0.008019
7.16e+10  -0.02419  -0.02868  -0.02071  -0.3069  0.2142  0.1862  0.006816  -0.02932
7.17e+10  0.008361  0.03106  -0.2394  -0.1938  0.2772  -0.06267  -0.02556  0.004147
7.18e+10  0.007812  -0.02289  -0.3022  0.05676  0.1275  -0.2533  0.02618  0.00306
7.19e+10  -0.004602  0.01012  -0.125  0.2816  -0.08959  -0.2692  -0.01987  -0.03584
7.2e+10  0.002845  -0.01469  0.1667  0.2595  -0.2539  -0.1308  -0.0177  0.02011
7.21e+10  -0.008766  0.008164  0.3071  0.03184  -0.2675  0.1067  0.003508  -0.008186
7.22e+10  -0.003811  -0.006411  0.2315  -0.2042  -0.07821  0.2775  -0.02643  0.006013
7.23e+10  -0.0002262  0.02624  -0.01539  -0.312  0.1606  0.2398  0.01203  0.03327
7.24e+10  0.0204  -0.02128  -0.2683  -0.1658  0.2822  0.06209  0.01906  -0.02106
7.25e+10  -0.02379  0.01583  -0.2848  0.1397  0.2519  -0.144  -0.02295  0.01256
7.26e+10  0.0371  -0.005219  -0.0562  0.3151  0.0724  -0.2818  0.03459  0.00803
7.27e+10  -0.03334  -0.01082  0.2008  0.25  -0.1735  -0.2355  -0.01328  -0.02293
7.28e+10  0.03369  0.02762  0.3187  0.01788  -0.2924  -0.01405  0.01151  0.02587
7.29e+10  -0.003378  -0.04371  0.211  -0.2382  -0.2121  0.2032  0.02637  -0.03419
7.3e+10  -0.008403  0.02545  -0.0792  -0.3115  -0.01541  0.2952  -0.02659  -0.01282
7.31e+10  0.01412  -0.03093  -0.303  -0.1096  0.1962  0.2247  0.007436  0.002648
7.32e+10  -0.03015  0.01449  -0.2796  0.1622  0.3011  -0.00206  -0.01053  -0.02436
7.33e+10  0.02509  -0.002259  -0.0543  0.3195  0.2005  -0.2274  -0.02345  0.01314
7.34e+10  -0.01949  -0.006538  0.2212  0.2356  -0.0219  -0.3053  0.01955  0.001889
7.35e+10  0.01478  0.001056  0.3222  -0.04061  -0.2333  -0.2019  -0.0248  -0.02652
7.36e+10  -0.02334  -0.009539  0.1649  -0.2812  -0.3098  0.03164  -0.01561  0.03433
7.37e+10  0.01369  0.01691  -0.1103  -0.309  -0.1821  0.258  0.02071  -0.01516
7.38e+10  -0.01269  -0.02005  -0.31  -0.1119  0.07366  0.3103  -0.03778  0.006362
7.39e+10  0.005048  0.02731  -0.2787  0.1797  0.279  0.161  0.03042  0.02584
7.4e+10  0.005519  -0.0355  -0.02743  0.3314  0.3117  -0.09525  -0.0116  -0.0369
7.41e+10  -0.03224  0.03015  0.2335  0.2332  0.1331  -0.3006  -0.0192  0.04048
7.42e+10  0.04172  -0.006081  0.3245  -0.01827  -0.1499  -0.2976  0.0393  -0.01174
