# Hz S RI R 50
5e+10  0.03445  -0.02017  0.02739  0.3569  -0.1062  0.3144  -0.01143  0.026
5.01e+10  -0.02883  0.02495  0.3537  0.07364  0.2295  0.2295  0.01281  -0.01292
5.02e+10  0.004686  -0.0371  0.1921  -0.312  0.2939  -0.1207  0.00575  0.01863
5.03e+10  0.01217  0.03602  -0.2205  -0.2969  -0.005231  -0.3123  0.003409  -0.02013
5.04e+10  -0.03552  -0.03172  -0.3578  0.1109  -0.2827  -0.119  0.009939  0.01023
5.05e+10  0.03302  0.01971  0.003573  0.3825  -0.2296  0.1956  -0.003633  -0.02492
5.06e+10  -0.03675  0.01454  0.3726  0.108  0.07325  0.289  -0.006279  0.004168
5.07e+10  0.03781  -0.02298  0.2311  -0.3135  0.2919  0.04521  -0.01547  -0.01451
5.08e+10  -0.01638  0.02912  -0.2071  -0.3358  0.1496  -0.2504  -0.001813  0.02622
5.09e+10  -0.0028  -0.03139  -0.3865  0.08775  -0.1616  -0.2385  0.0001485  -0.01645
5.1e+10  0.0168  0.03077  -0.02957  0.3978  -0.2809  0.03361  0.0056  0.0205
5.11e+10  -0.02027  -0.01066  0.3676  0.1582  -0.08908  0.2638  -0.01055  -0.02444
5.12e+10  0.03354  -0.002364  0.2902  -0.2767  0.2075  0.1806  0.006802  0.02916
5.13e+10  -0.02305  0.01472  -0.1363  -0.3787  0.239  -0.1256  -0.01136  -0.02368
5.14e+10  0.02186  -0.03016  -0.4046  -0.001385  -0.01335  -0.2649  0.01067  0.03049
5.15e+10  -0.005547  0.03219  -0.124  0.3877  -0.2357  -0.1098  -0.007029  -0.02267
5.16e+10  -0.004062  -0.04316  0.3316  0.2495  -0.2001  0.1587  0.009379  0.02498
5.17e+10  0.01598  0.03586  0.3617  -0.2001  0.06945  0.2434  -0.00195  -0.02176
5.18e+10  -0.02549  -0.037  -0.03347  -0.4068  0.2494  0.02497  0.001938  0.02206
5.19e+10  0.02921  0.02023  -0.387  -0.1204  0.1216  -0.2155  0.005795  -0.02039
5.2e+10  -0.03905  -0.01552  -0.241  0.3217  -0.1354  -0.2018  0.0001502  0.023
5.21e+10  0.02667  0.006367  0.2227  0.335  -0.2354  0.02635  0.01219  -0.0363
5.22e+10  -0.02119  0.007445  0.3943  -0.08865  -0.07959  0.2166  -0.01657  0.02548
5.23e+10  0.00955  -0.01225  0.07289  -0.3979  0.1571  0.1609  0.008951  -0.03695
5.24e+10  0.0002305  0.01482  -0.3355  -0.2251  0.2096  -0.06831  -0.02001  0.03459
5.25e+10  -0.0116  -0.004884  -0.3344  0.2254  0.03634  -0.2132  0.005489  -0.03626
5.26e+10  0.02765  0.002113  0.08164  0.3904  -0.1651  -0.1327  -0.02292  0.04538
5.27e+10  -0.02774  -0.002531  0.3909  0.07189  -0.1944  0.07625  0.01852  -0.009143
5.28e+10  0.02586  -0.01129  0.2057  -0.338  -0.0318  0.2044  0.001398  0.03332
5.29e+10  -0.03417  0.01928  -0.2303  -0.3098  0.1598  0.1312  0.03174  -0.03124
5.3e+10  0.0359  -0.01731  -0.3731  0.08989  0.1949  -0.07465  -0.0224  0.01062
5.31e+10  -0.03056  0.02078  -0.06812  0.3735  0.02968  -0.2087  0.03053  -0.01549
5.32e+10  0.02973  -0.02557  0.3107  0.2134  -0.1716  -0.1302  -0.02951  -0.00415
5.33e+10  -0.02703  0.02864  0.315  -0.1938  -0.2026  0.08864  0.02658  -0.005888
5.34e+10  0.02852  -0.02939  -0.04465  -0.3622  -0.02025  0.2275  -0.04252  -0.008305
5.35e+10  -0.02029  0.02395  -0.3422  -0.1142  0.2002  0.127  0.031  0.01724
5.36e+10  0.01179  -0.02691  -0.2474  0.2519  0.2108  -0.1279  -0.03631  -0.02029
5.37e+10  -0.004639  0.02213  0.1177  0.3256  -0.01758  -0.2547  0.02347  0.02972
5.38e+10  -0.0008113  -0.02108  0.3383  0.03308  -0.2423  -0.1027  -0.02594  -0.01912
5.39e+10  0.004082  0.0007564  0.172  -0.2895  -0.2072  0.1704  0.02884  0.03887
5.4e+10  -0.02668  0.007605  -0.1819  -0.2776  0.05805  0.2675  -0.002637  -0.03908
5.41e+10  0.02304  -0.009003  -0.3266  0.03696  0.2711  0.0685  0.002729  0.02687
5.42e+10  -0.02599  0.02677  -0.1133  0.3049  0.1846  -0.2146  0.004922  -0.03121
5.43e+10  0.0255  -0.03163  0.2201  0.2373  -0.1073  -0.2659  -0.01148  0.02056
5.44e+10  -0.0269  0.04753  0.309  -0.09275  -0.2858  -0.02985  0.01493  -0.02566
5.45e+10  0.03515  -0.03857  0.05515  -0.3221  -0.1614  0.2385  -0.03539  0.00925
5.46e+10  -0.01274  0.03746  -0.2655  -0.1972  0.1384  0.2555  0.01888  0.004882
5.47e+10  0.01489  -0.05093  -0.298  0.1364  0.2922  -0.007674  -0.02605  0.008023
5.48e+10  -0.01564  0.03561  -0.0248  0.3252  0.1321  -0.262  0.03332  0.01601
5.49e+10  0.00185  -0.03001  0.2732  0.1741  -0.1695  -0.2429  -0.01567  -0.01879
5.5e+10  0.007638  0.02083  0.2753  -0.1639  -0.2961  0.02633  0.01724  0.02295
5.51e+10  -0.01976  -0.01969  -0.02744  -0.3177  -0.1287  0.2679  -0.000875  -0.02732
5.52e+10  0.01854  0.009299  -0.2981  -0.1165  0.1664  0.2456  -0.0001359  0.02082
5.53e+10  -0.03176  0.001965  -0.2388  0.2138  0.2954  -0.02165  0.009431  -0.02762
5.54e+10  0.03294  -0.006203  0.08393  0.3093  0.1332  -0.2641  -0.01802  0.01764
5.55e+10  -0.04344  0.01309  0.3148  0.06187  -0.1545  -0.2522  0.02063  -0.01846
5.56e+10  0.04121  -0.00727  0.1977  -0.2539  -0.295  -0.001783  -0.02952  0.006669
5.57e+10  -0.03971  0.02067  -0.1296  -0.297  -0.1485  0.2561  0.02013  -0.003717
5.58e+10  0.04991  -0.02058  -0.3216  -0.03718  0.1504  0.2549  -0.03301  0.002959
5.59e+10  -0.05075  0.01582  -0.1962  0.2627  0.2958  0.003344  0.02595  0.01909
5.6e+10  0.04701  -0.01402  0.1443  0.2999  0.1609  -0.2467  -0.01455  -0.01518
5.61e+10  -0.04699  0.01964  0.337  0.0008648  -0.1238  -0.2642  0.01377  0.02388
5.62e+10  0.04998  -0.0129  0.1539  -0.3024  -0.2882  -0.02857  0.001521  -0.02432
5.63e+10  -0.04016  0.008628  -0.1893  -0.2834  -0.1683  0.2335  -0.005085  0.02291
5.64e+10  0.03308  -0.007026  -0.3384  0.02122  0.1141  0.2625  0.01928  -0.02122
5.65e+10  -0.02067  0.01079  -0.1449  0.3042  0.2847  0.04209  -0.02077  0.008866
5.66e+10  0.01989  -0.01328  0.1959  0.2725  0.1888  -0.2208  0.02152  -0.01007
5.67e+10  -0.00237  0.005802  0.335  -0.03783  -0.09066  -0.2781  -0.03029  0.002174
5.68e+10  -0.01498  -0.0236  0.1348  -0.3108  -0.2874  -0.06728  0.0264  0.0132
5.69e+10  0.01079  0.02981  -0.2049  -0.2736  -0.209  0.213  -0.01484  -0.01504
5.7e+10  -0.02384  -0.03045  -0.3416  0.04672  0.0691  0.2918  0.01751  0.0179
5.71e+10  0.03025  0.04511  -0.132  0.3194  0.2873  0.09354  -0.003106  -0.03037
5.72e+10  -0.02619  -0.05186  0.2044  0.2834  0.2277  -0.2013  -0.00839  0.01835
5.73e+10  0.02241  0.05663  0.3522  -0.02455  -0.05832  -0.2999  0.00852  -0.01806
5.74e+10  -0.01679  -0.05687  0.1633  -0.3166  -0.2871  -0.1095  -0.01742  0.008304
5.75e+10  0.01422  0.05938  -0.1898  -0.3039  -0.2482  0.1841  0.01175  -0.004703
5.76e+10  -0.004905  -0.06124  -0.3604  0.0002058  0.02417  0.3096  -0.01809  -0.002422
5.77e+10  -0.00349  0.05708  -0.1984  0.306  0.2786  0.1412  0.005429  0.01403
5.78e+10  0.00854  -0.04917  0.1552  0.333  0.2705  -0.1595  -0.00107  -0.01094
5.79e+10  -0.005029  0.04221  0.3679  0.03357  0.02321  -0.3152  -0.008909  0.01695
5.8e+10  0.004775  -0.04432  0.2128  -0.3037  -0.2453  -0.2024  0.01373  -0.005514
5.81e+10  -0.01095  0.03417  -0.1463  -0.3436  -0.3056  0.09452  -0.01417  0.01473
5.82e+10  -0.005149  -0.02236  -0.3711  -0.06469  -0.08253  0.3101  0.03486  -0.0004688
5.83e+10  0.0149  0.03299  -0.2519  0.2802  0.2147  0.2422  -0.01704  -0.0159
5.84e+10  -0.01178  -0.02988  0.1206  0.3597  0.324  -0.02968  0.01765  0.007132
5.85e+10  0.0229  0.02735  0.3747  0.06787  0.1715  -0.2786  -0.01338  -0.02007
5.86e+10  -0.029  -0.03072  0.255  -0.2842  -0.1351  -0.2998  0.005849  0.01273
5.87e+10  0.03816  0.04051  -0.09183  -0.3691  -0.3277  -0.04307  -0.002163  -0.02463
5.88e+10  -0.02268  -0.05368  -0.3605  -0.1262  -0.2187  0.2499  -0.02273  0.00728
5.89e+10  0.01949  0.03751  -0.2892  0.2539  0.06936  0.327  0.002159  0.006907
5.9e+10  -0.02986  -0.05313  0.08834  0.3718  0.2992  0.151  -0.01352  0.006337
5.91e+10  0.004693  0.05839  0.3673  0.1085  0.3035  -0.1433  0.01686  0.01965
5.92e+10  -0.00505  -0.04134  0.2869  -0.2562  0.06002  -0.3312  0.001085  -0.01712
5.93e+10  0.006823  0.04307  -0.0633  -0.3789  -0.2366  -0.2405  0.000522  0.01905
5.94e+10  -0.007859  -0.03986  -0.3568  -0.1394  -0.3346  0.04412  0.01204  -0.01496
5.95e+10  0.003922  0.04466  -0.2977  0.2402  -0.1745  0.2893  -0.005573  0.004809
5.96e+10  -0.002047  -0.03334  0.0582  0.379  0.1189  0.3153  0.01425  -0.007663
5.97e+10  0.01481  0.03869  0.3525  0.147  0.3231  0.09253  -0.01249  -0.01289
5.98e+10  -0.008114  -0.04678  0.31  -0.2204  0.2646  -0.2068  -0.000868  0.01015
5.99e+10  0.005263  0.04921  -0.02764  -0.3785  -0.009888  -0.3341  0.002883  -0.01548
6e+10  0.005682  -0.04981  -0.337  -0.1741  -0.2744  -0.1903  -0.01769  0.006872
6.01e+10  -0.001761  0.04635  -0.3258  0.1956  -0.3138  0.1118  0.009341  -0.004658
6.02e+10  0.01452  -0.06244  -0.009996  0.3766  -0.08749  0.3179  -0.03058  0.007282
6.03e+10  -0.03869  0.0457  0.3088  0.2142  0.2079  0.2512  0.02527  0.02306
6.04e+10  0.02981  -0.0381  0.3482  -0.1443  0.3247  -0.02914  -0.01259  -0.01461
6.05e+10  -0.04155  0.0415  0.0688  -0.3667  0.1558  -0.2843  0.02072  0.02434
6.06e+10  0.04837  -0.0278  -0.2667  -0.2583  -0.1476  -0.2857  -0.003882  -0.0304
6.07e+10  -0.05267  0.01838  -0.3576  0.08172  -0.3149  -0.038  -0.001507  0.03033
6.08e+10  0.04459  -0.001723  -0.1181  0.3442  -0.2039  0.2376  0.02295  -0.02568
6.09e+10  -0.0329  0.009396  0.2352  0.2736  0.08496  0.2995  -0.02199  4.423e-06
6.1e+10  0.03889  -0.006349  0.3518  -0.05577  0.3002  0.0827  0.01579  -0.001293
6.11e+10  -0.02217  -0.003541  0.148  -0.3217  0.2168  -0.2231  -0.02598  -0.01684
6.12e+10  0.003615  -0.009904  -0.1918  -0.2943  -0.08655  -0.3029  0.002697  0.03529
6.13e+10  -0.001898  0.02477  -0.3476  0.01934  -0.3081  -0.09209  0.009067  -0.0273
6.14e+10  0.0007974  -0.02986  -0.1478  0.3134  -0.2592  0.2029  -0.01865  0.03189
6.15e+10  0.002464  0.04181  0.2004  0.2816  0.0121  0.335  0.03382  -0.01909
6.16e+10  0.009743  -0.05453  0.345  -0.02268  0.28  0.1926  -0.03523  0.007617
6.17e+10  -0.02842  0.05816  0.1694  -0.3065  0.3174  -0.114  0.03865  0.008953
6.18e+10  0.05082  -0.04776  -0.1773  -0.3162  0.1008  -0.3168  -0.02389  -0.02356
6.19e+10  -0.06193  0.02836  -0.3795  -0.001123  -0.1652  -0.2799  0.01158  0.02591
6.2e+10  0.06964  -0.005932  -0.1927  0.3426  -0.3019  -0.08259  0.008266  -0.02565
6.21e+10  -0.06522  -0.02046  0.1957  0.3487  -0.2589  0.1492  -0.01902  0.008174
6.22e+10  0.04859  0.04509  0.3973  0.04722  -0.05249  0.2774  0.01995  0.003119
6.23e+10  -0.01774  -0.05187  0.2824  -0.2822  0.1781  0.2  -0.01779  -0.02272
6.24e+10  0.004186  0.04226  -0.05295  -0.3937  0.254  -0.01801  -0.00367  0.03093
6.25e+10  0.008081  -0.04123  -0.3527  -0.1769  0.1443  -0.2008  0.01199  -0.02469
6.26e+10  -0.02029  0.02617  -0.3429  0.1918  -0.06179  -0.2307  -0.02415  0.02789
6.27e+10  0.0136  -0.01287  -0.04346  0.3912  -0.2138  -0.08958  0.04136  -0.007706
6.28e+10  -0.005713  0.01441  0.2862  0.2673  -0.1953  0.1154  -0.03182  -0.01149
6.29e+10  0.00536  -0.01553  0.3803  -0.07669  -0.02804  0.2222  0.0277  0.02043
6.3e+10  -0.001323  0.01799  0.1417  -0.3566  0.1521  0.1619  -0.01105  -0.03355
6.31e+10  0.002447  -0.02418  -0.2265  -0.3045  0.2208  -0.01173  -0.005987  0.02718
6.32e+10  -0.006316  0.03132  -0.3778  0.02092  0.125  -0.1801  0.01955  -0.02307
6.33e+10  0.02239  -0.03243  -0.2023  0.3171  -0.0727  -0.205  -0.03172  -0.001477
6.34e+10  -0.0269  0.01958  0.1439  0.3483  -0.2085  -0.06567  0.01383  0.01578
6.35e+10  0.03075  -0.02174  0.3673  0.06721  -0.1821  0.1209  -0.0148  -0.01484
6.36e+10  -0.04312  0.008445  0.2559  -0.2699  -0.023  0.2163  0.0008065  0.03458
6.37e+10  0.03488  0.007469  -0.08077  -0.3649  0.1545  0.1511  0.02578  -0.01931
6.38e+10  -0.02838  -0.009552  -0.3487  -0.1315  0.2134  -0.03039  -0.02401  0.003643
6.39e+10  0.02438  0.01438  -0.3004  0.2171  0.1062  -0.1869  0.02633  0.005696
6.4e+10  -0.01836  -0.01623  0.01644  0.3701  -0.07992  -0.1991  -0.01177  -0.02064
6.41e+10  0.0132  0.01633  0.3141  0.1974  -0.2058  -0.05747  0.0001147  0.02235
6.42e+10  -0.009687  -0.01151  0.3439  -0.1411  -0.1681  0.1304  0.0198  -0.02454
6.43e+10  0.01562  0.01027  0.08455  -0.3605  0.004422  0.2128  -0.03414  0.0003158
6.44e+10  -0.01525  -0.01842  -0.2472  -0.2734  0.1719  0.1268  0.02493  0.01534
6.45e+10  0.01065  0.02167  -0.3629  0.05605  0.2068  -0.05496  -0.019  -0.0268
6.46e+10  -0.005843  -0.02572  -0.1535  0.3322  0.08522  -0.1957  0.0009146  0.03213
6.47e+10  0.0006606  0.02898  0.1864  0.3157  -0.1051  -0.1842  0.007006  -0.0273
6.48e+10  0.0113  -0.03815  0.3639  0.02906  -0.2083  -0.02444  -0.02368  0.02396
6.49e+10  -0.03198  0.02906  0.2323  -0.2834  -0.1461  0.1492  0.02398  0.009741
6.5e+10  0.02831  -0.01709  -0.1088  -0.3531  0.02659  0.2063  0.006136  -0.01208
6.51e+10  -0.03408  0.01684  -0.3519  -0.1125  0.1805  0.09984  -0.002268  0.01576
6.52e+10  0.03728  0.001428  -0.2997  0.2145  0.1855  -0.08831  0.02877  -0.0313
6.53e+10  -0.02721  -0.01005  -0.007072  0.3695  0.03495  -0.2034  -0.03579  0.007858
6.54e+10  0.01943  0.01528  0.3002  0.2107  -0.1418  -0.1538  0.03305  -0.004035
6.55e+10  -0.009857  -0.009608  0.3395  -0.1403  -0.2114  0.01277  -0.0198  -0.02609
6.56e+10  0.0163  0.007669  0.07541  -0.3598  -0.1223  0.1781  -0.009222  0.01349
6.57e+10  -0.006708  -0.012  -0.2451  -0.2775  0.07467  0.2071  0.001075  -0.024
6.58e+10  0.009053  -0.006266  -0.3695  0.03455  0.2159  0.06518  -0.04397  0.02269
6.59e+10  -0.02821  0.0006751  -0.1821  0.322  0.1911  -0.1328  0.03574  0.01648
6.6e+10  0.02751  0.01038  0.1616  0.3373  0.01807  -0.2425  -0.02822  -0.0141
6.61e+10  -0.03135  -0.01689  0.3709  0.06234  -0.1823  -0.1723  0.01916  0.03436
6.62e+10  0.02681  0.03122  0.2709  -0.2613  -0.2577  0.03657  0.001492  -0.02578
6.63e+10  -0.01893  -0.04408  -0.05316  -0.3706  -0.1392  0.2307  -0.00769  0.02794
6.64e+10  -0.006004  0.05682  -0.3319  -0.1673  0.08137  0.2668  0.02938  -0.007123
6.65e+10  0.03063  -0.04229  -0.3247  0.185  0.2569  0.1312  -0.008869  -0.01308
6.66e+10  -0.04018  0.03029  -0.02364  0.3733  0.2799  -0.0923  0.00497  0.008465
6.67e+10  0.05178  -0.009473  0.2934  0.23  0.1264  -0.269  0.01138  -0.01794
6.68e+10  -0.04647  -0.01109  0.3566  -0.1025  -0.1133  -0.2744  -0.02106  -0.003006
6.69e+10  0.03828  0.03108  0.1235  -0.3485  -0.2812  -0.09247  0.01908  0.004192
6.7e+10  -0.009737  -0.03428  -0.2104  -0.3047  -0.2536  0.1455  -0.01936  -0.03388
6.71e+10  0.009824  0.02186  -0.371  -0.00434  -0.05914  0.2828  -0.02236  0.02726
6.72e+10  -0.002501  -0.03001  -0.223  0.2932  0.1791  0.2249  0.01016  -0.007929
6.73e+10  -0.006469  0.0156  0.1052  0.3529  0.2853  0.006224  -0.02605  0.01387
6.74e+10  -0.004758  -0.01198  0.3509  0.1119  0.1914  -0.2102  0.02153  0.01936
6.75e+10  0.008664  0.01828  0.2895  -0.2263  -0.03699  -0.2822  0.0003621  -0.01824
6.76e+10  -0.007263  -0.028  -0.02411  -0.3664  -0.2418  -0.1528  -0.01429  0.01838
6.77e+10  -0.001243  0.0315  -0.3121  -0.1924  -0.2717  0.09281  0.02533  0.002726
6.78e+10  0.004785  -0.03449  -0.3337  0.1536  -0.1065  0.2698  -0.01484  -0.0121
6.79e+10  -0.01599  0.0399  -0.04113  0.3649  0.127  0.2629  0.01275  0.02055
6.8e+10  0.03378  -0.03414  0.2854  0.229  0.2814  0.08295  0.00716  -0.03191
6.81e+10  -0.04017  0.01518  0.3539  -0.1007  0.2431  -0.1647  -0.03134  0.01677
6.82e+10  0.03576  -0.008022  0.1323  -0.3436  0.01742  -0.2929  0.02625  0.001036
6.83e+10  -0.04277  -0.003073  -0.2075  -0.3044  -0.215  -0.2004  -0.02997  -0.003886
6.84e+10  0.03244  0.02129  -0.3696  0.01715  -0.2951  0.02211  0.019  0.02766
6.85e+10  -0.02001  -0.02223  -0.1843  0.3215  -0.1823  0.2339  0.005237  -0.01687
6.86e+10  0.01364  0.02371  0.1468  0.339  0.0716  0.288  -0.00926  0.01018
6.87e+10  -0.007421  -0.0223  0.3553  0.09943  0.2749  0.1115  0.01954  0.009689
6.88e+10  0.004567  0.02256  0.2898  -0.2296  0.2606  -0.1457  -0.002033  -0.02216
6.89e+10  -0.0002833  -0.02183  -0.03863  -0.3677  0.06815  -0.293  -0.005467  0.02817
6.9e+10  0.0007197  0.02267  -0.3282  -0.1676  -0.1717  -0.2489  0.03467  -0.02496
6.91e+10  0.005053  -0.02955  -0.3295  0.1582  -0.3014  -0.02291  -0.03864  -0.002076
6.92e+10  -0.01769  0.0303  -0.08684  0.3526  -0.1984  0.2312  0.03866  0.01664
6.93e+10  0.03011  -0.02394  0.2264  0.2797  0.05854  0.3023  -0.02018  -0.04178
6.94e+10  -0.03656  0.01215  0.3555  -0.03705  0.2636  0.1649  -0.005681  0.03437
6.95e+10  0.04435  -0.002375  0.1547  -0.318  0.3018  -0.07112  0.01719  -0.0309
6.96e+10  -0.04655  -0.02624  -0.1673  -0.3083  0.15  -0.2672  -0.0383  0.006931
6.97e+10  0.01924  0.04213  -0.3415  -0.06753  -0.1137  -0.2838  0.0181  0.02132
6.98e+10  -0.005803  -0.03768  -0.2682  0.2248  -0.2922  -0.09147  -0.003433  -0.01623
6.99e+10  -0.01018  0.04029  0.0256  0.3474  -0.2629  0.1564  -0.006919  0.02141
7e+10  0.02796  -0.02446  0.2967  0.1827  -0.05991  0.2989  0.02675  -0.004866
7.01e+10  -0.0258  0.006275  0.3257  -0.1218  0.1915  0.2353  -0.01933  -0.01933
7.02e+10  0.01597  -0.0003731  0.1104  -0.3268  0.3017  -0.004535  0.002393  0.0293
7.03e+10  -0.009617  0.003291  -0.1945  -0.2809  0.1931  -0.2282  0.02021  -0.02587
7.04e+10  0.01082  -0.00934  -0.3381  0.0059  -0.02806  -0.2956  -0.03041  0.005753
7.05e+10  -0.01484  0.007697  -0.1865  0.2764  -0.2342  -0.1802  0.0316  0.007834
7.06e+10  0.01607  -0.01488  0.09884  0.3135  -0.2858  0.065  -0.0306  -0.0334
7.07e+10  -0.03941  0.007637  0.2976  0.125  -0.1271  0.2629  -0.006578  0.04649
7.08e+10  0.03398  0.01878  0.2783  -0.1613  0.1118  0.2687  0.02038  -0.01823
7.09e+10  -0.02846  -0.0224  0.01648  -0.3189  0.267  0.1099  -0.01941  0.01818
7.1e+10  0.01995  0.04167  -0.2489  -0.1936  0.2627  -0.1175  0.03201  0.00694
7.11e+10  0.003101  -0.04449  -0.305  0.06522  0.07278  -0.2776  -0.006513  -0.01895
7.12e+10  -0.02455  0.04183  -0.1544  0.2684  -0.1767  -0.2246  -0.001542  0.02101
7.13e+10  0.04214  -0.01765  0.113  0.2872  -0.2835  -0.01302  0.02842  -0.007956
7.14e+10  -0.0374  0.00169  0.3034  0.06546  -0.2098  0.1905  -0.008632  -0.01572
7.15e+10  0.03887  0.01294  0.2224  -0.2125  -0.009705  0.2832  0.01077  0.008043
7.16e+10  -0.02404  -0.02892  -0.01988  -0.3069  0.2135  0.1867  0.006924  -0.02926
7.17e+10  0.008125  0.03116  -0.2388  -0.1944  0.2773  -0.06197  -0.02559  0.004043
7.18e+10  0.007976  -0.02289  -0.3024  0.05595  0.1281  -0.253  0.02613  0.003235
7.19e+10  -0.004731  0.01009  -0.1258  0.2813  -0.08897  -0.2694  -0.01972  -0.03594
7.2e+10  0.002972  -0.01467  0.1659  0.26  -0.2535  -0.1315  -0.01781  0.02009
7.21e+10  -0.008872  0.008121  0.307  0.03278  -0.2678  0.1062  0.003591  -0.008138
7.22e+10  -0.00371  -0.006422  0.2321  -0.2036  -0.07889  0.2773  -0.02643  0.00591
7.23e+10  -0.0004324  0.02618  -0.01407  -0.3119  0.16  0.2401  0.01188  0.03327
7.24e+10  0.02057  -0.02112  -0.2675  -0.1667  0.2821  0.06269  0.01916  -0.02102
7.25e+10  -0.02391  0.0156  -0.2852  0.1384  0.2523  -0.1435  -0.023  0.0124
7.26e+10  0.03713  -0.004923  -0.05742  0.3147  0.07305  -0.2817  0.03455  0.008198
7.27e+10  -0.03326  -0.01114  0.1997  0.2506  -0.1731  -0.236  -0.01318  -0.02299
7.28e+10  0.03342  0.02787  0.3184  0.01906  -0.2924  -0.0148  0.01131  0.02592
7.29e+10  -0.003066  -0.04375  0.2117  -0.2373  -0.2126  0.2027  0.02657  -0.03401
7.3e+10  -0.008696  0.02541  -0.07801  -0.3116  -0.01615  0.2952  -0.02661  -0.01295
7.31e+10  0.01436  -0.03082  -0.3024  -0.1106  0.1955  0.2253  0.007408  0.002755
7.32e+10  -0.03028  0.01424  -0.28  0.1612  0.3011  -0.00131  -0.01043  -0.02438
7.33e+10  0.02513  -0.002006  -0.05528  0.3192  0.201  -0.2269  -0.02352  0.01304
7.34e+10  -0.01946  -0.006748  0.2203  0.2363  -0.02111  -0.3053  0.01953  0.002041
7.35e+10  0.01473  0.001244  0.3222  -0.03953  -0.2327  -0.2026  -0.02468  -0.02666
7.36e+10  -0.02323  -0.009733  0.1657  -0.2806  -0.3099  0.03075  -0.0158  0.0343
7.37e+10  0.01354  0.01704  -0.1094  -0.3091  -0.1829  0.2574  0.02081  -0.01497
7.38e+10  -0.01243  -0.02013  -0.3095  -0.1128  0.07266  0.3104  -0.03779  0.006206
7.39e+10  0.004794  0.02733  -0.2791  0.1789  0.2783  0.1618  0.03026  0.02605
7.4e+10  0.005833  -0.03535  -0.02824  0.3312  0.3118  -0.09412  -0.01134  -0.03693
7.41e+10  -0.03244  0.02983  0.2328  0.2337  0.1341  -0.2999  -0.01947  0.04035
7.42e+10  0.04171  -0.005673  0.3243  -0.01744  -0.1488  -0.2978  0.03938  -0.01151
