# GHZ S RI R 50
50	0.0723735745318055	-0.033176229802014	0	0	0.524061278902102	-0.102897595768053	0	0
0	0	-0.0989995410384964	0.0266274062540718	0	0	0.186162833697601	0.609829294165842
0.524061278902102	-0.102897595768053	0	0	-0.252937905243826	-0.00214325136527713	0	0
0	0	-0.0523615287222519	0.588721388821811	0	0	-0.255180130158122	-0.0158653066901198
50.1	0.0109481616607816	-0.0777648708932811	0	0	0.402779602141675	-0.34382755553798	0	0
0	0	-0.0281096795836767	0.100406860556507	0	0	0.509874688296418	0.400248146422251
0.402779602141675	-0.34382755553798	0	0	-0.249510543404994	-0.00312536913742165	0	0
0	0	0.193889689377428	0.54733413667732	0	0	-0.264006370239506	-0.0096205337858986
50.2	-0.0576419898850306	-0.0503265373737409	0	0	0.182636675399694	-0.491595009137158	0	0
0	0	0.0731001024023299	0.0781502838771263	0	0	0.656948329219328	0.0812908064366719
0.182636675399694	-0.491595009137158	0	0	-0.25106969809651	-0.00526821688598741	0	0
0	0	0.426050281721028	0.386281503625507	0	0	-0.257842093041053	-0.00272018704339164
50.3	-0.0722531416596218	0.0200552386950419	0	0	0.0764217434163789	0.515298008067224	0	0
0	0	0.106571037657489	-0.0216541400897611	0	0	-0.622151740176475	0.258361663286023
0.0764217434163789	0.515298008067224	0	0	-0.253706986430763	-0.00185414737666753	0	0
0	0	-0.555849919295043	-0.118659462240396	0	0	-0.260384907212273	-0.00690056233238921
50.4	-0.0215843088872322	0.0698232626426786	0	0	0.316665986946555	0.411284442616847	0	0
0	0	0.0392876333487811	-0.101704632205143	0	0	-0.401411124078717	0.556415485417786
0.316665986946555	0.411284442616847	0	0	-0.250811918375319	0.00336130675443029	0	0
0	0	-0.540313086048681	0.144967444710198	0	0	-0.265353222995942	0.00444345817482292
50.5	0.0455819300708097	0.053664881761978	0	0	0.475569790022463	0.204002214614153	0	0
0	0	-0.0647984683190785	-0.0878775702504998	0	0	-0.0148183331917385	0.702364647603929
0.475569790022463	0.204002214614153	0	0	-0.245424103572157	0.00322240253307117	0	0
0	0	-0.428912170294385	0.352773478570781	0	0	-0.252779254480443	0.011042873754485
50.6	0.0672816163635736	-0.0106286275754496	0	0	0.513930065734773	-0.05386740401063	0	0
0	0	-0.106747936052303	0.007725114771959	0	0	0.389203910718617	0.598603160280364
0.513930065734773	-0.05386740401063	0	0	-0.244567591159783	0.000667925167432783	0	0
0	0	-0.236285134126811	0.496265991836032	0	0	-0.250334458983008	0.00547500162109317
50.7	0.0235686185329741	-0.06135005446754	0	0	0.418763490690148	-0.298680079182102	0	0
0	0	-0.0486745946459013	0.0917380123194819	0	0	0.650396801223283	0.320296617698073
0.418763490690148	-0.298680079182102	0	0	-0.246236473820349	0.0022709634277923	0	0
0	0	0.0210767529005613	0.546224599475556	0	0	-0.249584413318318	0.0109409934234612
50.8	-0.0397496249874092	-0.0497520966578806	0	0	0.218780364703637	-0.461411810264906	0	0
0	0	0.0528655455334628	0.0862370716411063	0	0	0.735737648720878	-0.0428434004069064
0.218780364703637	-0.461411810264906	0	0	-0.244680661499389	0.00647975463714716	0	0
0	0	0.285040912291228	0.465336921586084	0	0	-0.240881215630402	0.0101628008074707
50.9	-0.0628393724278755	0.00942555320884766	0	0	0.031915221291475	0.508359141062713	0	0
0	0	0.0987996485687696	-0.00302534559243101	0	0	-0.604394594547429	0.434740428972688
0.031915221291475	0.508359141062713	0	0	-0.239186859806084	0.00949493228908939	0	0
0	0	-0.458605275645468	-0.286387482110822	0	0	-0.241527234328883	0.00825911085514211
51	-0.0243975617049043	0.0591258667222017	0	0	0.272824520200618	0.424952690716503	0	0
0	0	0.0471281260910403	-0.0872103424214722	0	0	-0.257708970729174	0.713277300541228
0.272824520200618	0.424952690716503	0	0	-0.232561655399059	0.00854871039191682	0	0
0	0	-0.532429883225834	-0.0751089650129876	0	0	-0.234624512113953	0.0129605714688282
51.1	0.0365580462871034	0.0529730188739617	0	0	0.439851072208672	0.236453226559571	0	0
0	0	-0.0528812774191532	-0.0859767310921614	0	0	0.170680276519354	0.752133002951559
0.439851072208672	0.236453226559571	0	0	-0.228462039347309	0.00383311381106013	0	0
0	0	-0.509395914440904	0.168346450497922	0	0	-0.227269969179392	0.00474381827396043
51.2	0.063611968396705	-0.000982511122750736	0	0	0.495229785280265	-0.00724718325878563	0	0
0	0	-0.102825537219595	-0.000650206519998569	0	0	0.514129280458853	0.58455181214133
0.495229785280265	-0.00724718325878563	0	0	-0.229695582073008	0.000188705592219915	0	0
0	0	-0.360238299323517	0.39412246645599	0	0	-0.231627085047891	0.00174722039602231
51.3	0.0332381589812746	-0.050930862755004	0	0	0.424177643465177	-0.244092974284231	0	0
0	0	-0.0571857909309649	0.0871513032502974	0	0	0.737383676936774	0.284319552862006
0.424177643465177	-0.244092974284231	0	0	-0.230549790985017	0.00217115762080602	0	0
0	0	-0.112739065633217	0.517405159380959	0	0	-0.22863792902121	0.00417863754582902
51.4	-0.0230015155117016	-0.052459512798432	0	0	0.250223160872326	-0.415272891557886	0	0
0	0	0.0424010647410715	0.0953725003821667	0	0	0.789516414191683	-0.146101063225062
0.250223160872326	-0.415272891557886	0	0	-0.226095515937366	0.00310908944787884	0	0
0	0	0.130463703706223	0.509161993380973	0	0	-0.227759352425368	0.00143746238170987
51.5	-0.0528830755581649	-0.0068199821929445	0	0	0.0153041864017241	-0.481111384143528	0	0
0	0	0.101593204103921	0.0163150416906073	0	0	0.582760501250818	-0.570403062762569
0.0153041864017241	-0.481111384143528	0	0	-0.22372544965679	-0.000390827916518012	0	0
0	0	0.32022152553099	0.410000992023482	0	0	-0.225854662453799	0.00699221436529635
51.6	-0.0307163875897308	0.0403925460393534	0	0	0.219035159331853	0.426444704898337	0	0
0	0	0.0672547734424867	-0.0762059888243537	0	0	-0.188018930965131	0.815677859648497
0.219035159331853	0.426444704898337	0	0	-0.225006477200729	-0.00172938313363842	0	0
0	0	-0.459858690101802	-0.231466861796681	0	0	-0.212234380375515	0.00185290081413052
51.7	0.0190437067847907	0.0459423709708286	0	0	0.392120567230655	0.269406946279738	0	0
0	0	-0.029544145380956	-0.0947609685296507	0	0	0.223723621319387	0.807479310175125
0.392120567230655	0.269406946279738	0	0	-0.223473110956932	-4.41412820989806E-05	0	0
0	0	-0.512846051333545	0.0286213836428508	0	0	-0.218762248727013	-0.0144587302569015
51.8	0.0493300073443927	0.00605893573872322	0	0	0.468193954057915	0.044215958826803	0	0
0	0	-0.0945265369049498	-0.0238409873313263	0	0	0.567235413394121	0.613588930480552
0.468193954057915	0.044215958826803	0	0	-0.219982823220382	-0.00127694763620898	0	0
0	0	-0.428614569907541	0.280319236353351	0	0	-0.231493276836308	-0.0054411003482881
51.9	0.0313101753394255	-0.0393746396724382	0	0	0.425295044918754	-0.185924254307183	0	0
0	0	-0.0693942765346372	0.0691261831298384	0	0	0.803160832772814	0.254933191604662
0.425295044918754	-0.185924254307183	0	0	-0.219217974703287	-0.00459693993881065	0	0
0	0	-0.247352702984607	0.450137039048663	0	0	-0.219544868207586	0.0022922102754577
52	-0.0156015959515276	-0.0484747936175232	0	0	0.281266223934796	-0.362960376023804	0	0
0	0	0.0242409583074746	0.0955357037026024	0	0	0.818169293727041	-0.223069604312858
0.281266223934796	-0.362960376023804	0	0	-0.221109131000905	-0.00612475979587864	0	0
0	0	-0.0288650228082256	0.509839662719453	0	0	-0.216106233110694	-0.00937282690295627
52.1	-0.0479542432210261	-0.0141219138544973	0	0	0.0710093181256244	-0.446749864376356	0	0
0	0	0.0954649539638971	0.0304366125788475	0	0	0.573757496910211	-0.636264443015527
0.0710093181256244	-0.446749864376356	0	0	-0.222022131948525	-0.00523763800515818	0	0
0	0	0.184018890278043	0.470554308419746	0	0	-0.222312286888855	-0.0108594822953946
52.2	-0.0375888152739806	0.0304032659840949	0	0	0.148361294896851	0.420163223483713	0	0
0	0	0.0794595318903747	-0.0659522886209038	0	0	-0.164082346461039	0.857357359667326
0.148361294896851	0.420163223483713	0	0	-0.223356549962818	-0.00442105598899925	0	0
0	0	-0.366347984222775	-0.337793240313145	0	0	-0.224844985825402	-0.0135542023743934
52.3	0.00330738994798237	0.0470198275204021	0	0	0.324367251383007	0.298301158427365	0	0
0	0	-0.0119014149182616	-0.105352348122006	0	0	0.287213285339913	0.83342297357833
0.324367251383007	0.298301158427365	0	0	-0.227335414039361	-0.00267657905931983	0	0
0	0	-0.471869608930402	-0.129895799171648	0	0	-0.239442451461507	-0.0109474723789487
52.4	0.0380812982456102	0.0227321969356653	0	0	0.419576628125413	0.11136272007794	0	0
0	0	-0.0946984984353508	-0.0506041242618617	0	0	0.670083332747225	0.592895265760508
0.419576628125413	0.11136272007794	0	0	-0.222738706405594	-0.000611187664439392	0	0
0	0	-0.477593033784652	0.0955748551035056	0	0	-0.235947638586596	0.00369533440562872
52.5	0.0389192262903221	-0.0173439292163417	0	0	0.417884722868206	-0.0946019971810067	0	0
0	0	-0.097570811075291	0.0495512989648666	0	0	0.890800129135691	0.164398523539161
0.417884722868206	-0.0946019971810067	0	0	-0.22126916168537	-0.00137060045325749	0	0
0	0	-0.390031914282302	0.290543067987443	0	0	-0.226279927543275	0.00491108116489639
52.6	0.00812099880568019	-0.0402920333373985	0	0	0.32460046135587	-0.271965903111313	0	0
0	0	-0.0160964237158909	0.107933873231233	0	0	0.849125662542199	-0.327776630128836
0.32460046135587	-0.271965903111313	0	0	-0.224514868230407	-0.000828813355656328	0	0
0	0	-0.22993654343904	0.423429105054751	0	0	-0.226534818804192	0.00355839182047712
52.7	-0.0269147994432698	-0.0292684192766261	0	0	0.164176085408443	-0.38533222621172	0	0
0	0	0.077276894468601	0.0749516472083933	0	0	0.547299945277468	-0.731844288392036
0.164176085408443	-0.38533222621172	0	0	-0.22559845477664	0.0059361766036464	0	0
0	0	-0.0362082559323086	0.477819931619625	0	0	-0.226554225700098	0.00602486169496776
52.8	-0.0389116806902295	0.00420363709659185	0	0	0.0267996188723347	0.416180164760304	0	0
0	0	0.102237889946553	-0.0185836818534341	0	0	-0.0672760234749825	0.905281268933368
0.0267996188723347	0.416180164760304	0	0	-0.220962725628112	0.0123449969758676	0	0
0	0	-0.157556008687661	-0.451228932561651	0	0	-0.228924252775863	0.0109048320637754
52.9	-0.0190602968342898	0.0337159194480364	0	0	0.212898866462187	0.35881820682756	0	0
0	0	0.042374476811613	-0.0897023880794993	0	0	0.417784011338635	0.796612552736427
0.212898866462187	0.35881820682756	0	0	-0.213739438809549	0.0145854315164285	0	0
0	0	-0.32485411796532	-0.351985708611282	0	0	-0.222216675898671	0.0248996648541776
53	0.0158352244791894	0.0351164685302321	0	0	0.352849955675904	0.224191920150005	0	0
0	0	-0.0475416632974927	-0.0818620089643441	0	0	0.765030253704418	0.45944625330159
0.352849955675904	0.224191920150005	0	0	-0.206923906547646	0.0148584797398793	0	0
0	0	-0.446550466526717	-0.188053420733499	0	0	-0.201014836016391	0.0254355793919964
53.1	0.0381864496330537	0.00858856125683917	0	0	0.419748479968665	0.0424624693507464	0	0
0	0	-0.0887982933598035	-0.00508386519601425	0	0	0.87676307061112	0.00320536660212638
0.419748479968665	0.0424624693507464	0	0	-0.199351587267599	0.0119572072956263	0	0
0	0	-0.486561818381349	0.0225363720611043	0	0	-0.194391828843216	0.0084405369519659
53.2	0.0301809905035245	-0.0259312144305813	0	0	0.399173483802979	-0.153762482401779	0	0
0	0	-0.0498603926489883	0.067458609084469	0	0	0.742306394534425	-0.424213647441792
0.399173483802979	-0.153762482401779	0	0	-0.194692647114962	0.00513214968150312	0	0
0	0	-0.432791193860506	0.229909751277566	0	0	-0.20224044226647	0.00535406348842229
53.3	-0.00283840387313968	-0.0398767922484575	0	0	0.288937949882116	-0.322167462102883	0	0
0	0	0.0286640671697643	0.0759515742408519	0	0	0.420911646198315	-0.720431022733398
0.288937949882116	-0.322167462102883	0	0	-0.19607589540421	-0.00102463651511946	0	0
0	0	-0.301418028403921	0.396976252596076	0	0	-0.197766001665666	0.0115763100250589
53.4	-0.0343610073536222	-0.0213982423917746	0	0	0.112380755662467	-0.425797307823261	0	0
0	0	0.0779875943515292	0.0160933845108106	0	0	0.00521911643783623	-0.812008433575748
0.112380755662467	-0.425797307823261	0	0	-0.198365982255288	-0.00117907801154901	0	0
0	0	-0.103761027419224	0.495864606493549	0	0	-0.187496486913844	0.00670715093382727
53.5	-0.0372819371241419	0.016415288321484	0	0	0.0980756725967393	0.438578511755241	0	0
0	0	0.0556239853258383	-0.0560065826773474	0	0	0.366451449561795	0.691931696648076
0.0980756725967393	0.438578511755241	0	0	-0.194473160780041	-0.000709720340374281	0	0
0	0	-0.132062245858298	-0.498269183002844	0	0	-0.184832500648185	-0.00337672190341198
53.6	-0.00641315801181688	0.0405638281017719	0	0	0.296774477861724	0.347670209217217	0	0
0	0	-0.014646722176149	-0.0780463460433505	0	0	0.61971514523829	0.429701596029988
0.296774477861724	0.347670209217217	0	0	-0.191379093716641	-0.00727794400018656	0	0
0	0	-0.351006758308968	-0.392945884824193	0	0	-0.186556323704827	-0.0123322967532546
53.7	0.0318945053451954	0.0280836244417067	0	0	0.431250419658296	0.172699631989326	0	0
0	0	-0.0725538830534791	-0.0330430276001453	0	0	0.721467462341378	0.0868956242856812
0.431250419658296	0.172699631989326	0	0	-0.196128623602658	-0.0141491434310231	0	0
0	0	-0.497447630854128	-0.197514747483382	0	0	-0.194949411599903	-0.0191777629459146
53.8	0.0428819169269104	-0.0125055905306547	0	0	0.468665179276649	-0.0489037946795244	0	0
0	0	-0.0693752289945055	0.0396328165056306	0	0	0.654681119049642	-0.253667172042281
0.468665179276649	-0.0489037946795244	0	0	-0.203105779013697	-0.0133465965409042	0	0
0	0	-0.540762699796228	0.0426706880482506	0	0	-0.203906950620004	-0.0151199172588347
53.9	0.0138798780103465	-0.0453885663609167	0	0	0.395772346322909	-0.266631383165055	0	0
0	0	-0.00984583834736555	0.0794155703923386	0	0	0.448363711856742	-0.517736443229044
0.395772346322909	-0.266631383165055	0	0	-0.205674122605853	-0.00969453473713894	0	0
0	0	-0.474109163413206	0.275076508822184	0	0	-0.201859854420985	-0.0104314206338643
54	-0.0314777602592412	-0.0394814236648466	0	0	0.226913663742627	-0.426321229722636	0	0
0	0	0.0570615963083023	0.0554037362220378	0	0	0.157785876271978	-0.649785716694884
0.226913663742627	-0.426321229722636	0	0	-0.206702897309124	-0.00735246402371476	0	0
0	0	-0.304331621558842	0.459026800495182	0	0	-0.202574219771106	-0.0148874331814277
54.1	-0.0527953180492802	0.00251799998622374	0	0	0.00200395814102912	-0.487880215059887	0	0
0	0	0.0780942320299653	-0.0117449154042031	0	0	-0.146967257565769	-0.635032568976971
0.00200395814102912	-0.487880215059887	0	0	-0.208323389211843	-0.00400290900719361	0	0
0	0	-0.0647386759591195	0.550006737630123	0	0	-0.211486742365664	-0.0139325433267213
54.2	-0.0303988454633519	0.0455086031807769	0	0	0.227789436589309	0.437204125278483	0	0
0	0	0.0380636591660226	-0.068638332040771	0	0	0.405690350539116	0.49284998310271
0.227789436589309	0.437204125278483	0	0	-0.208341149798353	0.00113047400174325	0	0
0	0	-0.190900913910082	-0.522382109513572	0	0	-0.216595059597723	-0.00545872395346836
54.3	0.0188748307424074	0.0530673745072261	0	0	0.409793778980824	0.28480388956137	0	0
0	0	-0.0300960274754629	-0.0719100184494732	0	0	0.572777609436496	0.253850869852641
0.409793778980824	0.28480388956137	0	0	-0.20784156533134	0.00443792534922932	0	0
0	0	-0.400659329387395	-0.384850643170391	0	0	-0.218671871488637	0.00400873149643977
54.4	0.0534551255772901	0.016133757802053	0	0	0.501278965791799	0.0626964788382239	0	0
0	0	-0.0732413495090552	-0.0205746671675252	0	0	0.621269987985357	-0.0382395110047358
0.501278965791799	0.0626964788382239	0	0	-0.20214285747758	0.00597620299488497	0	0
0	0	-0.525190780141555	-0.173767758148936	0	0	-0.208775334040925	0.0123770296406101
54.5	0.0446925376156498	-0.0330219886921779	0	0	0.479498701463918	-0.176130627372492	0	0
0	0	-0.0598945672609528	0.044855635862286	0	0	0.53082916286008	-0.324908865725527
0.479498701463918	-0.176130627372492	0	0	-0.199432236131952	0.00785795516402373	0	0
0	0	-0.544811719828648	0.0750275786105479	0	0	-0.199208008544988	0.0110859575739008
54.6	0.000265751280927134	-0.0552395228215968	0	0	0.350910058685645	-0.379198006542111	0	0
0	0	-0.00100862397868597	0.0727616406989937	0	0	0.323736567558329	-0.528790368914054
0.350910058685645	-0.379198006542111	0	0	-0.196300732044082	0.00915695101525584	0	0
0	0	-0.44935176593618	0.31121327846269	0	0	-0.201861486553947	0.00669351947960542
54.7	-0.0433819446500615	-0.0319986721743747	0	0	0.141207706488648	-0.500782841070795	0	0
0	0	0.0542320996958927	0.0446187595184289	0	0	0.0657564053512795	-0.612590244199681
0.141207706488648	-0.500782841070795	0	0	-0.193168238417979	0.00993520012083908	0	0
0	0	-0.258650995788857	0.480779014229785	0	0	-0.204312683437372	0.0169065046499345
54.8	-0.0494662134333836	0.0159343910836692	0	0	0.101697508676975	0.511540423016814	0	0
0	0	0.0660988656815968	-0.0140091429258827	0	0	0.20548386828113	0.575419201445582
0.101697508676975	0.511540423016814	0	0	-0.18967539071391	0.0108602166486426	0	0
0	0	0.0198842345071132	-0.5508612511689	0	0	-0.190486164508698	0.0250898963772382
54.9	-0.0146797351408347	0.0485126233051713	0	0	0.323747680676749	0.411574406579305	0	0
0	0	0.0279503181290189	-0.0579885319314628	0	0	0.433802738929095	0.422251784517162
0.323747680676749	0.411574406579305	0	0	-0.184199608828964	0.0109402675666331	0	0
0	0	-0.226790962409741	-0.505234610803237	0	0	-0.177208215773944	0.0180621498999849
55	0.0318256914838186	0.0382267829142506	0	0	0.477379800067637	0.218861003247597	0	0
0	0	-0.0281355757030916	-0.0546964886825482	0	0	0.573875109460357	0.171269599818933
0.477379800067637	0.218861003247597	0	0	-0.178353177257872	0.00686921073067363	0	0
0	0	-0.418154237156885	-0.367128428518532	0	0	-0.173665744208597	0.00780994937846763
55.1	0.049487966305104	-0.00559921899912118	0	0	0.524766098875572	-0.024329262428747	0	0
0	0	-0.0586594431223229	-0.00926022889755009	0	0	0.583819172092181	-0.123592682754502
0.524766098875572	-0.024329262428747	0	0	-0.177171215854575	-0.000222976876269945	0	0
0	0	-0.529395850748632	-0.168351251527958	0	0	-0.17707304471617	0.000324644051055183
55.2	0.0232213671807538	-0.0457262366988219	0	0	0.45549311448581	-0.26312970545115	0	0
0	0	-0.0411056958806346	0.0408551708623032	0	0	0.457173754471834	-0.381838540376507
0.45549311448581	-0.26312970545115	0	0	-0.181220768418928	-0.00404866801957048	0	0
0	0	-0.548654550802579	0.059394665470292	0	0	-0.18260038483496	0.00312169211202259
55.3	-0.0251299331359204	-0.0466706747076153	0	0	0.284905306061998	-0.443290058905116	0	0
0	0	0.00823835731729464	0.057080208630977	0	0	0.232411870869478	-0.548547927049368
0.284905306061998	-0.443290058905116	0	0	-0.183936421907025	-0.00148134298600928	0	0
0	0	-0.475654251367532	0.278362416063075	0	0	-0.174013366990439	0.00883304153254747
55.4	-0.0543471045029899	-0.00855168034694818	0	0	0.0544304851154216	-0.526363818685041	0	0
0	0	0.0511047583915273	0.0274161236331835	0	0	-0.0535761717884539	-0.593630163346857
0.0544304851154216	-0.526363818685041	0	0	-0.180477727828988	0.000851174360776509	0	0
0	0	-0.321374941875105	0.446030980223575	0	0	-0.163392131883965	-0.00341013025746285
55.5	-0.0412673225008679	0.0385942821987441	0	0	0.189204772230179	0.497403720935329	0	0
0	0	0.0530867190474748	-0.0245220794928286	0	0	0.330939322152434	0.491978197671331
0.189204772230179	0.497403720935329	0	0	-0.176039036443393	-0.00330404901837661	0	0
0	0	0.120045307373736	-0.532661975333079	0	0	-0.171832456712886	-0.0174356632354354
55.6	0.00499901804907866	0.0559645580614064	0	0	0.394069986684446	0.358735720018779	0	0
0	0	0.01376182112043	-0.0578887276830051	0	0	0.5217961180017	0.277949163717552
0.394069986684446	0.358735720018779	0	0	-0.178811346301431	-0.00981457026377305	0	0
0	0	-0.0981687020398979	-0.534658153597476	0	0	-0.183693933504133	-0.0162544399827015
55.7	0.0461860723621283	0.0300120734832977	0	0	0.513062888399056	0.143904188705162	0	0
0	0	-0.0372895089080124	-0.0482674104677403	0	0	0.592087555461597	0.0197568325582794
0.513062888399056	0.143904188705162	0	0	-0.186074553847318	-0.00992374917148806	0	0
0	0	-0.31318895329275	-0.44209390883639	0	0	-0.188307033854019	-0.0105898327442862
55.8	0.0508336618552012	-0.0182983834855584	0	0	0.525298608518493	-0.100197762327199	0	0
0	0	-0.0623909459399254	-0.00274242760493792	0	0	0.547319153039312	-0.229676145152307
0.525298608518493	-0.100197762327199	0	0	-0.189288792245127	-0.0036134973193033	0	0
