#  HZ   S   RI   R     50.00 
! Rohde & Schwarz ZVA67 4Ports - Version 3.90 - 1312.7004k03 SN: 101122
! Date: 2018-02-09 12:06:48
! Measurements: S11 S21 S12 S22 
! 
 5.000000000000000E10    1.302782720676387E-3   2.047375987028296E-3   5.546194722903340E-7  -2.443948149540324E-6  -4.655894758646118E-7  -4.955593156488950E-7   9.228790752115919E-4  -2.667700137689990E-3  
 5.010000000000000E10    1.321135067939703E-3   1.222007487273995E-3  -8.607071061527928E-7   3.659224350811546E-7  -1.295262988113005E-6  -3.151318905890365E-7   7.126082644793832E-4  -2.233050177637285E-3  
 5.020000000000000E10    7.604713587698129E-4   6.923802539976493E-4  -4.902678756914580E-8  -1.471681593700910E-6   5.541671950666827E-7  -6.819862792101979E-7   5.140848809149716E-4  -1.554789953541639E-3  
 5.030000000000000E10   -9.055993972221223E-5   7.017937707470461E-4  -2.230984559192812E-6   1.523155889656597E-6  -5.725064400822245E-7   6.105677237017233E-7   4.864328117478598E-4  -6.560779979871667E-4  
 5.040000000000000E10   -7.601921911204612E-4   1.309568635936507E-3   3.141281252925753E-6   3.868046336866355E-7   6.903124490914817E-7   1.669990810589177E-6   8.481848755692341E-4   3.011064796839964E-4  
 5.050000000000000E10   -7.291447970817227E-4   2.418243089404154E-3   1.081667147811912E-6  -1.523812839221089E-6  -2.260876591933220E-6  -8.074611829006541E-8   1.614122290543045E-3   9.069186407983245E-4  
 5.060000000000000E10   -1.320367361149509E-4   3.473084869367980E-3   4.341833901625064E-6  -2.000048151518013E-6   5.231168860451059E-7   7.472889896720886E-7   2.339774371171965E-3   1.208655448979216E-3  
 5.070000000000000E10    1.310122432806642E-3   4.166998586027843E-3  -2.956641017636035E-6   4.307228529823599E-6   2.125604602854087E-7  -7.778288860527606E-7   3.178439840313420E-3   1.093885721121089E-3  
 5.080000000000000E10    3.207017034796981E-3   4.153608383098910E-3   3.509796798991305E-7  -1.332250320202009E-6   5.063856750337395E-7   9.462065083978476E-7   3.390890153693598E-3   6.754876284894421E-4  
 5.090000000000000E10    4.695964556018584E-3   3.186926432933690E-3   1.857812071261540E-7   1.612122929583349E-6  -1.882339299943724E-6  -3.996861421627509E-7   3.372206341339805E-3   3.334396048088653E-4  
 5.100000000000000E10    6.075340247738526E-3   1.719882611093285E-3   1.101193159157415E-6  -2.500667899003653E-6  -2.188570977699732E-7   1.494616295423916E-7   3.187960747366901E-3   7.218349849143962E-5  
 5.110000000000000E10    6.604328200168008E-3  -5.241166935361182E-4  -2.348637704583064E-6   2.759478510594135E-7  -1.391661724927711E-6   6.225169942109242E-7   2.973367477390562E-3   2.185666526666721E-5  
 5.120000000000000E10    5.891009650862598E-3  -2.378451554063909E-3   2.131761562030465E-6  -2.648901935998739E-6  -4.962752369229386E-7  -1.246261968251391E-6   2.692958807525848E-3  -1.787617992139011E-4  
 5.130000000000000E10    4.676231916844362E-3  -3.657613151214541E-3  -3.782046717391632E-7  -3.219019610166681E-6  -6.550611536086909E-7  -2.235932143370782E-7   2.310519005167742E-3  -2.370907377104059E-4  
 5.140000000000000E10    3.667719431497374E-3  -4.489404469218309E-3   8.213538522251937E-7   1.972762909813942E-6   1.569082061955070E-6   1.567694619648536E-7   1.484138440498007E-3  -7.288443049432744E-5  
 5.150000000000000E10    2.390850712865638E-3  -4.517754455930666E-3   1.686288767206089E-6  -3.037735570584110E-6   1.224645428166894E-6  -9.883071665990351E-8   6.879008877612065E-4   1.458030161383199E-4  
 5.160000000000000E10    1.557368925867949E-3  -4.355165507578482E-3  -1.258509966976000E-6  -7.756793128452420E-8   2.872055725111812E-6   1.004608285946404E-8   8.630440806351841E-5   4.420454816749216E-4  
 5.170000000000000E10    1.144688765578977E-3  -4.211938393702703E-3   3.125671301486325E-7  -1.197360991169880E-6  -1.094872906363035E-6   2.152710757084613E-6  -3.652802575217563E-4   6.451445314160538E-4  
 5.180000000000000E10    1.256296189683999E-3  -4.439123127218554E-3  -6.345962508159159E-7  -2.408065300655824E-6   1.537294568547059E-6   2.199723228562071E-6  -7.099061113407936E-4   8.020200653413459E-4  
 5.190000000000000E10    1.135808142006571E-3  -5.039586039552773E-3  -1.609566654481807E-7   2.883065571138416E-6  -1.341797343387469E-6   6.285912095401128E-7  -1.019903917128955E-3   8.374688150784265E-4  
 5.200000000000000E10    8.568710543510125E-4  -5.981112102759942E-3   4.853771595381804E-7  -1.400340034267790E-6   1.019732391313263E-6  -2.335515430450065E-7  -1.382748046861737E-3   8.546427758128189E-4  
 5.210000000000000E10   -1.802669084583505E-4  -6.591424330699596E-3  -4.716664932800380E-6   8.154006504455788E-7   4.235909977115972E-7   1.420515867243384E-6  -2.459009078440101E-3   7.757077711350557E-4  
 5.220000000000000E10   -1.058024546110764E-3  -6.877339184935378E-3   1.768672568010381E-6  -1.843712039042649E-6   2.476681455449079E-6  -7.276356446681719E-7  -3.430648650916000E-3   5.448942801306001E-4  
 5.230000000000000E10   -3.014295627830757E-3  -7.467270069342030E-3   3.170378538598782E-6  -1.428560925738458E-6  -3.603438194835796E-6   8.929408298210855E-7  -4.080654979077883E-3   6.354891078979099E-4  
 5.240000000000000E10   -5.303913510284470E-3  -7.531658839033368E-3   2.424261540937703E-6  -1.765285684709714E-6  -7.915633503466539E-8  -7.289142169903571E-7  -4.690882039440835E-3   1.387288000146045E-3  
 5.250000000000000E10   -6.257948946531982E-3  -6.235211507293274E-3   9.106473518183065E-7   7.362447940804774E-6  -2.571649641804432E-6   6.263877125145747E-7  -5.861934671991673E-3   2.295794557228410E-3  
 5.260000000000000E10   -7.566165730659618E-3  -5.143241104426407E-3   2.824873689874239E-6   2.163849774384679E-6   1.058550917029591E-6  -1.602199193078610E-6  -6.774164676409392E-3   2.965176898144764E-3  
 5.270000000000000E10   -7.621587300731504E-3  -4.018800098719222E-3   5.327801958600560E-7   7.427906623579015E-7   4.000916269677745E-9  -1.062415079489128E-6  -7.231823360937336E-3   2.372104556552541E-3  
 5.280000000000000E10   -7.688731433792995E-3  -2.879689473554642E-3   4.943795462244974E-7  -1.368864443923484E-11  -3.103624038363838E-7   9.182117573345752E-7  -7.388010939867923E-3  -8.222109867194177E-4  
 5.290000000000000E10   -6.638195476032330E-3  -3.894606678031063E-3   5.397105970507781E-7   1.795534514573519E-6   8.645436650102932E-7  -1.030669343572273E-7  -8.760865926548267E-3  -4.507566528648374E-4  
 5.300000000000000E10   -6.728233934439673E-3  -4.689303622970764E-3   1.884285067300294E-6  -3.089910105389770E-7  -7.906048886228614E-7  -5.971001584041580E-9  -8.614663095729312E-3   1.306326983100029E-3  
 5.310000000000000E10   -7.863549090145285E-3  -4.298344714449642E-3  -2.258148081503923E-6  -1.164187669510806E-6   3.442937931062279E-7   8.255379394909450E-8  -8.346722786226855E-3   2.827870692449428E-3  
 5.320000000000000E10   -9.371427864010811E-3  -2.498997128682216E-3  -2.583829020990238E-7  -4.567420414435139E-6   5.719772349497539E-7  -1.846615030782341E-6  -6.462905244501300E-3   5.189884217225544E-3  
 5.330000000000000E10   -8.850397721896103E-3   1.381912598853579E-3  -3.684706163343933E-6  -1.062170169407237E-6  -2.701095858770495E-7   4.810328567928637E-7  -4.261301281727276E-3   5.176858678752195E-3  
 5.340000000000000E10   -6.704407407202033E-3   4.812045054449740E-3  -2.380724524109064E-6   1.253964191681836E-6   7.084923351227667E-8  -6.402740165504598E-7  -4.206574020266546E-3   4.008172201996507E-3  
 5.350000000000000E10   -5.838656778846080E-3   4.871061296613881E-3   2.308975907188277E-6   2.071319341577761E-6  -8.458056980424891E-7   3.156983590305725E-7  -4.692126954781577E-3   2.951478068393373E-3  
 5.360000000000000E10   -4.866428989393315E-3   4.910028435483708E-3  -7.023709895395244E-6   1.090354071452213E-7   9.668080729380010E-7   1.926298723621230E-7  -4.933430714071123E-3   2.589028025767247E-3  
 5.370000000000000E10   -4.060435028849313E-3   4.604666070813506E-3   2.547489395592341E-6  -2.438461202153121E-6  -1.370674632538199E-6   4.014786994652651E-7  -5.261125725758396E-3   2.670108999882966E-3  
 5.380000000000000E10   -3.697920308228339E-3   4.951982064718925E-3  -1.730435236589972E-6  -6.171160173404994E-7   1.578736352849957E-6   8.407805855380039E-7  -6.224445074544047E-3   3.486533747483580E-3  
 5.390000000000000E10   -2.177810046352206E-3   3.568923234033722E-3   1.925754730168594E-7   1.355331405874400E-6   1.081990884078327E-6  -3.370004169268780E-7  -5.650080715122321E-3   3.990616445926253E-3  
 5.400000000000000E10   -1.683715118057827E-3   2.794759232330103E-3  -1.165347279583705E-6   1.257467378043006E-8   9.141326624373350E-7  -3.217292380548371E-7  -4.673979652117659E-3   3.924401654335405E-3  
 5.410000000000000E10   -1.663512491697099E-3   2.203607969097948E-3  -2.298516704764812E-6   1.069545182229948E-7   1.766395433469623E-6   5.543234424146251E-7  -3.835688061997225E-3   3.559191684797003E-3  
 5.420000000000000E10   -1.688711020866767E-3   1.657079678248223E-3   1.135130651762674E-6   2.644154719590992E-7  -1.147117657179242E-7  -1.746390824129775E-6  -2.634449607168165E-3   3.008868396467997E-3  
 5.430000000000000E10   -1.968072842606927E-3   1.560370151214121E-3  -5.764861065488405E-7  -2.793077486007840E-7   4.595022314203681E-7   6.191470865532143E-7  -1.657070091885098E-3   2.545139086105626E-3  
 5.440000000000000E10   -1.976519943752505E-3   1.417698687139984E-3   6.783071647979928E-7   8.779923589775905E-7  -1.517477393680621E-6   2.045085008231959E-6  -8.604594423247655E-4   2.037590308325850E-3  
 5.450000000000000E10   -1.593757370763473E-3   1.327280716196569E-3   2.642196420577227E-7   2.389046196054233E-7  -2.165248810229577E-6   4.215141983803586E-7  -1.299178575141688E-5   1.506577109586230E-3  
 5.460000000000000E10   -1.048281696373745E-3   1.276630731463572E-3   2.468555840303907E-6  -2.096976131046051E-6   5.716960134614555E-7   1.332457883974322E-6   5.502245492282224E-4   6.027741267664317E-4  
 5.470000000000000E10   -2.849765877757013E-4   8.302419025805453E-4  -7.512812653310784E-7  -3.157806953900348E-6  -9.744361304645302E-7  -7.178843118914849E-7   5.528671822396479E-4  -2.608409710762744E-4  
 5.480000000000000E10    3.033043033998287E-4  -2.757903803041669E-4   5.262575475846327E-7   2.642333128757967E-6  -1.590088505302954E-6  -1.990583258325051E-6   3.355484769530350E-4  -5.699094523233269E-4  
 5.490000000000000E10    3.191281586800438E-4  -1.634887672175898E-3   1.613819328542270E-6  -1.066508883538261E-8   1.326636715968296E-7  -1.098012666877580E-6   2.892111637958403E-4  -5.504292292056736E-4  
 5.500000000000000E10   -1.920383613118408E-4  -3.029705078633596E-3  -7.364828320986530E-7   1.432309298361799E-9  -2.606135918862692E-8   7.635946980649526E-7   3.195976139255529E-4  -3.334176678631134E-4  
 5.510000000000000E10   -1.114625124073105E-3  -4.449722222610371E-3  -3.580116297836783E-6   1.196719320936730E-6   7.426977144486354E-7   5.256932834772290E-7   3.941868577610581E-4   3.077792319942472E-5  
 5.520000000000000E10   -3.192378733391428E-3  -4.800576319542553E-3   1.973331551152048E-7   4.727757212565731E-7  -3.081941624357304E-7   9.892614918635225E-7   6.984638216341105E-4   4.401392311586938E-4  
 5.530000000000000E10   -5.361707185893277E-3  -4.574453478732843E-3   5.081543911199039E-8  -5.516326555202358E-7  -1.014296076161519E-6  -1.231262050201470E-7   1.201266324329160E-3   1.060662188093489E-3  
 5.540000000000000E10   -7.269180772157544E-3  -3.833595712236361E-3   2.123079413090147E-6  -1.965368962979787E-6   1.301227662072540E-6   1.546628001549344E-6   1.903893675244666E-3   1.510847625909581E-3  
 5.550000000000000E10   -8.183504764337143E-3  -2.306246185989322E-3   4.357257874969297E-7   7.795115897404448E-7  -6.533204139767213E-7   1.173019395286455E-6   2.495499931260605E-3   1.746663704405426E-3  
 5.560000000000000E10   -8.627214916408769E-3  -4.606439913491463E-4  -4.763499078744400E-7  -8.357268023472391E-7   8.780076116133020E-7   1.229722929067154E-6   3.272556615647248E-3   1.684092310155817E-3  
 5.570000000000000E10   -8.281601179743020E-3   1.312589042835955E-3   3.923706371920095E-7  -1.107311609699202E-6  -1.678140389329390E-6   1.909276095024226E-7   4.255292812612429E-3   1.618286549104542E-3  
 5.580000000000000E10   -7.209570676629407E-3   2.133656118055365E-3   1.185908108128275E-6   1.281608112584985E-6   5.196144469472332E-7  -3.492726586640959E-7   5.121624053203629E-3   1.505164636965963E-3  
 5.590000000000000E10   -6.067032763771406E-3   2.346758229859515E-3  -6.898374891666935E-7   1.098633324647852E-6  -1.882098563138674E-7  -1.694051183975667E-6   5.193497376133181E-3   1.065069351698443E-3  
 5.600000000000000E10   -5.156169893234681E-3   2.157888122544032E-3   5.604163165519995E-7   6.302192541230437E-7  -4.520706533374028E-7  -1.465693442508828E-6   4.579497410925663E-3   8.799844711017292E-4  
 5.610000000000000E10   -4.432665922138455E-3   1.860115671860921E-3   1.544865672372320E-6  -1.279827966580341E-6  -5.448929049964346E-7   8.972746830210366E-7   4.108296063206948E-3   1.624558299848416E-3  
 5.620000000000000E10   -4.047141732651927E-3   1.330775091490293E-3   3.324172706958952E-7  -5.750731032612435E-8   3.425702604088098E-7   1.141030891878407E-6   3.387718567742018E-3   2.502445196399350E-3  
 5.630000000000000E10   -4.384848832882781E-3   6.920402083688194E-4   4.417579812380706E-7   4.182905646809598E-7   5.038837674096558E-7   3.982686806143676E-7   3.186054706178395E-3   3.399294079577964E-3  
 5.640000000000000E10   -5.390487605706885E-3   9.272238197924911E-4   4.419743851928699E-7   4.754460821722990E-7  -1.461233489008645E-6   7.963764322030229E-8   4.059742037802844E-3   4.827200211792032E-3  
 5.650000000000000E10   -5.920205049751022E-3   4.857967894131622E-4  -1.070143044070116E-6   1.999535150201418E-6  -3.246889846755674E-7  -1.953659170772835E-8   3.420535984675670E-3   5.768279321764987E-3  
 5.660000000000000E10   -6.885791765319687E-3   1.822809100103742E-3   1.269590251157330E-6   9.643860487588842E-7  -3.022263593542652E-6   4.417916939570217E-7   3.527578423884877E-3   6.374525850202829E-3  
 5.670000000000000E10   -7.121408625379206E-3   3.177323886725665E-3  -4.398458680800967E-7   1.083301018098197E-6   9.854166980579150E-7  -1.842934137184091E-6   4.691914206389941E-3   7.598930793612980E-3  
 5.680000000000000E10   -7.207385473636273E-3   4.256681116324015E-3  -1.279828236239691E-6   3.460376912699843E-7  -4.826061246243817E-7  -1.806750851417757E-7   3.518774660504630E-3   8.551935557410323E-3  
 5.690000000000000E10   -6.184818464400793E-3   5.970685485499987E-3  -3.731316692272798E-7   1.131280209095848E-6   1.417701077265271E-6  -6.090334939190287E-7   4.051895788257139E-3   7.935002004343356E-3  
 5.700000000000000E10   -4.954312203058170E-3   6.636200917279531E-3  -4.448845010742022E-7   2.864149808613627E-6  -1.480822232513531E-6   1.360204622068408E-8   7.491884393375029E-3   8.318119708929813E-3  
 5.710000000000000E10   -3.324172207794388E-3   7.282205151369476E-3  -2.434828585755907E-8   7.974867547366440E-7  -3.280380371026303E-7  -9.066346403452859E-7   8.598125938096141E-3   8.254011988735030E-3  
 5.720000000000000E10   -1.927374864165418E-3   6.698080890774768E-3  -1.393078055487337E-6  -1.519227477043937E-6  -3.271017133206962E-7  -1.495197037621926E-7   8.712208799677684E-3   7.138525642277269E-3  
 5.730000000000000E10   -7.824056851798770E-4   6.452570529122919E-3  -8.232817126243298E-7   8.996279357867324E-7  -1.462317374869241E-6   1.741879600180900E-7   6.561156872519355E-3   6.322696274219702E-3  
 5.740000000000000E10   -4.239542476833752E-4   5.658152335889718E-3   7.971052698036642E-7   1.714260214106928E-6  -1.065544127605333E-6   7.224619890833954E-7   6.014940380181239E-3   5.953205127067209E-3  
 5.750000000000000E10   -3.216787547872788E-4   4.890785035391971E-3   2.472870926568083E-7   2.844503632313030E-7  -1.306996258261310E-7  -1.445620471418179E-6   6.936930444042087E-3   6.623096508859223E-3  
 5.760000000000000E10   -5.366410707358579E-4   4.417806427157898E-3   2.207059273256645E-6   7.656287892792770E-7   1.522362519933736E-6   7.339414759990147E-8   6.479114663960011E-3   7.181326353684523E-3  
 5.770000000000000E10   -9.007663873491895E-4   4.354744498336588E-3   2.977460264268370E-6   1.421911355274626E-7   4.247621057389698E-7   1.197256022762983E-6   5.004239914833432E-3   6.934327007590566E-3  
 5.780000000000000E10   -7.630632926022859E-4   4.912202892588789E-3  -1.618623290822745E-7   7.365554687910686E-8   2.265020052770795E-6   1.625674239847787E-7   4.684812885909321E-3   6.389920755978094E-3  
 5.790000000000000E10   -6.553523349419561E-4   5.311084503894280E-3  -8.339221176737211E-7  -1.870817848140823E-6  -2.351836531722112E-7  -3.900608863674348E-7   4.224777121413647E-3   6.110515144978909E-3  
 5.800000000000000E10   -1.750425939316436E-4   5.586231122895078E-3   7.838911790687886E-7  -1.971647185582874E-7   9.019913253215909E-7   1.309263647691903E-6   3.722888301643813E-3   6.547244634429270E-3  
 5.810000000000000E10    7.010657891958959E-4   6.007313520458940E-3  -3.289817028017198E-7   5.613287222933947E-7   3.051210085568872E-6   1.435234333762599E-7   2.485834810348103E-3   6.282155611439673E-3  
 5.820000000000000E10    1.886224262400207E-3   6.123129776761245E-3   1.834326702511809E-7   8.437061316669305E-7   1.105166655008575E-6   1.595045820585842E-6   3.302611507826118E-3   6.341695560153774E-3  
 5.830000000000000E10    2.330857818858226E-3   5.379316838243683E-3   1.020780709785616E-6  -4.183317449764059E-7   1.005763217149392E-7   2.032743146960567E-6   3.439995850957080E-3   5.998387012492406E-3  
 5.840000000000000E10    2.960367053617899E-3   4.654060283700292E-3  -2.378787355559221E-6   1.350906839243123E-6   2.568853676281108E-6   2.396794703850657E-6   3.604637267629290E-3   5.427546697122899E-3  
 5.850000000000000E10    4.046561760845373E-3   4.045428590654435E-3   4.491829922069090E-7  -5.888148248895131E-7  -9.781670245729986E-7   1.977601739440131E-6   2.212743072258977E-3   3.565353525440425E-3  
 5.860000000000000E10    4.023223164880575E-3   3.185282995458286E-3  -1.572007961913704E-6  -1.687127869411181E-6  -3.679828620107990E-7  -7.894590998523082E-8   1.424154918454768E-3   2.039078308353255E-3  
 5.870000000000000E10    4.173276194269011E-3   2.363972994704373E-3   5.725409492850772E-8  -2.105855604475283E-6   1.507784977346240E-6  -5.685045114346429E-7   2.042808145825385E-4   9.884104659266032E-4  
 5.880000000000000E10    4.053846491432041E-3   1.804032538785802E-3   4.122535870151371E-7  -1.822952331459695E-6   1.488168930174434E-7  -9.064849947515431E-7  -1.044485359856322E-3   5.894853269993696E-4  
 5.890000000000000E10    3.880813553563906E-3   5.965454757798425E-4   2.454360769600401E-7   3.999982892571775E-8  -1.311492119555268E-6  -8.301481060003003E-7  -1.879960177721953E-3   3.199210927334675E-4  
 5.900000000000000E10    3.316821363480333E-3   7.128712939159325E-5   3.007138132856883E-7  -3.760744220158522E-7  -7.683445998879963E-9   7.218269915071988E-8  -2.471408377541435E-3   2.193910112978947E-4  
 5.910000000000000E10    2.824300417086912E-3  -8.600776355187088E-4  -2.633476976249001E-7   1.117588329399710E-6  -1.168704080341410E-7   3.341109509231683E-7  -2.763248039207022E-3  -1.912658539723935E-4  
 5.920000000000000E10    2.030940137346597E-3  -1.494424321009877E-3  -7.786448880667890E-7  -1.849501941462224E-7   2.938467055271538E-8   1.477564592278441E-6  -3.306462641407938E-3  -4.208975604936878E-4  
 5.930000000000000E10    1.041727550616938E-3  -2.132411964070466E-3  -6.450251374512010E-7  -1.964058327515084E-7  -3.455024162051842E-7  -1.123611855386653E-6  -4.040201281690175E-3  -4.344087493238781E-4  
