# GHZ S RI R 50
10	0.00850643787448045	0.00190442963196899	-0.0010954861526194	0.10089327107213	-0.000658917328333521	0.101008418649262	0.00618305806480365	0.00530228886818634
10.025	0.00758731867138571	0.00608805828168394	0.0509819766656723	0.0867208215180255	0.0514539912742544	0.0865741182200634	-0.00182440523786337	0.00540065250432299
10.05	0.00737623904565968	0.000651691189334021	0.088227369173169	0.0477145890490919	0.0885211329154305	0.0473656324989911	0.00227079743115516	0.00479011936930962
10.075	0.0039990779495045	0.00770518148778954	0.0997677200921034	-0.00471921617133837	0.0998821490637869	-0.00516894926192433	0.00290963365631807	0.00522791292887822
10.1	0.00778563348755327	0.00575133281282128	0.0827752048601267	-0.0553364097817236	0.0826087004060361	-0.0557925300723068	0.0027822198719278	0.00108853502417688
10.125	0.00864890549190984	0.00611403439639487	0.0421599750882839	-0.0898755300815243	0.0417738235612085	-0.0901848369086433	-0.00241533975394695	0.00345328108704763
10.15	0.0103468311780336	0.00902150421297237	-0.010289723816751	-0.0984202534962991	-0.0107688716300833	-0.0984873881919368	0.00145694688513309	0.00481045591142445
10.175	0.0139317216191313	0.00395832635233267	-0.0594752191818063	-0.0787156422562008	-0.0599049666530682	-0.078537284332576	0.00140812961484103	0.00285354872539391
10.2	0.00767724295073299	0.00639947478190265	-0.0912665528431542	-0.0365577230095506	-0.0915804244484926	-0.0361645667421393	0.00229512455633911	0.00197386442242345
10.225	0.0100828205764244	0.00196225479761986	-0.0967757099847062	0.0157904311132467	-0.0967813075821885	0.0162644620277313	9.88403675559416E-05	-0.000643851432481192
10.25	0.00914105325443304	0.0025302104600247	-0.0744801190700223	0.0633174733438222	-0.0742589829390286	0.0637536779866522	-0.00021062486777021	-0.00264768654313562
10.275	0.00534996746725738	0.0041784611468645	-0.0309284647048895	0.0924302719681438	-0.0305307802959616	0.0926741018903719	-0.00972246391135387	0.00255864231866691
10.3	0.00643636679167568	0.0090000395435893	0.021187535102063	0.0947640312199244	0.0216619877000426	0.0947615973230553	-0.00467405017782368	0.00746325959511459
10.325	0.00593757798214425	0.00715550854964702	0.0668875889352786	0.0700406441794337	0.0673072938739375	0.0697887412147933	-0.00321229936600149	0.00820288498670516
10.35	0.00807752375531993	0.00690963209245216	0.0931505888326745	0.025257938221767	0.0933978870498832	0.0248288509499567	0.00220292687811433	0.0109491904853384
10.375	0.0102852695500868	0.0138329768538153	0.0924568125935286	-0.0263754960850254	0.0924417273017382	-0.0268719172702772	0.00363301655513031	0.00794996540132034
10.4	0.0178506453974691	0.00706876210672209	0.0653396827538752	-0.0700971239294739	0.0650668888557044	-0.0704872314062721	0.00035691729634212	0.00782669688888051
10.425	0.0101360493323118	0.000862427315960344	0.0197217389416964	-0.0934801234408931	0.0192626539140111	-0.0936835112638284	0.00065325011364929	0.00510743965942456
10.45	0.0162143335115782	0.000623620561492629	-0.0313024428463871	-0.0899542707242026	-0.0317790772958195	-0.0899207155027128	0.00403386337352552	0.00449532214312055
10.475	0.0062896466966937	0.00427092010932931	-0.0730489605336815	-0.0606069769792873	-0.0734614081443249	-0.0603202329040523	0.00555051984185184	0.0102652362117585
10.5	0.00854213363502892	0.00630033466586541	-0.093546032172381	-0.0141752361480683	-0.093720192680791	-0.0137243770691481	0.00274586903393585	0.0019977425750147
10.525	0.00398878224338597	0.000793168684333716	-0.0871603219424059	0.0360856033184574	-0.0871037486708598	0.0365491433979489	-0.000204054520653306	0.00224761961058917
10.55	0.00619693853890781	0.00933029130951338	-0.0558403016528074	0.0756791832915933	-0.0555461256275155	0.07605745634465	0.000574395887765421	0.00467144437573114
10.575	0.0114841581108584	0.0108299556325751	-0.00868860183144767	0.0933523508122593	-0.00824873158191966	0.0935198441917725	0.00305055609029809	0.00764600626423819
10.6	0.0102880240950994	0.0062883657561482	0.0406883085496527	0.0841518548010599	0.0411476769408379	0.0840578997488067	0.00419426607910341	0.00647518489511079
10.625	0.0121024489358868	0.00809964746935409	0.0780112731535359	0.0508913847116791	0.0783584773840228	0.0505848746170475	0.000256713752249793	-0.00395568985527515
10.65	0.0130642891697131	0.00570439503307686	0.0928452154193045	0.00329473860330053	0.0929748981229221	0.00285175486411064	-0.00317970398976098	0.00444891886913367
10.675	0.0144159651297802	0.00284147872192487	0.0809756352521514	-0.0450230801828333	0.0808480223763799	-0.045481503872654	0.000388111065600865	0.00892078745461015
10.7	0.010579119918164	-0.000411970977197873	0.0458675549683525	-0.0801183725262893	0.0455233563917393	-0.0804344425819966	0.000496895066025349	0.00965435432172303
10.725	0.00760946954444068	0.00307520894426653	-0.00203724794735007	-0.0920054907073748	-0.00250414466559127	-0.0921088984864851	0.00351842477073627	0.00825922051889474
10.75	0.00890406488501476	0.00582012725624305	-0.0491771180629943	-0.0774900169104907	-0.0496312798120473	-0.0773294997983193	0.00399126716526738	0.00715587314562719
10.775	0.0107929353811424	0.000938572244719546	-0.0818542284923874	-0.0407923638915679	-0.0821501328954826	-0.0404445894235012	5.68382743253614E-05	0.00543964466688358
10.8	0.00706895171981243	0.00472005854563671	-0.0908500896707849	0.00731548857547427	-0.0909141654770754	0.00775594709498792	0.00306436869310164	0.0117253950332564
10.825	0.00731422889968265	0.00130856228156658	-0.0738288165564974	0.0529896697456261	-0.0736409788952149	0.0534398303238637	0.00881373598892491	0.0106179821447484
10.85	0.00420159222861293	0.00550676589543171	-0.0357347421389042	0.083253253617004	-0.0353490233613543	0.083540740107085	0.0119500748431601	0.00575564434862766
10.875	0.00589483884940878	0.00652058547537222	0.0123779559752404	0.0894547269772231	0.0128419967679287	0.0895037737303336	0.0072460503341781	-0.000746444899780617
10.9	0.00737669210344961	0.00735435469110582	0.0566307591215183	0.0699939877659403	0.0570494826701478	0.069779530994768	0.00188617492878999	0.00232824266134856
10.925	0.0118608774133803	0.00860952384834466	0.084345640893738	0.0306159495327156	0.0846121113938541	0.0302119439995244	0.00336003876018079	0.00428768113310684
10.95	0.0115009396018252	0.00162323515425651	0.0878046963838523	-0.0172882351013231	0.0878140094025527	-0.0177584424585192	0.00135788232632022	0.00523630589829164
10.975	0.00485338740483322	0.00377596510705033	0.0660514573379696	-0.0599966326605087	0.0658460436875677	-0.0604250723115309	0.00654048292527006	0.00505557250722137
11	0.00616559426487559	0.0026589763429205	0.0254479883821862	-0.0852294868753256	0.0250440908873434	-0.0854836639695525	0.00103481772138707	0.00456906524868447
11.025	0.00215314831053478	0.0105392983396504	-0.0221313985756133	-0.0858241472434548	-0.0225813656104481	-0.0858322646938938	0.0060070263679561	0.00927760537445846
11.05	0.00713300643438748	0.00436261745921174	-0.0630927766305083	-0.0619428966181202	-0.06349598123858	-0.0617100263280868	0.00502971173936467	0.00496977648716041
11.075	0.0089917044795374	0.0104590457743462	-0.0858058503975763	-0.0203180372929223	-0.0860332639197944	-0.0199115893774869	0.00527153266193491	0.00641658336949478
11.1	0.00960842283107447	0.00759352622912835	-0.083615939449778	0.026826127575358	-0.0835898985176987	0.0272937549704671	0.00209796235511563	0.00597040442371988
11.125	0.00830991062783132	0.00935490592725585	-0.0576086745044741	0.0658981798598309	-0.0573347944241122	0.066280764691631	0.00543651479826167	0.0087803843649304
11.15	0.00921604438296731	0.00696093352752781	-0.015257421655575	0.0859518203148459	-0.0148240693941507	0.0861343885843901	0.0064362187255179	0.00803413361569605
11.175	0.0117521025825653	0.00784951276930824	0.0312401329564466	0.08120009964045	0.0317040597682979	0.0811493964290009	0.00773648500925437	0.00621539511004682
11.2	0.00681827214319585	0.0014537391863043	0.0684566455465255	0.0532274307151582	0.0688308627278153	0.0529360775670513	0.0122356356419215	0.00792274041024936
11.225	0.00774890244347189	0.00666582275461986	0.0858412547512665	0.0102274890837451	0.0860156620183066	0.0097801955474495	0.00905551794594522	0.00407512205858911
11.25	0.00745236556631804	0.00806084700731742	0.0785681249022748	-0.0354752547394805	0.0784875627378221	-0.0359220336690077	0.00950726335775847	0.00178380357894609
11.275	0.0114072198407306	0.00615536691750289	0.0488005677654352	-0.0707292445331894	0.0485034354176544	-0.0710818932151367	0.0049375428251885	0.0028397632910332
11.3	0.0114373480346719	0.00295560926784705	0.00526479667190641	-0.0854985085838283	0.00479653849649687	-0.0856464582855797	0.00123650659800122	0.00576265200505728
11.325	0.00594456161796149	0.00741199908207435	-0.0395431280818811	-0.0757024417652889	-0.0400080265788742	-0.0756026103482712	0.00751739055915592	0.00865605708260853
11.35	0.00996282413778665	0.00507122371283982	-0.0727551459673544	-0.0442935810393471	-0.0730907336157806	-0.0439689543895647	0.00918352453405437	0.00455313077990051
11.375	0.00544810816687254	0.00739186496129438	-0.0849213722316025	-0.000335345629929259	-0.0850436851296299	0.000119750685222755	0.0075541692038199	0.00493666100770354
11.4	0.0108613559357802	0.00716914903749185	-0.0726563503838007	0.0434549775108604	-0.0725180397482602	0.0438897271520944	0.00743107893533208	0.00681788393678497
11.425	0.00475318607573123	0.00643608632933897	-0.0396516329560929	0.0744837966549472	-0.0393261014225914	0.0748065805844499	0.00800809400550478	0.0043962757891978
11.45	0.0107711843678893	0.00801184838405726	0.00446374765584241	0.0840160456043674	0.00493006728049283	0.0841066418919724	0.0103791559481745	0.00539463840724959
11.475	0.0101503165147037	0.00594535033858611	0.0471299309888695	0.0694131107926691	0.0475368221717898	0.0692570832922097	0.0126385279312041	0.00567349782224041
11.5	0.0078591756660108	0.00724460375393099	0.0759268510473446	0.0349887867929834	0.0762219402926759	0.0346210278353255	0.0072375001579985	0.00313106921460763
11.525	0.00943738178008299	0.00666444012558899	0.0828278369196102	-0.00918501094612124	0.0828916896229234	-0.00964160425277896	0.0102431869345491	0.00669842493832977
11.55	0.00766335905223051	0.00666697221453933	0.0659982744615695	-0.0505074800180291	0.0658082587784268	-0.050928488077543	0.00984968383692324	0.00411663406678402
11.575	0.00906410486746164	0.00561241039874074	0.0303352473011256	-0.0770794774071604	0.0299439329174013	-0.0773299612285791	0.0131945869524656	0.00709880441323048
11.6	0.00662079783641227	0.00763526307142947	-0.0137554056191121	-0.0814110579365127	-0.0142060591122801	-0.0814603402176004	0.0121271556538793	-0.000213421263285121
11.625	0.0116304239417362	0.0107918176838188	-0.0536927128700909	-0.0624340140691885	-0.0541124151816559	-0.0622334974120501	0.00582719694070151	0.00368277378582841
11.65	0.0127761563592063	0.00447632988748998	-0.0779587013156863	-0.0256663265384411	-0.0782183052051649	-0.0252772318730038	0.010721291846287	0.00370318464840189
11.675	0.0103757136408871	0.00516890618726618	-0.0797947542226562	0.018199639017728	-0.0797977107600183	0.0186719370960232	0.0121821409143455	0.0099099494641213
11.7	0.00789952309493011	0.00395636565581999	-0.0587721652953804	0.0566472303027362	-0.0585399176642829	0.0570531852694195	0.0168027587549552	0.000510402458432745
11.725	0.00644157124398171	0.00756669065560374	-0.0209416783323133	0.0786330486143906	-0.0205506161591669	0.0788422525798454	0.0115728785297473	0.00217133560014117
11.75	0.00908114983043976	0.00975980162044012	0.0225353474598177	0.0778950588924461	0.023010283905669	0.0779017090879527	0.0103522312190153	0.00372598963317438
11.775	0.0102329758720373	0.00213784313305043	0.0593578943118517	0.0549457775024779	0.059767436045206	0.0546879158162416	0.0195605729565899	0.00386436717081115
11.8	0.00386569278907842	0.00680696664271828	0.0789917351739503	0.0162809312207273	0.0792029464464191	0.0158880570536702	0.0161907666703884	-0.00100851568442269
11.825	0.0103826169521942	0.00914271817213881	0.0757742525188431	-0.0267164628870708	0.0757415237901224	-0.0271782769204797	0.0151648124658612	-0.00124685035614787
11.85	0.00832272167736828	0.00761609391900181	0.0509810308099503	-0.0618347225915874	0.0506921998576461	-0.0622122342328187	0.0116708640046713	-0.000985499097324539
11.875	0.0139136600952987	0.00534835282207373	0.0116429783370461	-0.0790542513600768	0.0112450170240928	-0.0792131854962538	0.0132661210036701	0.00234976499467131
11.9	0.0103149921121633	0.00419978353182198	-0.0307278104352722	-0.073456623286875	-0.031177662007907	-0.0733989305244539	0.0146678751502618	0.00115077862085022
11.925	0.00819451837772222	0.00554004226780911	-0.0640424095525478	-0.0469314635071866	-0.0643842834754299	-0.0466460700616023	0.0127804095139061	7.36131036028753E-05
11.95	0.00942060599702904	0.00934734522675155	-0.0788458817983013	-0.00708540194113267	-0.0789844107561707	-0.00666278619017391	0.0169377216512206	0.000662752622393067
11.975	0.0117691794622417	0.00834218205039941	-0.0709577111993666	0.0345207447252985	-0.0708776497677494	0.0349454995480524	0.0157523912697096	-0.00602417527379751
12	0.0109902338090894	0.00263773682638045	-0.0428503937296011	0.0660240181841504	-0.0425340502107045	0.0663559128035663	0.011450092806482	-0.00120269337596963
12.025	0.00936453157565407	0.00615188155906612	-0.0025663349384097	0.0784234441685946	-0.00212929252252503	0.078547263712812	0.0159430882201278	-0.00189642080297633
12.05	0.0107524546166877	0.00433182547203288	0.0381579192291267	0.0682713075050987	0.0385928421354709	0.0681439034174653	0.0161806582103794	-0.00284914237086754
12.075	0.00664098120314605	0.00368476938829866	0.0677289561742924	0.0386797971911403	0.06805417693957	0.0383407358345818	0.0166730679256563	-0.00518575014290543
12.1	0.00803832221421831	0.00899218127734844	0.0777774650479866	-0.00187527516786213	0.077879351621264	-0.00232033658982158	0.0139449612378939	-0.00748238540252396
12.125	0.00846192330612864	0.00622234576890254	0.0653925908590998	-0.0416497768219603	0.0652425083485171	-0.042088318033928	0.0133381295455677	-0.00560976865078139
12.15	0.00965434581172117	0.00678736218451845	0.0344194345513379	-0.069164647255932	0.0340752700865709	-0.0694718468868304	0.0150526586825067	-0.00953591603627135
12.175	0.00850597285046591	0.00724413393088604	-0.00619585247789656	-0.0768462802589421	-0.00667419535740363	-0.076920287765073	0.00839963756618797	-0.00878093958994414
12.2	0.00738365738439385	0.00547724807422731	-0.0449064458960735	-0.0623937330068978	-0.0453325270432245	-0.062214304195826	0.00940211403797053	-0.0074230560333919
12.225	0.0131553331928626	0.00743708901605912	-0.0704053591676039	-0.030157619327172	-0.0706800465153439	-0.029766575044512	0.0074294196118311	-0.00336072670293809
12.25	0.00901066078106642	0.00405100522941104	-0.0756388691634779	0.0104736174465849	-0.0757011344952346	0.0109223968159958	0.0104558099606873	-0.00644144527942167
12.275	0.0107473616914825	0.00656357676973125	-0.0592067260506734	0.0478975362644691	-0.0590056979197834	0.048318213340961	0.00906228706157589	-0.00484610039207331
12.3	0.00660019895603858	0.00137320894319816	-0.0258807831389649	0.0713821781130943	-0.025485867793688	0.0716453126101225	0.00787968422155066	-0.00233068121897117
12.325	0.00622407357757922	0.00605321971518019	0.014643338943942	0.0742775026658233	0.015093477613751	0.0742971466768779	0.012167185828878	-0.00116560367799044
12.35	0.00864181190546057	0.00747422566878815	0.0507528518771179	0.0558788234456416	0.0511441080549847	0.0556436997801968	0.0134651449274351	-0.00220993740560235
12.375	0.00812960684071088	0.00467120950954857	0.07208244415212	0.0215838790796944	0.0722860664826376	0.0212041234266233	0.0165648922653412	-0.0038641641366092
12.4	0.0111892650944752	0.00511310453599057	0.0726929023491374	-0.0186351720853863	0.0726880191620087	-0.0190820710875148	0.0168338958478589	-0.00644190589046589
12.425	0.00802555011703442	0.000460025546119391	0.0524562569160894	-0.0534145863059979	0.0522084646325891	-0.0537666467776237	0.0134172358139194	-0.00975877128118263
12.45	0.00444150446658388	0.00462999618215748	0.0172742742988167	-0.0725461333009759	0.0168715984136043	-0.072734436839164	0.0132616494107458	-0.00994679899545253
12.475	0.00516439766640478	0.00683755834151615	-0.0225551845006614	-0.0708773495433132	-0.0229971170450849	-0.0708331825966701	0.00786509313658937	-0.00816382047462927
12.5	0.00580054771238953	0.00702634129510278	-0.0557908445344504	-0.048908588978544	-0.0561524664486609	-0.0486596670404545	0.0137627117661901	-0.00464459772085791
12.525	0.00420409052317517	0.00576703707806968	-0.0727911437585005	-0.0130128587619797	-0.0729619533058885	-0.0126078912014565	0.0134579954724878	-0.013994779380193
12.55	0.00783955636115108	0.00992889568149061	-0.0688245732578267	0.026325399936744	-0.068755743343269	0.0267777826554233	0.0108049197437707	-0.00992441130908257
12.575	0.0070918769458859	0.0079754095983169	-0.0452639694795025	0.0579099568810062	-0.0449886980077532	0.0582754585950396	0.00825532506324762	-0.0139177152216633
12.6	0.00967307469721185	0.00738567458937216	-0.00881522617937326	0.0727833382447888	-0.00840685567850357	0.0729336536263244	0.00739910488014977	-0.00879533971529306
12.625	0.00782408752951384	0.00769732969514327	0.0299316753584261	0.0666496440407697	0.0303730497870743	0.0665601311861029	0.00519505663076092	-0.00838657955356829
12.65	0.00742041512790329	0.00700035319076704	0.0598587499124947	0.0415038643255914	0.0601819913441957	0.0411954793538857	0.00908390234682849	-0.00871130138280449
12.675	0.00774083867759327	0.00916596159142931	0.0725056855811486	0.00464456069101188	0.0726073239490675	0.00420781777046123	0.00839995789283948	-0.00744301311180091
12.7	0.0141493611364845	0.00781499678920838	0.0642990303888709	-0.0333413827997261	0.0641717922311626	-0.0337701826322271	0.0102648614809834	-0.0106670416180167
12.725	0.010656933947797	0.00244912607190558	0.0377333893658496	-0.0615693431244811	0.0374255549724323	-0.0618853655558789	0.00750372464640158	-0.0124404504612037
12.75	0.00813911975490505	0.00316832950182489	0.00051586021406827	-0.0720016577324176	0.000105600825834291	-0.0721085965581277	0.00783438145909179	-0.00766779373264493
12.775	0.00601923144581471	0.006408800441825	-0.0366298516279209	-0.061747890961073	-0.0370396540441839	-0.0616371680350763	0.00866859702548405	-0.00938532993005189
12.8	0.00608141193345503	0.00813493388039083	-0.0630818662775653	-0.0338935242070555	-0.0633767658013071	-0.033543023721071	0.00739921206108648	-0.00937680285131428
12.825	0.00930690527997838	0.00867166123393237	-0.0713020750092131	0.00354448259308239	-0.0713873124824058	0.00397571960182256	0.00598348531877083	-0.01123524433726
12.85	0.00657433575480001	0.00844237765373656	-0.0590632528168413	0.0397339568575039	-0.0588999301169411	0.040142793654259	0.00733574017848401	-0.0103091753429104
12.875	0.0108263343966094	0.00659810514706584	-0.0299894270908687	0.0643280433852738	-0.0296335246999449	0.064583968487092	0.00664909198064229	-0.00771128210922445
12.9	0.00739288684349878	0.00645673803144459	0.0075110908901775	0.070374161375639	0.00795036060441239	0.0704155672874191	0.00512016918601113	-0.0117043019137951
12.925	0.00919828401467689	0.00679539315364917	0.0426290531445375	0.0561760764769979	0.0430388143430804	0.0560050405199172	0.00877099816950057	-0.00886037941626078
12.95	0.00830367217422058	0.00510224874850919	0.0653113017221973	0.0260598167652258	0.0655629643775419	0.0257055767563045	0.0057709521786269	-0.0115782239098224
12.975	0.00777056516432787	0.00672533180260493	0.0692232350094581	-0.0113523416124751	0.0692328711441246	-0.0118017594409172	0.00253986606219304	-0.00817429943025037
13	0.00976770446222909	0.00692794626272945	0.0532388780758178	-0.0453497778132231	0.0530377452954396	-0.0457398839061118	0.0109279114542777	-0.0074723651592368
13.025	0.00854662135726654	0.00633127001718283	0.0221370127522495	-0.0661287648643992	0.0217570007101509	-0.0663384217322131	0.00607361368056733	-0.0108544204660123
