# Hz S RI R 50
5e+10  0.2278  0.1936  8.359e-06  4.345e-07  1.847e-06  -4.016e-07  -0.2439  -0.3117
5.01e+10  0.2818  -0.09569  2.037e-06  1.042e-06  1.426e-06  -4.676e-06  -0.3932  0.06142
5.02e+10  0.06355  -0.2862  5.741e-06  5.535e-06  -7.837e-07  1.18e-06  -0.1418  0.3756
5.03e+10  -0.2079  -0.1995  9.454e-07  -1.95e-06  1.702e-06  2.279e-07  0.2581  0.3133
5.04e+10  -0.2783  0.07228  -1.869e-06  -4.214e-06  2.837e-06  3.532e-06  0.4037  -0.06511
5.05e+10  -0.08428  0.2736  -1.376e-06  -1.077e-07  -3.337e-06  2.808e-06  0.1529  -0.383
5.06e+10  0.189  0.2095  -4.51e-06  2.566e-06  1.406e-06  3.398e-06  -0.2521  -0.3333
5.07e+10  0.2732  -0.05562  -2.835e-06  7.617e-07  8.655e-07  1.34e-06  -0.4185  0.04463
5.08e+10  0.09267  -0.2582  -4.502e-06  3.604e-06  -7.319e-06  -4.672e-06  -0.1771  0.3812
5.09e+10  -0.1688  -0.2078  -1.273e-06  1.691e-06  -3.53e-06  -1.298e-06  0.2365  0.3483
5.1e+10  -0.2604  0.03751  1.563e-06  -6.172e-06  3.923e-06  -5.106e-06  0.4223  -0.02527
5.11e+10  -0.1022  0.2414  3.114e-06  2.322e-06  -3.296e-07  -3.039e-07  0.1947  -0.3807
5.12e+10  0.151  0.2096  -7.713e-07  -4.278e-07  -5.522e-06  4.482e-07  -0.2286  -0.3703
5.13e+10  0.2512  -0.01916  -6.584e-08  1.729e-06  -5.18e-06  -6.809e-06  -0.4368  0.002897
5.14e+10  0.1147  -0.2201  2.493e-06  9.042e-07  -5.722e-07  3.153e-06  -0.2273  0.3761
5.15e+10  -0.1246  -0.2094  -9.183e-07  -5.914e-07  8.711e-06  -1.682e-06  0.2002  0.3964
5.16e+10  -0.2392  -0.002032  1.79e-06  -1.609e-06  1.536e-06  -3.061e-06  0.4467  0.0388
5.17e+10  -0.1242  0.196  1.83e-06  -1.641e-06  -4.305e-07  1.831e-06  0.2661  -0.363
5.18e+10  0.1014  0.2041  2.386e-06  1.65e-06  -2.699e-07  5.896e-07  -0.1715  -0.4129
5.19e+10  0.2237  0.01795  2.839e-06  -6.282e-09  -1.918e-06  -2.698e-07  -0.4393  -0.06894
5.2e+10  0.1274  -0.1774  -1.818e-06  9.846e-07  4.11e-07  -7.586e-07  -0.2912  0.3404
5.21e+10  -0.08111  -0.1975  1.17e-06  3.778e-06  -4.875e-06  1.873e-06  0.1415  0.4299
5.22e+10  -0.2069  -0.03862  4.109e-06  -1.03e-06  1.059e-06  -3.598e-06  0.442  0.1019
5.23e+10  -0.1421  0.147  -6.006e-06  -2.303e-06  -2.591e-06  -1e-06  0.32  -0.3198
5.24e+10  0.04117  0.1929  3.213e-06  1.694e-06  -7.673e-07  2.277e-06  -0.0934  -0.4434
5.25e+10  0.1789  0.0734  -1.507e-06  8.105e-07  -5.535e-06  1.295e-06  -0.4271  -0.1688
5.26e+10  0.1584  -0.1011  2.335e-06  -1.196e-06  -4.733e-06  -5.693e-06  -0.3797  0.268
5.27e+10  0.009229  -0.1826  -1.93e-06  4.839e-07  -4.757e-06  9.381e-07  0.0154  0.4613
5.28e+10  -0.1404  -0.1129  -4.379e-07  6.829e-08  5.33e-06  -3.16e-06  0.3846  0.2423
5.29e+10  -0.1737  0.04712  -2.156e-06  5.113e-07  3.718e-06  -7.58e-06  0.4144  -0.1762
5.3e+10  -0.06447  0.1697  1.279e-06  -7.928e-07  -2.113e-06  -5.88e-06  0.08879  -0.4393
5.31e+10  0.1013  0.1544  1.643e-06  -2.142e-06  1.685e-06  1.478e-06  -0.3123  -0.3157
5.32e+10  0.1899  0.009371  -6.187e-07  3.995e-06  1.523e-06  4.527e-06  -0.4284  0.08312
5.33e+10  0.1221  -0.1538  3.37e-06  -1.686e-06  4.752e-06  -2.928e-06  -0.1676  0.3914
5.34e+10  -0.05847  -0.1943  -2.66e-06  1.273e-06  4.896e-06  2.429e-06  0.2241  0.3533
5.35e+10  -0.1993  -0.06329  -1.19e-06  -4.417e-06  -2.312e-06  -1.762e-06  0.4158  0.01286
5.36e+10  -0.1705  0.1338  -3.768e-06  3.016e-06  -2.734e-06  5.782e-07  0.2402  -0.334
5.37e+10  0.01842  0.223  2.347e-06  -2.127e-07  -3.856e-07  3.621e-06  -0.138  -0.3781
5.38e+10  0.203  0.1064  -1.951e-06  2.046e-07  1.739e-06  4.105e-06  -0.3806  -0.101
5.39e+10  0.2045  -0.1156  -6.602e-07  -1.764e-07  -1.161e-06  -1.69e-06  -0.2995  0.2465
5.4e+10  0.0179  -0.2407  -3.563e-06  -1.813e-06  -4.152e-06  -1.942e-07  0.02613  0.3833
5.41e+10  -0.1952  -0.1527  1.719e-06  1.406e-07  1.306e-06  -3.018e-08  0.3209  0.198
5.42e+10  -0.2411  0.07957  -1.763e-06  -3.675e-06  -6.555e-07  6.715e-07  0.3404  -0.1376
5.43e+10  -0.07337  0.2499  1.252e-06  2.597e-06  2.285e-06  -1.045e-06  0.09398  -0.3488
5.44e+10  0.1664  0.2094  -2.178e-07  -4.399e-06  2.012e-06  -2.384e-06  -0.2206  -0.2819
5.45e+10  0.2731  -0.01621  -4.556e-07  -1.748e-06  7.293e-07  5.975e-07  -0.3556  0.01303
5.46e+10  0.147  -0.2358  4.704e-06  1.856e-06  6.331e-07  1.749e-06  -0.1972  0.2934
5.47e+10  -0.1051  -0.2602  1.493e-06  -2.708e-06  4.751e-06  5.554e-08  0.1123  0.3308
5.48e+10  -0.2734  -0.0676  1.286e-06  1.8e-06  2.778e-06  -6.745e-07  0.3268  0.1151
5.49e+10  -0.214  0.1839  2.785e-06  -1.029e-06  9.169e-08  2.228e-06  0.2916  -0.1873
5.5e+10  0.02887  0.2812  -1.32e-06  9.423e-07  9.989e-07  -2.203e-07  0.02602  -0.3445
5.51e+10  0.2491  0.1351  -1.927e-06  -5.139e-07  -1.07e-06  -2.706e-07  -0.257  -0.2238
5.52e+10  0.2524  -0.1307  -2.589e-06  -7.632e-07  -2.854e-06  -4.236e-06  -0.3293  0.06745
5.53e+10  0.03644  -0.2835  -2.197e-07  3.389e-06  2.568e-06  1.083e-07  -0.1485  0.2998
5.54e+10  -0.2119  -0.1974  1.284e-07  -2.079e-08  -7.782e-07  1.044e-06  0.1487  0.301
5.55e+10  -0.2895  0.05658  -9.514e-07  3.659e-07  -3.928e-07  -2.712e-06  0.3302  0.06078
5.56e+10  -0.1253  0.2699  -2.371e-07  6.18e-07  1.218e-07  3.099e-06  0.2447  -0.2238
5.57e+10  0.1431  0.2594  3.164e-07  5.671e-07  -3.247e-06  2.199e-07  -0.02309  -0.3271
5.58e+10  0.2923  0.0394  -1.246e-06  -1.018e-06  3.611e-07  -7.655e-07  -0.2684  -0.1928
5.59e+10  0.2064  -0.2108  3.07e-06  6.337e-07  -6.655e-07  5.69e-07  -0.3273  0.08153
5.6e+10  -0.04777  -0.2917  1.512e-06  2.836e-06  -3.347e-07  2.029e-06  -0.1454  0.3093
5.61e+10  -0.2653  -0.1293  9.591e-07  -2.125e-06  3.459e-06  2.622e-06  0.1542  0.3041
5.62e+10  -0.2593  0.1425  1.114e-07  1.153e-06  -6.221e-07  2.952e-06  0.3312  0.06453
5.63e+10  -0.04175  0.2934  -3.394e-08  1.782e-06  -1.271e-06  -2.538e-06  0.2564  -0.2157
5.64e+10  0.2044  0.2133  -1.038e-06  -2.002e-06  2.395e-07  -1.208e-06  -0.005825  -0.3344
5.65e+10  0.2952  -0.02821  6.797e-07  2.309e-08  -2.405e-07  -1.494e-07  -0.2633  -0.2036
5.66e+10  0.1596  -0.2566  4.402e-07  -9.496e-07  -8.688e-07  3.596e-06  -0.3197  0.07692
5.67e+10  -0.1109  -0.2868  -2.295e-07  9.248e-08  1.492e-06  4.172e-07  -0.1423  0.2926
5.68e+10  -0.2973  -0.08641  -2.043e-06  2.157e-06  -2.113e-06  -1.344e-06  0.1335  0.2982
5.69e+10  -0.2504  0.184  -3.397e-07  1.208e-06  1.349e-07  -1.451e-06  0.3205  0.08916
5.7e+10  -0.00545  0.3139  3.296e-07  1.898e-07  -1.31e-06  4.891e-07  0.2763  -0.1954
5.71e+10  0.2476  0.1965  -1.869e-06  -1.961e-06  -2.454e-07  1.123e-06  0.02382  -0.3391
5.72e+10  0.3081  -0.07518  -4.51e-07  -7.049e-07  1.327e-06  1.757e-06  -0.2433  -0.2354
5.73e+10  0.1312  -0.2913  1.487e-06  -1.153e-06  -7.083e-07  -1.441e-06  -0.3379  0.03085
5.74e+10  -0.1507  -0.2867  -5.639e-07  6.317e-07  1.567e-06  1.119e-06  -0.1983  0.2802
5.75e+10  -0.3225  -0.05983  -9.504e-08  -2.371e-06  7.885e-07  -1.638e-07  0.09004  0.3348
5.76e+10  -0.2503  0.216  -2.074e-06  1.322e-07  -4.474e-07  1.348e-06  0.3155  0.1423
5.77e+10  0.008864  0.3325  -2.645e-07  1.83e-07  -3.55e-06  8.132e-07  0.3088  -0.1505
5.78e+10  0.2659  0.2068  3.094e-07  -1.038e-06  5.454e-08  8.521e-07  0.08415  -0.3326
5.79e+10  0.3323  -0.07464  -1.688e-06  1.978e-06  -1.209e-06  5.216e-08  -0.2023  -0.282
5.8e+10  0.1557  -0.3034  -1.039e-06  2.037e-07  -4.442e-06  4.04e-07  -0.3514  -0.02515
5.81e+10  -0.1335  -0.3137  -3.848e-07  -1.483e-06  3.984e-07  -5.506e-08  -0.2449  0.2566
5.82e+10  -0.3292  -0.09758  1.439e-06  1.871e-06  2.639e-06  -1.381e-06  0.03841  0.3522
5.83e+10  -0.2879  0.1891  1.751e-06  8.086e-08  3.651e-06  1.789e-06  0.2919  0.202
5.84e+10  -0.04524  0.3412  1.678e-06  2.969e-07  -2.215e-07  4.025e-07  0.3481  -0.08777
5.85e+10  0.2295  0.2581  -8.049e-07  -6.101e-07  -1.074e-07  -2.199e-06  0.1631  -0.3261
5.86e+10  0.3479  -0.006782  2.872e-06  -4.552e-07  1.476e-06  -1.224e-06  -0.1417  -0.3394
5.87e+10  0.2214  -0.2709  -5.25e-07  -1.031e-06  3.458e-07  7.216e-07  -0.3475  -0.1172
5.88e+10  -0.05933  -0.3462  -6.043e-07  2.051e-06  -5.926e-07  7.559e-07  -0.3176  0.1807
5.89e+10  -0.3002  -0.1835  1.864e-06  -3.691e-07  2.169e-06  -1.473e-06  -0.07808  0.359
5.9e+10  -0.338  0.1052  -2.555e-08  -3.012e-06  -7.559e-07  -1.936e-08  0.2208  0.2988
5.91e+10  -0.1448  0.3243  9.526e-07  -1.717e-06  1.209e-07  1.842e-06  0.3729  0.02707
5.92e+10  0.1481  0.3214  -4.108e-06  1.294e-06  -1.136e-06  4.002e-07  0.263  -0.2641
5.93e+10  0.3378  0.09889  -1.546e-06  2.14e-06  -2.453e-07  9.861e-07  -0.02506  -0.3696
5.94e+10  0.2958  -0.1887  -2.485e-06  -6.315e-07  5.634e-07  -9.929e-07  -0.2943  -0.2261
5.95e+10  0.05412  -0.3449  1.659e-06  -8.189e-08  2.498e-06  4.429e-07  -0.368  0.07385
5.96e+10  -0.2221  -0.2676  1.232e-06  1.713e-07  -1.36e-06  5.791e-07  -0.1844  0.3306
5.97e+10  -0.3464  -0.007693  6.031e-07  -1.256e-06  1.886e-06  1.189e-06  0.1326  0.3527
5.98e+10  -0.2319  0.2562  -2.598e-07  1.208e-06  7.503e-07  1.139e-06  0.351  0.1272
5.99e+10  0.04108  0.3412  -1.639e-06  1.844e-06  6.466e-07  -1.172e-06  0.3246  -0.1812
6e+10  0.2821  0.1934  2.704e-07  -2.687e-07  1.138e-06  -3.989e-07  0.07773  -0.3665
6.01e+10  0.3292  -0.0833  2.99e-06  -4.052e-06  -3.058e-06  -1.743e-06  -0.2289  -0.3023
6.02e+10  0.1519  -0.3017  -1.512e-06  2.744e-06  6.745e-06  -1.198e-06  -0.3791  -0.02457
6.03e+10  -0.1279  -0.3109  6.236e-07  1.183e-06  -3.441e-06  -4.614e-07  -0.2671  0.2648
6.04e+10  -0.3142  -0.1034  -2.135e-07  1.709e-06  -1.743e-07  -1.551e-06  0.01427  0.3717
6.05e+10  -0.2797  0.1688  1.099e-06  -2.344e-06  1.039e-06  1.431e-06  0.2825  0.2433
6.06e+10  -0.0522  0.3183  -3.025e-07  3.052e-07  4.908e-06  -2.803e-07  0.3723  -0.04324
6.07e+10  0.2086  0.2419  1.332e-06  7.199e-07  -1.751e-08  -7.471e-07  0.2183  -0.3015
6.08e+10  0.3137  -0.01328  3.934e-06  -5.228e-07  -5.43e-08  -4.074e-07  -0.07903  -0.358
6.09e+10  0.178  -0.2525  -1.672e-06  -2.841e-06  -1.822e-06  3.413e-06  -0.3143  -0.1766
6.1e+10  -0.09722  -0.2936  -1.575e-06  2.36e-06  -2.122e-06  -8.768e-07  -0.3392  0.1161
6.11e+10  -0.2947  -0.09368  -1.681e-06  -2.404e-06  -2.24e-06  -3.341e-06  -0.1366  0.3343
6.12e+10  -0.2509  0.1833  2.526e-07  -3.055e-06  -5.408e-06  1.82e-06  0.1686  0.3215
6.13e+10  -0.002343  0.3147  1.397e-07  -4.493e-06  1.2e-06  -3.083e-06  0.3535  0.07529
6.14e+10  0.2547  0.198  1.661e-07  1.881e-06  6.546e-07  2.209e-06  0.2832  -0.2188
6.15e+10  0.3192  -0.07355  -2.328e-06  -1.973e-06  -3.137e-06  2.283e-06  0.01945  -0.3563
6.16e+10  0.157  -0.2912  9.295e-07  -2.227e-06  8.79e-06  -1.425e-06  -0.2549  -0.2527
6.17e+10  -0.1124  -0.3138  -4.277e-07  1.57e-06  5.863e-06  9.227e-07  -0.3608  0.0299
6.18e+10  -0.3108  -0.131  1.574e-06  -1.831e-06  3.165e-06  -5.92e-06  -0.209  0.3033
6.19e+10  -0.3099  0.1298  5.964e-07  -3.531e-06  1.516e-06  4.555e-06  0.09838  0.3621
6.2e+10  -0.1307  0.3028  2.806e-07  1.461e-06  -1.409e-07  1.103e-06  0.3325  0.1761
6.21e+10  0.1054  0.3047  -2.263e-07  1.106e-06  -3.101e-06  7.095e-07  0.3563  -0.1146
6.22e+10  0.274  0.1487  2.572e-06  1.935e-06  -4.444e-06  9.555e-07  0.1628  -0.336
6.23e+10  0.2886  -0.07646  -2.024e-06  1.19e-06  1.366e-06  -2.718e-06  -0.1366  -0.3455
6.24e+10  0.1505  -0.2424  -6.283e-07  -3.516e-06  -7.918e-07  -9.206e-07  -0.3438  -0.1276
6.25e+10  -0.05327  -0.2713  -1.184e-06  -5.589e-07  1.451e-06  3.202e-06  -0.3201  0.1671
6.26e+10  -0.2181  -0.1502  -2.403e-06  -3.097e-06  -3.425e-06  5.275e-07  -0.09295  0.3464
6.27e+10  -0.2493  0.04683  9.97e-07  8.635e-07  -3.167e-07  -3.175e-07  0.1902  0.3072
6.28e+10  -0.14  0.2049  -4.852e-07  -3.656e-06  -1.793e-06  -4.403e-07  0.3576  0.07347
6.29e+10  0.04527  0.2427  5.539e-07  -1.882e-07  5.689e-06  2.906e-06  0.2953  -0.2147
6.3e+10  0.2016  0.1359  -2.927e-06  -2.814e-07  -5.465e-07  5.31e-06  0.03702  -0.3603
6.31e+10  0.2319  -0.05014  -2.014e-06  -1.191e-06  -9.47e-07  -8.227e-07  -0.2391  -0.2684
6.32e+10  0.1243  -0.1975  9.34e-07  3.069e-06  4.119e-07  -9.633e-08  -0.3575  -0.005693
6.33e+10  -0.05351  -0.2265  -4.441e-07  1.269e-06  -5.406e-07  2.589e-07  -0.2448  0.2622
6.34e+10  -0.2006  -0.1184  -6.663e-07  -4.661e-07  2.181e-06  -8.353e-07  0.02742  0.3621
6.35e+10  -0.221  0.06594  7.928e-07  1.491e-06  -2.798e-07  5.689e-06  0.2869  0.2266
6.36e+10  -0.09934  0.2041  1.634e-06  -8.827e-07  2.79e-06  -2.772e-06  0.3622  -0.0521
6.37e+10  0.08036  0.2095  4.54e-07  9.536e-07  -2.475e-06  -2.687e-06  0.2115  -0.2975
6.38e+10  0.2064  0.08485  -2.252e-07  -1.305e-06  -5.062e-07  8.948e-07  -0.07725  -0.357
6.39e+10  0.2008  -0.09453  1.467e-06  1.264e-06  -1.592e-06  4.167e-06  -0.3186  -0.1837
6.4e+10  0.06463  -0.2111  -7.589e-08  -4.313e-06  2.331e-06  9.273e-07  -0.3533  0.1128
6.41e+10  -0.1114  -0.1895  -2.777e-06  3.475e-06  -1.665e-06  -3.713e-06  -0.1562  0.3368
6.42e+10  -0.2139  -0.04716  1.512e-06  -1.769e-06  -1.311e-06  -1.822e-06  0.1388  0.3419
6.43e+10  -0.1778  0.1255  -4.443e-08  4.388e-06  9.416e-07  -5.36e-06  0.3426  0.1339
6.44e+10  -0.02579  0.2146  -4.018e-06  -9.973e-07  1.712e-06  -2.445e-06  0.3348  -0.1568
6.45e+10  0.1405  0.1621  -2.34e-06  -1.183e-06  -4.584e-06  -1.397e-06  0.1163  -0.3537
6.46e+10  0.2129  0.004867  3.063e-06  2.115e-06  -4.714e-06  1.045e-06  -0.1793  -0.3265
6.47e+10  0.1453  -0.1533  -2.654e-06  1.041e-06  3.584e-06  -3.175e-07  -0.3591  -0.09175
6.48e+10  -0.01592  -0.2093  6.827e-07  2.131e-06  4.767e-07  1.132e-06  -0.3122  0.1962
6.49e+10  -0.1643  -0.1289  2.317e-06  4.942e-08  1.685e-06  2.185e-06  -0.07713  0.3608
6.5e+10  -0.2051  0.03356  -7.843e-07  2.611e-06  -3.549e-07  7.367e-07  0.2057  0.31
6.51e+10  -0.1138  0.1729  1.809e-06  -5.426e-07  4.918e-07  1.707e-06  0.3696  0.06583
6.52e+10  0.05146  0.2003  -3.859e-06  2.208e-07  4.044e-06  -5.657e-06  0.3049  -0.2219
6.53e+10  0.1827  0.09743  5.77e-06  -9.566e-07  3.89e-06  -5.42e-06  0.0524  -0.3725
6.54e+10  0.1964  -0.06783  -8.177e-07  -1.442e-06  -1.346e-06  2.862e-07  -0.2292  -0.2973
6.55e+10  0.08422  -0.1919  -4.63e-07  4.023e-06  3.982e-06  -7.92e-07  -0.3737  -0.04565
6.56e+10  -0.08784  -0.1942  -2.969e-06  3.288e-06  -2.972e-06  2.109e-06  -0.2971  0.2372
6.57e+10  -0.2065  -0.06647  -8.394e-08  1.489e-07  -3.837e-06  3.482e-06  -0.03429  0.3826
6.58e+10  -0.1908  0.1093  1.192e-07  2.91e-06  -9.978e-06  -2.574e-06  0.2549  0.2897
6.59e+10  -0.04964  0.2173  4.646e-06  2.939e-06  -3.58e-06  -3.495e-06  0.3865  0.01563
6.6e+10  0.1282  0.1915  -4.208e-08  -1.204e-06  1.51e-07  -1.622e-06  0.2829  -0.2715
6.61e+10  0.2333  0.03979  -4.144e-06  -1.687e-06  3.778e-06  2.229e-06  0.000567  -0.3998
6.62e+10  0.1939  -0.1445  -8.087e-07  -1.768e-06  -3.584e-06  1.212e-07  -0.2944  -0.2823
6.63e+10  0.03005  -0.2433  -2.554e-06  3.482e-06  -3.199e-06  6.426e-06  -0.4146  0.01807
6.64e+10  -0.1534  -0.195  1.208e-06  -7.698e-07  -4.878e-06  7.26e-06  -0.281  0.3153
6.65e+10  -0.2494  -0.03319  7.116e-07  -3.789e-07  5.243e-06  7.09e-06  0.02354  0.4277
6.66e+10  -0.205  0.1492  -2.007e-06  -8.391e-07  -1.123e-05  7.183e-06  0.3191  0.2947
6.67e+10  -0.04424  0.2507  -8.174e-07  -3.121e-06  -1.452e-06  -5.567e-06  0.4405  -0.01036
6.68e+10  0.1419  0.2093  -3.665e-07  1.278e-06  7.383e-07  -9.695e-07  0.3129  -0.3194
6.69e+10  0.2466  0.04555  -1.589e-06  -4.157e-06  7.669e-06  -1.28e-06  -0.00161  -0.4492
6.7e+10  0.2045  -0.1362  1.746e-06  -5.877e-06  -7.253e-06  -6.622e-06  -0.3133  -0.3229
6.71e+10  0.04984  -0.2353  -7.861e-07  1.617e-06  -1.926e-06  4.437e-06  -0.4486  -0.01817
6.72e+10  -0.1297  -0.1992  -1.265e-06  -1.593e-06  5.546e-06  -2.355e-06  -0.3383  0.2938
6.73e+10  -0.232  -0.04532  -4.041e-06  -8.854e-06  4.048e-06  3.54e-06  -0.04326  0.4468
6.74e+10  -0.1915  0.1371  -3.219e-07  2.815e-06  2.319e-06  9.863e-06  0.2799  0.3519
6.75e+10  -0.028  0.2335  2.459e-06  -7.219e-06  1.073e-06  -1.773e-06  0.4441  0.0547
6.76e+10  0.1551  0.1773  4.493e-06  -5.297e-06  -6.368e-06  5.201e-06  0.3514  -0.2701
6.77e+10  0.2365  0.004313  1.221e-06  4.605e-06  -7.571e-06  -5.492e-06  0.0624  -0.4361
6.78e+10  0.1646  -0.176  -4.818e-06  -9.679e-07  1.066e-05  -4.444e-06  -0.2591  -0.3558
6.79e+10  -0.02058  -0.2446  1.607e-06  7.369e-07  -3.122e-06  -6.818e-06  -0.4354  -0.07394
6.8e+10  -0.1981  -0.1498  3.738e-07  1.535e-06  -3.155e-06  -8.164e-06  -0.3634  0.2533
6.81e+10  -0.2447  0.04482  1.654e-06  -5.921e-07  -7.922e-06  -6.766e-07  -0.08123  0.4355
6.82e+10  -0.1337  0.2113  -4.427e-06  -3.036e-06  -2.786e-06  -8.428e-08  0.2458  0.3666
6.83e+10  0.06756  0.2434  -2.797e-06  -1.426e-06  1.311e-05  -9.807e-07  0.429  0.08986
6.84e+10  0.2287  0.1138  -8.486e-07  1.622e-06  2.949e-07  -1.028e-05  0.3673  -0.2347
6.85e+10  0.2384  -0.09162  -3.072e-06  -9.253e-07  -8.983e-06  -2.166e-06  0.09537  -0.4233
6.86e+10  0.09437  -0.2379  -7.192e-06  4.137e-06  1.235e-07  -2.437e-06  -0.2303  -0.3636
6.87e+10  -0.1107  -0.2338  4.494e-06  3.539e-06  2.396e-06  -4.95e-06  -0.4166  -0.09252
6.88e+10  -0.2508  -0.07807  4.686e-06  2.268e-06  -9.032e-06  -4.847e-06  -0.3574  0.2262
6.89e+10  -0.2281  0.1332  1.94e-06  -7.199e-06  2.794e-06  1.636e-06  -0.09586  0.4091
6.9e+10  -0.05909  0.2591  2.736e-06  -1.116e-06  1.177e-05  -3.06e-06  0.218  0.3582
6.91e+10  0.1465  0.2249  -8.985e-07  -1.165e-06  -7.339e-07  -2.768e-06  0.4065  0.1024
6.92e+10  0.2657  0.04968  1.721e-06  1.143e-06  -8.177e-06  -5.048e-06  0.3586  -0.2111
6.93e+10  0.2202  -0.1602  -1.897e-06  3.401e-06  -8.166e-06  -4.339e-06  0.1069  -0.3952
6.94e+10  0.03822  -0.2718  3.624e-06  3.247e-06  -9.17e-06  1.774e-08  -0.1944  -0.3513
6.95e+10  -0.1684  -0.2219  4.548e-06  2.885e-06  -1.006e-05  -2.689e-06  -0.3774  -0.118
6.96e+10  -0.2776  -0.03907  2.631e-06  4.021e-06  4.181e-06  2.921e-06  -0.3519  0.1712
6.97e+10  -0.2221  0.1673  2.34e-06  -5.288e-06  4.839e-06  2.317e-06  -0.1392  0.3636
6.98e+10  -0.03863  0.2696  1.296e-06  8.352e-06  2.38e-06  3.858e-06  0.1481  0.3618
6.99e+10  0.16  0.2173  1.748e-06  -2.66e-07  3.63e-06  2.672e-06  0.3589  0.1603
7e+10  0.2677  0.04391  -2.472e-06  -1.137e-05  -6.922e-06  7.8e-06  0.3709  -0.1348
7.01e+10  0.2199  -0.1557  -4.025e-07  -2.232e-06  3.543e-06  -6.085e-06  0.1733  -0.3566
7.02e+10  0.04455  -0.2597  -1.772e-06  5.598e-06  -6.133e-07  1.717e-06  -0.1248  -0.3782
7.03e+10  -0.1466  -0.2111  1.133e-05  6.423e-09  4.523e-06  -3.576e-06  -0.3558  -0.1845
7.04e+10  -0.2493  -0.05025  1.457e-06  -1.816e-06  -1.055e-06  7.564e-06  -0.3851  0.1185
7.05e+10  -0.2123  0.1333  3.058e-07  -1.132e-05  -5.623e-06  2.335e-06  -0.1921  0.3553
7.06e+10  -0.06003  0.2386  3.461e-06  5.902e-07  4.435e-06  -8.162e-06  0.1115  0.3885
7.07e+10  0.1204  0.2092  2.584e-06  -3.544e-06  4.526e-06  7.432e-06  0.3506  0.2008
7.08e+10  0.2284  0.06467  -3.322e-06  -3.425e-06  -1.979e-06  -5.487e-06  0.3903  -0.1016
7.09e+10  0.2043  -0.1115  -4.78e-07  3.14e-06  -3.191e-06  -7.688e-06  0.2061  -0.3446
7.1e+10  0.06616  -0.218  -4.942e-06  -7.827e-07  1.124e-07  -2.252e-06  -0.09377  -0.3886
7.11e+10  -0.1029  -0.1982  -4.844e-06  -3.597e-06  -1.859e-06  3.772e-06  -0.3386  -0.2111
7.12e+10  -0.2102  -0.07006  6.33e-06  5.79e-07  -3e-06  -3.362e-06  -0.3887  0.08873
7.13e+10  -0.1998  0.09793  2.277e-07  2.94e-06  3.762e-06  7.488e-06  -0.2144  0.3373
7.14e+10  -0.07241  0.21  3.608e-06  -7.481e-06  -1.058e-07  -3.834e-06  0.0816  0.3923
7.15e+10  0.09577  0.1975  -2.926e-06  1.596e-06  4.935e-06  -1.254e-05  0.33  0.2285
7.16e+10  0.2044  0.073  -3.2e-06  4.158e-06  -2.034e-06  -5.65e-06  0.3975  -0.05836
7.17e+10  0.1987  -0.08758  9.875e-07  9.875e-07  -2.5e-06  -1.076e-05  0.2551  -0.3127
7.18e+10  0.08525  -0.2004  2.434e-06  -6.304e-07  -3.018e-06  5.052e-06  -0.02049  -0.4064
7.19e+10  -0.0794  -0.2039  -1.237e-06  3.418e-06  2.16e-06  -7.169e-06  -0.2904  -0.2898
7.2e+10  -0.2021  -0.08681  2.217e-06  -8.474e-07  2.661e-06  6.25e-06  -0.411  -0.01946
7.21e+10  -0.2051  0.08099  2.432e-06  2.542e-06  1.402e-07  -5.031e-06  -0.3152  0.261
7.22e+10  -0.09284  0.1986  -2.561e-06  -4.6e-06  5.672e-07  4.468e-06  -0.05811  0.4022
7.23e+10  0.07604  0.2112  6.397e-06  -7.979e-06  8.408e-06  7.824e-07  0.2202  0.3387
