# GHZ S RI R 50
50	-9.73954624046937E-19	-1.18995249841349E-17	0.834325465198514	-0.595665237896455	0.834325465198514	-0.595665237896455	6.87104059592481E-18	5.25049553871562E-18
50.1	-3.29730707615586E-17	1.10426912988213E-17	0.70032162481764	-0.713869439320598	0.700321624817641	-0.713869439320599	7.2735163023345E-18	-2.79017069393792E-17
50.2	-5.38514633693342E-18	-1.47274790630192E-17	0.585462584931351	-0.813168265791014	0.585462584931351	-0.813168265791014	7.44130525402159E-18	5.7753936762546E-18
50.3	-5.89237942552734E-18	1.76289992871978E-17	0.454754299398222	-0.924817656312183	0.454754299398222	-0.924817656312184	4.4007687439407E-19	-8.48177832029521E-18
50.4	1.85890881540665E-17	-5.45865359118772E-18	0.251130985060755	-0.953300748704618	0.251130985060755	-0.953300748704618	-2.81003441577875E-18	3.25240790632316E-18
50.5	-1.22639301898122E-18	-5.87082633176951E-18	0.130463013646875	-1.0068580737141	0.130463013646876	-1.0068580737141	-8.17595345987481E-19	-3.91388422117967E-18
50.6	-6.96526156295493E-18	7.80724309140775E-19	-0.0560628292736937	-1.00346550561988	-0.0560628292736936	-1.00346550561987	5.41912724950139E-18	1.15577215888315E-18
50.7	-3.4657243185878E-19	-7.88206991399661E-19	-0.204897464265003	-0.975050645519688	-0.204897464265004	-0.975050645519689	-1.15379184879486E-17	-5.7037276609261E-19
50.8	-9.00202281012863E-18	-1.53692085955558E-18	-0.379741191623296	-0.953245426094371	-0.379741191623295	-0.95324542609437	9.08974286318629E-19	-9.66509784750079E-18
50.9	-9.69381450413938E-18	-1.06660081964822E-17	-0.513942556345581	-0.841606157737904	-0.513942556345581	-0.841606157737904	-1.50873262084692E-17	-1.6135361623658E-19
51	1.24506974960799E-17	2.48490879943143E-17	-0.660694325894181	-0.768186585583623	-0.660694325894181	-0.768186585583623	2.26248808549146E-17	5.2246233913339E-18
51.1	-1.97948793928378E-17	-8.99408424389703E-19	-0.772001813509263	-0.645462340915192	-0.772001813509263	-0.645462340915192	-1.4003624521577E-17	1.14444347680568E-17
51.2	-7.90012430379546E-18	5.37140164721826E-18	-0.860488367041445	-0.506685485251171	-0.860488367041445	-0.506685485251172	-5.88513536579723E-18	7.22085257468793E-18
51.3	-9.26343111408841E-19	1.33431778860768E-17	-0.936026732676241	-0.362486248479088	-0.936026732676241	-0.362486248479088	-3.11507466268039E-18	-4.73823571461394E-19
51.4	8.84011370071245E-18	-4.82738780477968E-18	-0.997478795699007	-0.225929532666239	-0.997478795699007	-0.225929532666239	-1.19758077322047E-17	5.34088335196979E-18
51.5	6.34608097979621E-20	2.93049819535068E-17	-0.988390593328371	-0.0275539159354532	-0.98839059332837	-0.0275539159354533	-6.8716373560718E-18	1.66029156529443E-17
51.6	2.99824971247009E-18	-1.98394935307533E-17	-1.00125805675835	0.0984269775600751	-1.00125805675835	0.0984269775600752	-3.00893132366969E-17	6.02990167628622E-19
51.7	6.16485540875893E-18	1.70333188864172E-18	-0.987412664406001	0.260467917572574	-0.987412664406001	0.260467917572575	1.97342119656372E-18	-1.35966185349899E-17
51.8	7.45314422650639E-18	-1.8237696690847E-19	-0.87222408585566	0.414166569376533	-0.87222408585566	0.414166569376533	-9.10197628025173E-18	9.24615980829789E-19
51.9	1.37657311500121E-17	-1.16330153257704E-18	-0.86971952826916	0.548085561897265	-0.869719528269159	0.548085561897266	-7.40633250119454E-18	-1.51041621238214E-18
52	1.97148444842454E-18	-1.1021251144186E-17	-0.708980139739812	0.691917196407285	-0.708980139739812	0.691917196407285	-1.52035770659336E-17	-5.05357286406137E-18
52.1	3.34037852488204E-18	6.02760164080026E-18	-0.597829518139787	0.77851725396245	-0.597829518139787	0.77851725396245	1.50750495881355E-17	4.62250739827013E-18
52.2	1.95459014488867E-17	2.52845998023413E-18	-0.495304822987916	0.866676173630766	-0.495304822987916	0.866676173630766	-2.59758522318842E-18	-1.80306225159322E-17
52.3	9.06091401930266E-18	2.86188800946786E-18	-0.356210046416748	0.933886539549701	-0.356210046416748	0.9338865395497	2.4192283931507E-17	-6.28064506199968E-18
52.4	5.13006835965182E-18	2.01203237736609E-18	-0.191188298164633	1.01109543928654	-0.191188298164633	1.01109543928654	-3.54751523717652E-17	-1.0203475834226E-19
52.5	-9.22029991098482E-18	4.53793362273111E-18	-0.0521015580373589	0.951833366007417	-0.0521015580373592	0.951833366007416	-6.51658702930514E-18	8.79936591689088E-18
52.6	4.06671118162091E-18	-1.91506377096663E-17	0.0875483695211055	1.0198977929411	0.0875483695211056	1.0198977929411	-4.60657139576899E-17	-3.16943500922726E-17
52.7	-1.24973697731524E-18	-1.15265655261028E-17	0.308855428333318	0.98560621590942	0.308855428333318	0.98560621590942	-1.52494050664374E-17	-1.86995272114016E-17
52.8	1.86656649860838E-18	-1.96431895698623E-18	0.34858601350792	0.812104286911122	0.34858601350792	0.812104286911122	4.22421273646333E-18	-3.46199628932037E-18
52.9	1.22921745398901E-17	2.73802969529609E-17	0.627893693329464	0.910569058324058	0.627893693329464	0.910569058324058	6.42568205726311E-18	6.98487163189925E-18
53	-5.44045273665597E-17	-2.36868867465438E-18	0.644972975955375	0.693218695556808	0.644972975955375	0.693218695556808	1.05002744332939E-17	7.05368503095252E-17
53.1	1.65473329318222E-17	-7.45721598670705E-18	0.763088132187333	0.653088410730136	0.763088132187332	0.653088410730136	7.86200742073328E-18	4.97073217215661E-18
53.2	-1.10685188593109E-18	7.31427115321446E-18	0.910409738330484	0.512985107081954	0.910409738330483	0.512985107081954	-1.32363432795132E-18	-5.84229191794467E-18
53.3	3.6006714358683E-18	-4.89891342794494E-18	0.921684172537641	0.376561780927412	0.92168417253764	0.376561780927412	-9.58610758682952E-18	1.46849781022203E-17
53.4	2.6026587031483E-18	-2.68336675304599E-17	0.95660121763515	0.16502880313849	0.956601217635149	0.16502880313849	-4.69589181783048E-17	-4.55465273050952E-18
53.5	-6.45612679747865E-18	-2.12221813368693E-17	1.02185817296199	0.114839021128262	1.02185817296199	0.114839021128263	4.44224533975457E-18	2.59370168919917E-17
53.6	2.79036371235679E-17	1.53142967193889E-18	1.01329248330788	-0.104624365523756	1.01329248330788	-0.104624365523756	-6.43673987454686E-18	-3.08377793442834E-17
53.7	1.01561895169867E-17	-1.40865119426461E-17	0.914832357377639	-0.270039243639765	0.914832357377639	-0.270039243639765	-2.35274539136232E-17	-1.20390269396233E-17
53.8	-1.6556380422265E-17	-8.59193576047232E-18	1.01347559630607	-0.342764750828113	1.01347559630607	-0.342764750828113	-1.64134883549818E-17	-1.49473512871286E-17
53.9	5.15338739287571E-18	-2.35306494039967E-18	0.860216570984878	-0.529224362511135	0.860216570984878	-0.529224362511135	-1.36328946678773E-17	-4.4079914527006E-18
54	3.30146080190438E-18	3.91397923773775E-18	0.748557665528781	-0.648207615795321	0.748557665528781	-0.648207615795321	-7.68779380474464E-18	-6.2660848821834E-18
54.1	1.19073709460091E-18	-5.96718332887347E-18	0.665332681822881	-0.72177695755548	0.665332681822881	-0.72177695755548	-1.02682626014709E-17	-2.517293321109E-18
54.2	3.62260881859338E-18	3.21961115988192E-18	0.560474387642552	-0.827905913340908	0.560474387642552	-0.827905913340909	-1.46519839466429E-17	-2.02841621226295E-17
54.3	1.0316206749363E-17	-1.66634381543741E-17	0.379466513812975	-0.926026732448059	0.379466513812975	-0.926026732448059	-3.37501698478968E-17	4.5557623437E-18
54.4	1.73024135271997E-17	3.68724659455168E-18	0.315624585101934	-0.901404319033466	0.315624585101934	-0.901404319033465	1.87544491043903E-17	-2.34973611494843E-17
54.5	-4.82403107914079E-18	-1.46405225113466E-17	0.105254070438323	-1.04455630583927	0.105254070438323	-1.04455630583927	-4.68046917975189E-17	-1.92852245270212E-17
54.6	8.98914742283483E-18	-7.69750091488828E-19	-0.0415209280428632	-0.971537920187671	-0.0415209280428633	-0.971537920187671	-4.76321675945739E-18	2.05425412678206E-18
54.7	1.55435146777418E-18	-6.2431778454568E-18	-0.160390912965767	-1.01125159390109	-0.160390912965767	-1.01125159390109	-1.64701976952864E-18	-1.09388511790335E-17
54.8	-6.08466460745311E-19	5.11561097388278E-18	-0.335435274385307	-0.968216566349769	-0.335435274385307	-0.968216566349769	8.19173612836323E-18	7.45933002365777E-18
54.9	-1.10972052559461E-17	8.9198958834122E-18	-0.47254380890383	-0.879836271990026	-0.472543808903829	-0.879836271990025	-1.07954706544591E-17	6.31678395275799E-19
55	8.04149059635557E-18	-6.62090449772385E-18	-0.585171505261374	-0.829074915198622	-0.585171505261374	-0.829074915198621	7.33119754703971E-18	7.10293049315856E-19
55.1	1.00372756069402E-17	-5.0690752017221E-18	-0.720044283819667	-0.726940134513592	-0.720044283819666	-0.726940134513591	-1.76408126224034E-18	-5.465337765199E-18
55.2	-5.23215291079877E-18	2.29510902514434E-18	-0.793668344572798	-0.609677662562809	-0.793668344572798	-0.609677662562809	-8.56326912483301E-18	-8.50512936590891E-18
55.3	-3.38368484465328E-18	1.05357192702259E-17	-0.897435166618391	-0.463944948575125	-0.897435166618391	-0.463944948575126	1.86596948086635E-17	-8.88390927716071E-18
55.4	1.07989694318221E-17	1.74594320341953E-19	-0.947564497267727	-0.369057052799968	-0.947564497267727	-0.369057052799968	1.56935357917924E-17	1.07575398628949E-17
55.5	-1.36135070467115E-18	-1.6493951460712E-17	-1.01407696415912	-0.195709631648963	-1.01407696415912	-0.195709631648963	4.81599394286295E-18	-7.04001956330294E-18
55.6	1.87680986464747E-18	-1.21258209360799E-17	-1.00315683698083	-0.0591847366398605	-1.00315683698083	-0.0591847366398604	-2.01431800544453E-17	-2.35532263513949E-17
55.7	1.11028773317061E-17	1.40290349748596E-17	-1.02587939492883	0.082192113099174	-1.02587939492883	0.0821921130991742	1.95728858887225E-17	1.17324886022471E-17
55.8	-7.28728168848556E-18	1.73186513694418E-17	-0.994446580805397	0.248735568787635	-0.994446580805397	0.248735568787636	-9.96637592167919E-18	2.39136570961644E-17
55.9	-4.20672293800174E-18	-1.1059963923981E-17	-0.951668634185315	0.379142856938411	-0.951668634185315	0.379142856938412	1.17557710832686E-17	-6.1194267377036E-18
56	7.27419483746402E-18	-1.20041035772084E-17	-0.859566424126123	0.520177196247057	-0.859566424126121	0.520177196247057	2.03867439973641E-17	-1.18450563591155E-18
56.1	-6.19260428366222E-18	-1.28304368547273E-17	-0.808283992943092	0.631031517545799	-0.808283992943092	0.631031517545799	1.85811400427881E-17	8.86463944643958E-19
56.2	-1.23475527558469E-17	7.4613892665142E-19	-0.711137465638287	0.755407333485921	-0.711137465638287	0.755407333485921	-3.09467522052929E-17	-1.68358195821957E-17
56.3	2.12451230079954E-18	9.72083680234629E-18	-0.540854215681798	0.851142060897957	-0.540854215681798	0.851142060897957	-3.41508783525177E-17	-2.29516346357608E-17
56.4	-5.77966331100264E-18	-4.94480812952332E-18	-0.472856928381369	0.916438146468793	-0.472856928381369	0.916438146468793	-2.27861614391634E-17	2.52567526692443E-17
56.5	2.74209951503289E-18	-3.86556705401615E-18	-0.317401512768379	0.996033532127633	-0.317401512768379	0.996033532127633	1.51119140878846E-17	4.9091513940891E-18
56.6	1.42107827295713E-18	-2.13656584843737E-17	-0.158939109133664	0.996298800579847	-0.158939109133665	0.996298800579847	1.92884740460396E-17	-4.75656610521536E-17
56.7	1.56098846649373E-17	-2.9474450766292E-18	-0.0227675727246973	1.02381368521625	-0.0227675727246974	1.02381368521625	1.00576050251599E-17	-2.14047801543616E-17
56.8	8.64212967435411E-18	-4.64747370122921E-18	0.104931174325978	1.03565623695652	0.104931174325978	1.03565623695652	-1.50813563223705E-18	-7.3661444291544E-18
56.9	2.46035153912451E-18	1.51651087469014E-17	0.261544744482824	0.983949578103491	0.261544744482824	0.983949578103492	-4.23269209006009E-18	1.0707533619176E-17
57	-7.90650845069815E-18	4.13180722885383E-18	0.42550681111022	0.903747240423717	0.42550681111022	0.903747240423717	-2.38267105234643E-18	1.37503213704131E-17
57.1	8.01186386205319E-18	-1.99641626836379E-17	0.533024812747874	0.863543611368759	0.533024812747874	0.863543611368759	4.0747128180297E-17	-1.55178200822132E-18
57.2	1.38062942458065E-17	-1.95307882143573E-18	0.657233174909023	0.805876519675371	0.657233174909023	0.805876519675371	2.33291605525521E-17	-2.96811577765797E-17
57.3	2.60311149646607E-18	1.05672123934071E-17	0.804895418317966	0.630680610530269	0.804895418317965	0.630680610530269	8.41909430898225E-19	1.10010643094847E-17
57.4	-2.53596943332672E-18	-1.15048667318102E-17	0.812842122197961	0.542555931854313	0.812842122197962	0.542555931854313	1.1037885399407E-19	4.34592484303104E-17
57.5	-4.5591586195375E-18	-1.56685883961826E-17	0.940111559168002	0.439850093745411	0.940111559168002	0.439850093745411	-3.11847000278736E-18	-9.56832677627902E-18
57.6	3.95975411686332E-18	-8.42543826049458E-18	0.996132360677949	0.275156909162471	0.996132360677949	0.275156909162471	4.94115918748401E-18	1.15901960556937E-17
57.7	-7.87569172665457E-18	4.92858837236058E-18	0.9800909572574	0.127373168621935	0.980090957257399	0.127373168621934	7.94639554145708E-18	-1.01680066767561E-17
57.8	-1.22198889828542E-17	-3.90438527015143E-18	1.02484874158358	0.0108656401552678	1.02484874158358	0.0108656401552681	1.49221200074022E-17	-1.60871346221156E-17
57.9	-2.13651488146377E-17	1.22613907344827E-17	1.02853404824757	-0.118334608697228	1.02853404824757	-0.118334608697229	-1.81246100013153E-17	1.23410526038625E-17
58	9.26251951265343E-20	1.00676470188255E-17	0.96215936857279	-0.32564509202522	0.962159368572791	-0.32564509202522	-2.69844924117289E-18	8.25862139360775E-18
58.1	-1.14154643215963E-17	5.45153665546889E-18	0.891404350366122	-0.403662547467417	0.891404350366122	-0.403662547467417	-5.26328065088257E-18	-6.82988801299321E-18
58.2	6.69220878775932E-18	5.08682459008164E-18	0.863312415053738	-0.553066376376439	0.863312415053739	-0.55306637637644	-4.50482856590783E-19	2.38806260905847E-17
58.3	-1.97846869083382E-18	1.61541071792544E-18	0.756895561018055	-0.684285433275162	0.756895561018055	-0.684285433275162	-4.52904958127359E-18	3.58480295943655E-17
58.4	-2.34533556847857E-17	-7.34607927376544E-18	0.646544867120351	-0.715632606913272	0.646544867120351	-0.715632606913271	-9.95814991348946E-18	-2.23102053794481E-18
58.5	-1.43291883723214E-17	1.95328838676932E-17	0.584208106894957	-0.854258179474164	0.584208106894957	-0.854258179474164	1.51995581248933E-17	-1.92798066569546E-18
58.6	5.05997591896045E-18	1.68101259642786E-17	0.422655254851399	-0.921346186852344	0.422655254851399	-0.921346186852344	5.02745396145205E-18	3.76720471647576E-19
58.7	1.57217226901596E-18	-6.92498768443413E-18	0.280861795843745	-0.937735895736153	0.280861795843745	-0.937735895736153	1.90771987288903E-17	-9.33498667170906E-18
58.8	6.93291649748362E-18	-6.69768502194212E-18	0.168190331192226	-0.982733298367705	0.168190331192226	-0.982733298367705	9.27821829223116E-18	-3.85266657408811E-19
58.9	-1.1237696032795E-17	-1.36885696953172E-17	0.0497462367064169	-1.01431396684349	0.0497462367064169	-1.01431396684349	6.05650402756218E-18	2.39316596763856E-18
59	-2.09345048104593E-17	-7.9860583828407E-18	-0.134586792110798	-0.985700086909541	-0.134586792110799	-0.985700086909541	6.24214384599586E-18	-1.59939336183903E-17
59.1	-2.66988035070257E-18	-1.46632974521355E-18	-0.234859995928432	-0.95856800490452	-0.234859995928432	-0.95856800490452	-4.65813670898459E-18	3.85746121825638E-18
59.2	-1.50385828570053E-18	1.04318777773412E-18	-0.365620956243437	-0.9556378279743	-0.365620956243437	-0.9556378279743	-3.67816742953767E-18	4.05928997617598E-18
59.3	-2.09116263694856E-17	1.81419821271849E-17	-0.524922003613998	-0.839855617493009	-0.524922003613997	-0.839855617493009	1.49121808081114E-18	-3.05907170067913E-18
59.4	1.50252061903202E-18	3.09487663524163E-18	-0.597499730404619	-0.79232036007956	-0.597499730404618	-0.79232036007956	-1.18169447810978E-19	3.5198018436475E-18
59.5	-8.02214417245747E-18	-9.28137307086415E-19	-0.731914964430107	-0.696229708975323	-0.731914964430106	-0.696229708975323	-3.49172412679975E-18	1.06079790381238E-18
59.6	-3.4937838551411E-18	1.02443639114507E-17	-0.807765839690569	-0.567410961343281	-0.807765839690569	-0.567410961343282	3.33706156117586E-18	-5.69556089158137E-18
59.7	7.01956816985959E-18	2.7059709603014E-17	-0.887799511996829	-0.477969297339066	-0.887799511996829	-0.477969297339067	-8.37793871110191E-19	-3.67269344959887E-18
59.8	-5.96607227302954E-18	-9.60038287214288E-18	-0.954682101737488	-0.344709648998991	-0.954682101737488	-0.344709648998991	-3.37700741193358E-19	3.20414879401232E-18
59.9	-3.0724458290844E-17	1.57424478332094E-17	-0.979124912971457	-0.221164453863311	-0.979124912971458	-0.221164453863311	-1.31690171163149E-17	6.31398950022047E-18
60	1.27294543978118E-18	-2.51853321735155E-17	-0.99830377595674	-0.0596479224572197	-0.99830377595674	-0.0596479224572195	-2.5855862726594E-18	-2.21531775697205E-17
60.1	5.39951847520772E-18	-1.78276331900711E-17	-0.987503860044147	0.0636649379477471	-0.987503860044147	0.0636649379477468	8.79891894066875E-18	-1.14163823522189E-17
60.2	5.41092304613801E-18	1.79725336320076E-18	-0.997381406929167	0.178430870772994	-0.997381406929167	0.178430870772994	5.39176008960228E-18	-1.6232769138414E-17
60.3	2.37017885652963E-17	1.6499083543692E-17	-0.940694422509179	0.35284891888092	-0.940694422509179	0.35284891888092	-9.28596351332858E-18	1.79857173802695E-17
60.4	-1.15048231570291E-17	-4.75602202107991E-18	-0.877534128416485	0.429120609819531	-0.877534128416485	0.429120609819531	-2.11218575318425E-17	-1.32864566405986E-17
60.5	2.47550834438578E-17	-5.88943592440066E-18	-0.827670927738018	0.576235370254619	-0.827670927738018	0.576235370254619	-3.97339560362304E-19	3.61556103688473E-18
60.6	8.03383697103056E-18	-2.32268205852125E-17	-0.735549627700082	0.676387936849896	-0.735549627700082	0.676387936849896	-2.37180373405914E-18	-2.80652169201147E-18
60.7	1.85444497208E-17	8.65190240434907E-18	-0.63345439660883	0.773557749977827	-0.633454396608829	0.773557749977827	5.78901480333492E-18	6.79543959275035E-18
60.8	7.37408597174393E-18	-5.43856869824494E-19	-0.526477516921285	0.858612484706758	-0.526477516921285	0.858612484706758	-2.9232776197828E-19	3.95550342487437E-19
60.9	-1.05567030427148E-17	-1.59363353303876E-17	-0.414522311352636	0.919948368573361	-0.414522311352636	0.919948368573361	3.4876051052638E-18	-1.60519206806193E-17
61	4.86366142468079E-18	-6.29172892072256E-18	-0.271987318947721	0.968770709293474	-0.271987318947721	0.968770709293474	3.38489270730729E-18	1.13196979806671E-17
61.1	5.27031923464093E-18	1.25503217623363E-17	-0.136778374645744	0.980643591362358	-0.136778374645743	0.980643591362359	7.62182567870172E-18	4.00185596738918E-19
61.2	1.12266749047666E-17	-4.27006183510204E-17	-0.0202142615540083	0.996937750364247	-0.0202142615540083	0.996937750364246	-1.29552948634737E-17	2.148401125565E-17
61.3	-1.32199718919707E-17	2.52769390553141E-17	0.120030385863483	1.0083922402532	0.120030385863483	1.00839224025321	-1.98218313952366E-17	6.51201556418181E-18
61.4	1.26944138367908E-17	2.07587828943875E-17	0.286197524908842	0.958913672938424	0.286197524908842	0.958913672938425	9.30206037743509E-18	1.18181457622408E-17
61.5	-3.95740182387398E-18	1.51837006604828E-17	0.361939629333982	0.909829953664349	0.361939629333982	0.90982995366435	9.30770664398288E-18	-1.19445250290322E-17
61.6	9.07841225692887E-19	-1.58578057100207E-18	0.514785539061203	0.88788455733925	0.514785539061203	0.887884557339251	-1.46227611075152E-17	5.31444697020259E-18
61.7	3.00038867801181E-18	2.80304852925364E-17	0.635765852272303	0.789677993125728	0.635765852272303	0.789677993125728	2.05690296063253E-17	6.0911439017636E-18
61.8	-3.67627917136326E-18	-7.30281431552601E-18	0.71294545961853	0.686636849789755	0.71294545961853	0.686636849789755	-7.70673921395165E-18	-1.41097976509592E-18
61.9	7.20060908225454E-18	5.30087846321526E-18	0.807444654483162	0.582101229566765	0.807444654483163	0.582101229566765	1.22074894652492E-18	1.04631244639258E-17
62	-7.82708478733702E-18	-1.62975686622536E-17	0.876533213545793	0.493645631282884	0.876533213545793	0.493645631282884	8.33643665169341E-18	-4.02730219064253E-18
