# GHZ S RI R 50
50	2.71616435640044E-19	-7.77729768450764E-19	0.794645837938556	-0.564189310514655	0.794645837938556	-0.564189310514655	-1.82707597254157E-18	2.34496897170677E-19
50.1	3.91050690362598E-19	-4.26663235274196E-21	0.667801237391706	-0.675127156204925	0.667801237391706	-0.675127156204925	-2.38043720099752E-18	-3.10280572878433E-18
50.2	-9.91529342887722E-19	-5.07259802215969E-19	0.560718754617218	-0.770433582804355	0.560718754617218	-0.770433582804356	2.99757829020738E-18	-9.68539081343506E-19
50.3	-1.63041653888356E-18	-7.4604746339235E-20	0.436603411905265	-0.879255447745802	0.436603411905265	-0.879255447745802	1.14811339087495E-18	-4.01864824659161E-18
50.4	-1.90612006265748E-19	3.28458833093875E-19	0.24320146749468	-0.903615768950257	0.24320146749468	-0.903615768950257	-2.28734407518898E-18	3.9415059971265E-18
50.5	-1.13398277495428E-18	-1.9970667651091E-18	0.129728624317158	-0.958797738133197	0.129728624317158	-0.958797738133196	-1.48520316489271E-18	-3.7783625326795E-18
50.6	4.50122434966891E-18	-2.84575125091875E-18	-0.0478741085422868	-0.955490222087187	-0.0478741085422869	-0.955490222087188	-1.42105623974506E-18	1.73846374699002E-18
50.7	-5.15045269828668E-18	3.87386737388305E-18	-0.188533294154008	-0.930323457361187	-0.188533294154008	-0.930323457361187	-2.43412159935189E-18	-5.75898309812466E-18
50.8	2.43807157447297E-18	-2.25852546065891E-18	-0.357200737011048	-0.911218224969397	-0.357200737011049	-0.911218224969397	4.87614314894595E-18	-4.51705092131782E-18
50.9	4.86098733746682E-18	-2.60889038375512E-18	-0.483093480629969	-0.805394813322139	-0.483093480629969	-0.805394813322139	5.21778076751025E-18	9.72197467493364E-18
51	-4.61903556673527E-19	2.79799233789198E-18	-0.625298591122551	-0.736988600755566	-0.625298591122551	-0.736988600755566	-5.2788977905546E-19	3.19770552901941E-18
51.1	1.9021446245861E-18	1.71171917512876E-18	-0.731887202388413	-0.62116339131429	-0.731887202388413	-0.62116339131429	1.83717276062474E-18	1.31739784893392E-18
51.2	-7.75527822938164E-18	-3.21425744051965E-19	-0.816935767063135	-0.489970167934884	-0.816935767063135	-0.489970167934883	3.51873027583494E-18	-9.38108169651255E-20
51.3	4.16932364102091E-18	2.83040535376096E-18	-0.890607476818111	-0.353169138066004	-0.890607476818112	-0.353169138066005	-1.09126275704346E-18	1.15958152399974E-18
51.4	-2.23158406917018E-18	-2.03519531432781E-18	-0.952187047771971	-0.223502554357679	-0.95218704777197	-0.223502554357679	9.31203373038785E-19	1.38913499891573E-18
51.5	-4.08720116981093E-19	-4.95946405130742E-18	-0.942281270584124	-0.0345823920277979	-0.942281270584125	-0.0345823920277973	1.10825769971953E-18	-4.55799948629115E-18
51.6	1.87963290707053E-18	2.51957710158767E-18	-0.958590366115586	0.0852003302374599	-0.958590366115586	0.08520033023746	-7.90718526885241E-19	1.41678710006101E-19
51.7	1.31719131023005E-18	5.89026897064393E-18	-0.947490786624848	0.241077296554358	-0.947490786624848	0.241077296554358	-9.10318400331307E-20	4.95303705492883E-20
51.8	-1.27280091113115E-18	3.75744051805272E-18	-0.836990504406813	0.385727005966673	-0.836990504406813	0.385727005966673	6.53720579076469E-18	-9.91804770591527E-18
51.9	-5.94401728939358E-18	4.32899522355262E-18	-0.839003836243806	0.517827595746478	-0.839003836243806	0.517827595746478	-1.50274466611102E-18	-4.52658985643106E-18
52	5.17976594159223E-20	-1.16436794768002E-18	-0.683976397271847	0.654225716710752	-0.683976397271847	0.654225716710752	1.5524905969067E-18	6.90635458878964E-20
52.1	1.11364810752973E-19	-2.7801130711792E-18	-0.580201034839433	0.73798606561854	-0.580201034839432	0.737986065618539	-2.11695833488027E-18	-2.23890486735797E-18
52.2	5.26059921387041E-18	6.15631699556884E-18	-0.484147521705157	0.825277090236342	-0.484147521705157	0.825277090236343	-3.87436136034292E-19	-6.93118926763742E-19
52.3	-1.70860135603595E-18	-5.06720750501002E-19	-0.351974932726036	0.891626492271612	-0.351974932726036	0.891626492271612	-4.20451728763437E-18	9.16279099340052E-18
52.4	-7.58621799305736E-18	-8.17415341945154E-18	-0.192647675883801	0.967938226990268	-0.192647675883801	0.967938226990268	2.58780566182396E-18	-6.24355625704088E-18
52.5	-7.17469151286359E-19	-1.0068779442211E-19	-0.0636625073743572	0.911722835216523	-0.0636625073743572	0.911722835216524	1.20825353306532E-18	-8.6096298154363E-18
52.6	-2.24572385726327E-18	2.03596498048368E-18	0.0730063998693919	0.981808956431528	0.0730063998693919	0.981808956431528	3.32587739469452E-18	-4.97368377515229E-19
52.7	5.66357398704435E-18	-3.77933006546251E-18	0.287263592785756	0.948012342780726	0.287263592785756	0.948012342780727	5.66628454261905E-18	2.35801545755201E-18
52.8	-5.25235389371253E-18	-1.84674623738621E-18	0.317779964513078	0.785287869894029	0.317779964513078	0.785287869894029	1.73159231000777E-18	1.78916927369699E-18
52.9	-5.32658070944071E-18	-1.05587785751221E-17	0.598135268744448	0.880078332430879	0.598135268744448	0.880078332430879	1.1718761294969E-17	1.30892236130808E-17
53	-1.47952755035914E-19	1.42218770187987E-18	0.607853139893163	0.674369628728448	0.607853139893163	0.674369628728448	-9.64277187404859E-18	9.77869123388356E-18
53.1	-1.03728653361364E-19	-8.04657347740753E-19	0.726283089706356	0.638667465344199	0.726283089706355	0.638667465344199	-9.34470221280494E-18	3.65871588355863E-18
53.2	2.30834105746347E-18	5.75162732154776E-18	0.870547914401481	0.502636179002784	0.870547914401481	0.502636179002784	0	0
53.3	8.9160850213585E-19	-2.51968858831887E-18	0.882138631500655	0.37491555278951	0.882138631500654	0.37491555278951	4.42428658613536E-18	4.58976596542995E-18
53.4	-5.37593966059443E-18	-6.92049046249586E-18	0.91490264394784	0.171183450642872	0.914902643947841	0.171183450642872	-9.22232259231772E-18	-1.15841310142608E-18
53.5	-1.23361163143812E-18	-2.08016469623559E-18	0.985123451363388	0.123843518272387	0.985123451363389	0.123843518272387	1.53296004785813E-18	4.36291316723103E-18
53.6	-3.77958828580871E-19	-6.7108246857488E-18	0.976404922694559	-0.0884178331818867	0.97640492269456	-0.0884178331818866	2.83835753584592E-18	6.26154028662284E-18
53.7	-4.61072663034984E-18	-6.13649963370647E-19	0.881703557419628	-0.245170787340402	0.881703557419627	-0.245170787340402	-1.80254045887232E-18	1.93462271880837E-18
53.8	-3.14569947012223E-18	-1.1633936002679E-18	0.984874915152583	-0.32013556599298	0.984874915152583	-0.32013556599298	6.01943368679887E-18	-4.3755761291267E-18
53.9	-8.96699067692491E-19	5.11716802217251E-18	0.835791625204867	-0.498487153540185	0.835791625204866	-0.498487153540185	3.08614263039626E-18	1.20008292007937E-18
54	-9.12476641078817E-19	6.40930623688571E-19	0.729929013044909	-0.613400963982724	0.729929013044909	-0.613400963982725	-1.28186124737714E-18	-1.82495328215763E-18
54.1	-9.5253472280429E-20	-1.94416433357974E-18	0.653351018251517	-0.686145366290938	0.653351018251517	-0.686145366290938	-1.52405555648686E-19	-3.11066293372759E-18
54.2	-6.35488247290071E-18	1.45842155202013E-18	0.55349891689868	-0.791218277173061	0.553498916898681	-0.791218277173062	8.20684827880742E-19	-7.18667885239587E-18
54.3	-1.67278119221944E-18	-1.74521087403113E-18	0.378267820637222	-0.886537279043314	0.378267820637222	-0.886537279043314	4.55732275500076E-18	9.65729090822587E-20
54.4	-7.0536735756218E-18	-9.99208896745161E-18	0.321895059937677	-0.866834498650123	0.321895059937677	-0.866834498650123	-1.93615778201086E-18	2.24745783940817E-18
54.5	-6.40388923455588E-18	4.01272876485391E-18	0.114082472245739	-1.00688134945148	0.114082472245739	-1.00688134945148	-4.26925948970392E-18	2.67515250990261E-18
54.6	4.41369522910537E-18	-3.28452868407043E-18	-0.024267442727103	-0.937567465596347	-0.0242674427271032	-0.937567465596347	0	0
54.7	-4.08299105711348E-19	1.1973482210567E-19	-0.140796339417099	-0.980457672602938	-0.140796339417099	-0.980457672602938	-3.37658923000017E-19	1.87266606705673E-18
54.8	-4.75831693745471E-18	-7.05001106757625E-19	-0.310668979986936	-0.940139522935825	-0.310668979986936	-0.940139522935825	-1.36582951105308E-18	1.01332895767427E-18
54.9	-4.57180070781341E-20	5.00524602317459E-19	-0.442898811219144	-0.856637046171511	-0.442898811219144	-0.856637046171511	1.78267278497641E-18	2.74544523397452E-19
55	0	0	-0.553759104646994	-0.810745764852885	-0.553759104646994	-0.810745764852885	6.08297352154995E-19	-1.55763544021801E-18
55.1	-2.64910090691349E-18	2.55155730556135E-18	-0.685775478873757	-0.713169726927573	-0.685775478873757	-0.713169726927573	3.46011465311281E-18	-1.56385758169829E-18
55.2	1.61283114731485E-18	-2.04446605214964E-18	-0.758231829243298	-0.602356930016105	-0.758231829243299	-0.602356930016105	2.37688096758626E-18	-5.5185448851056E-19
55.3	-2.50596356074839E-18	-6.77082538147836E-18	-0.86024924741647	-0.461738827492796	-0.86024924741647	-0.461738827492796	3.66284435919644E-18	2.53135424323555E-18
55.4	-2.04784095267492E-18	3.29710374262863E-18	-0.912306233016106	-0.372057764128168	-0.912306233016106	-0.372057764128168	1.72738590637802E-18	-5.37750209053745E-18
55.5	4.56045591240325E-18	-1.79337518855052E-18	-0.978374434155903	-0.203796391758315	-0.978374434155904	-0.203796391758315	1.81589672502836E-18	-4.16970166000091E-18
55.6	-1.21789674340785E-18	-1.85041039345854E-19	-0.97029084228629	-0.0732899814499435	-0.97029084228629	-0.0732899814499435	-3.98788880647102E-18	4.37814420204246E-18
55.7	6.50022782064607E-19	1.65612439886232E-18	-0.9954076676769	0.0643141485286595	-0.9954076676769	0.0643141485286599	2.12325814293615E-18	-3.75646843508752E-18
55.8	-3.06961268103636E-18	2.47124357882035E-18	-0.96672539763549	0.225921006294117	-0.96672539763549	0.225921006294117	2.29898832613891E-18	-1.13660942451603E-18
55.9	-3.62211543764179E-18	-2.13110520237051E-19	-0.928156968766667	0.352878088050218	-0.928156968766667	0.352878088050218	2.05968665909745E-18	-4.11924608379689E-18
56	-2.85688013689257E-18	-1.61981146743784E-18	-0.840674372292031	0.489749458064159	-0.840674372292031	0.489749458064158	-8.95338320866081E-18	2.47413733890946E-18
56.1	1.6513674003924E-18	4.69803583540286E-19	-0.793897386813689	0.599541269294389	-0.793897386813689	0.599541269294388	-2.59097456747298E-18	2.83293121724452E-18
56.2	-5.48945400168574E-18	1.6116940043726E-19	-0.701188765994833	0.722077691374792	-0.701188765994833	0.722077691374792	1.12117674909466E-17	-7.36173347506725E-18
56.3	-2.93002750178226E-18	-5.40562722494708E-19	-0.537047711874055	0.815049194008871	-0.537047711874055	0.81504919400887	-4.12687312225504E-18	-5.42253307157914E-18
56.4	-5.29723175681185E-18	-4.83600177871618E-18	-0.473451262308519	0.882425576045801	-0.473451262308519	0.882425576045801	2.89896927902077E-18	-1.92387355865073E-18
56.5	-1.1428442804893E-19	6.06821423039359E-18	-0.322752556719481	0.961639848755363	-0.322752556719481	0.961639848755364	-4.30727286933509E-18	5.69393133923788E-18
56.6	1.35063239168752E-18	-1.27468528503814E-18	-0.170696354401637	0.9635438246056	-0.170696354401637	0.9635438246056	-4.56505439467808E-18	1.24800094776442E-17
56.7	1.84180707440392E-18	-1.57610654327561E-18	-0.0385500049439245	0.993293828914186	-0.0385500049439244	0.993293828914186	8.2790835130705E-18	4.08216494550031E-18
56.8	6.00644339003192E-19	3.50080528191399E-18	0.0858603365814768	1.00817182098978	0.0858603365814769	1.00817182098978	2.29951660390761E-18	-7.60225490283117E-18
56.9	9.79498492181968E-18	-3.24917789325248E-18	0.237688493178823	0.959953096552697	0.237688493178823	0.959953096552697	1.33518880507185E-18	-8.377110362018E-18
57	1.75690354025326E-18	4.72481883023466E-19	0.396888238407141	0.883475216285922	0.396888238407142	0.883475216285923	1.08074692252008E-18	-1.21653007899322E-18
57.1	-4.03590772558789E-18	-3.16258866171321E-18	0.503154517946337	0.847752185438033	0.503154517946338	0.847752185438033	4.03773628234903E-18	-7.39946892303798E-18
57.2	-6.41473710348684E-18	3.93471684767229E-18	0.62618681898321	0.793966197433751	0.62618681898321	0.793966197433751	1.72490899185986E-18	4.13336709302427E-19
57.3	-4.7395364779548E-18	-5.95606031736648E-18	0.769493056618178	0.623724067665088	0.769493056618178	0.623724067665088	1.1848841194887E-18	1.48901507934162E-18
57.4	-3.11124094488819E-18	-5.1669146712625E-19	0.77948378855089	0.54260633981725	0.77948378855089	0.542606339817251	1.00268303257286E-17	4.2063201729916E-20
57.5	2.08821695591801E-18	-1.62892691565749E-18	0.906589653447175	0.442601976467186	0.906589653447175	0.442601976467186	-4.44792173111228E-18	2.90981767199532E-18
57.6	1.52472850221764E-18	-3.17314515551805E-18	0.962627991708896	0.283223484538332	0.962627991708896	0.283223484538332	9.45906041431333E-19	-1.46833432258011E-18
57.7	3.0966717065189E-18	-7.40479905964741E-18	0.94904705328114	0.141700461815435	0.949047053281141	0.141700461815435	5.04942385969348E-18	-1.2789917398749E-19
57.8	1.67234023957853E-18	9.56754390242048E-19	0.996304274638615	0.0279079799336939	0.996304274638615	0.0279079799336941	-9.56754390242048E-19	1.67234023957853E-18
57.9	1.551147276099E-18	1.60217575877907E-18	1.00308650587436	-0.0980676173642749	1.00308650587436	-0.098067617364275	5.27161820081085E-18	-5.91680353453904E-19
58	-2.12679262188903E-18	-5.72280927580082E-18	0.938942838743403	-0.299491257552656	0.938942838743403	-0.299491257552656	7.63993341932813E-19	-1.83422633637902E-18
58.1	5.03686736561762E-18	1.5387070871502E-18	0.874311592678204	-0.375160564253638	0.874311592678204	-0.375160564253638	1.56475506808226E-18	1.4876182823183E-18
58.2	-8.48930238621076E-18	1.51851827079314E-18	0.848962915813275	-0.523016888043481	0.848962915813275	-0.523016888043481	-1.53501249841496E-18	-2.70414061881648E-18
58.3	-8.03866980881678E-19	-3.55173023590209E-18	0.747064588549279	-0.651670486963878	0.747064588549279	-0.651670486963878	1.6266279755403E-19	-1.37439889040848E-17
58.4	2.68821621942448E-18	-6.286808078427E-18	0.643765866219377	-0.683311110048835	0.643765866219376	-0.683311110048835	-1.16203298179663E-18	6.1957705144692E-18
58.5	3.83003213331044E-18	-5.07336462065649E-18	0.583562235958484	-0.822058571282627	0.583562235958484	-0.822058571282627	-2.1656609301378E-18	4.49182388255275E-18
58.6	3.68922050207346E-18	-7.86801004611832E-19	0.427616700910773	-0.888604618330425	0.427616700910773	-0.888604618330425	-5.00754850198047E-18	1.83936550687126E-18
58.7	-1.7520812495309E-18	6.48946684442378E-18	0.291654177227766	-0.90662907330969	0.291654177227766	-0.90662907330969	-1.5565697543265E-18	8.19642897042144E-19
58.8	3.35476430137829E-18	4.85247655967792E-18	0.182411436696442	-0.953889025728259	0.182411436696442	-0.953889025728259	1.14053342443216E-18	4.52763523631376E-19
58.9	3.83085133223012E-18	-2.91247275386488E-18	0.0669745237202483	-0.988079453157277	0.0669745237202482	-0.988079453157277	2.2959464459131E-19	-1.68583102152375E-18
59	-3.63269841688831E-18	-1.2295867404388E-18	-0.112166564835121	-0.961666198291704	-0.112166564835121	-0.961666198291704	-6.50885897002294E-19	7.80537953683293E-19
59.1	7.05575792210085E-19	5.55422576231266E-19	-0.210123211529335	-0.939057011813415	-0.210123211529335	-0.939057011813414	-1.79542835901366E-18	-4.19851713179237E-20
59.2	1.3825558674192E-19	1.6622219681028E-19	-0.339487199370588	-0.939050658654122	-0.339487199370588	-0.939050658654122	1.5635501010636E-18	5.2742193229914E-19
59.3	1.00078238742639E-18	1.96891043800354E-18	-0.494562948950596	-0.827636993195772	-0.494562948950596	-0.827636993195772	7.1005457072307E-19	3.8197785388833E-19
59.4	-2.72643788172469E-18	-2.61329998897301E-18	-0.567598916531177	-0.784921723666735	-0.567598916531177	-0.784921723666734	0	0
59.5	4.22693696323408E-18	1.63468862463784E-18	-0.700506469815064	-0.692503091233625	-0.700506469815065	-0.692503091233624	1.73380640855541E-18	4.39863669782876E-18
59.6	-2.414047241447E-19	-7.65983809794967E-19	-0.775970073601928	-0.569042052352612	-0.775970073601929	-0.569042052352613	-6.24857284043209E-18	1.54824588826012E-18
59.7	8.69538708114962E-19	1.43708560334165E-18	-0.857182134247669	-0.483224868396166	-0.857182134247669	-0.483224868396166	-2.08275494391279E-19	2.08923963442788E-18
59.8	2.84078027566642E-18	-3.16546952910992E-18	-0.924835881096752	-0.354138148899972	-0.924835881096752	-0.354138148899972	6.98031756510683E-19	1.76940601608855E-18
59.9	1.47526445037795E-18	7.75258300062397E-19	-0.951614401552323	-0.234814638237098	-0.951614401552324	-0.234814638237098	-5.25004612736663E-19	-1.68789206283026E-18
60	-5.28320839202905E-18	1.65936892128093E-18	-0.972480441723689	-0.0776324213312069	-0.97248044172369	-0.077632421331207	9.46017083653747E-19	-6.84087677058122E-19
60.1	5.21958447731034E-18	-5.3346979403364E-18	-0.965155850804053	0.0423387195913277	-0.965155850804054	0.0423387195913278	2.13569790677178E-18	-3.43832061280284E-18
60.2	-5.50435109722441E-18	-1.78569061268066E-18	-0.97819926753793	0.155400304262593	-0.97819926753793	0.155400304262593	-3.79925917483514E-18	4.81823589311895E-18
60.3	9.91510808409294E-18	6.99856881810928E-18	-0.924531741128068	0.325926279039458	-0.924531741128067	0.325926279039458	-8.47346395282146E-19	-3.87885739799385E-19
60.4	4.52502984522277E-19	3.83997499018732E-19	-0.866775444151428	0.401257653890011	-0.866775444151428	0.401257653890012	2.66934758346463E-18	1.74631800508505E-18
60.5	-4.081439593728E-18	1.03934503442263E-18	-0.819785126655878	0.546903497104749	-0.819785126655878	0.546903497104749	3.04385159599514E-18	-2.38318247859437E-18
60.6	3.12993388063938E-18	1.64210014503252E-18	-0.732206488661192	0.6463515130398	-0.732206488661192	0.646351513039801	5.13007477402371E-19	2.56559764271178E-18
60.7	9.11068579375569E-19	5.72560594161383E-18	-0.634363081292069	0.743284812713931	-0.63436308129207	0.743284812713931	-1.07824901433785E-18	-1.50573475769316E-18
60.8	4.26411477631188E-18	-3.80892441420898E-18	-0.531374057849054	0.828815330298673	-0.531374057849055	0.828815330298673	1.0893398016048E-18	-1.65681733778434E-18
60.9	6.25432541028388E-18	5.6646287118414E-18	-0.423360953215667	0.891501699359358	-0.423360953215667	0.891501699359358	-8.96401433028625E-19	2.91115255746749E-18
61	-1.62921230849157E-18	2.44477793463706E-18	-0.284989742198181	0.941564669030837	-0.284989742198181	0.941564669030837	-4.0709747600153E-19	1.74613288589794E-18
61.1	9.45642398161811E-18	2.48224482279973E-18	-0.153838261965506	0.955942738913733	-0.153838261965505	0.955942738913733	-1.16828057841976E-18	-4.23973773495796E-18
61.2	-3.93159281020215E-18	-2.60225278030301E-18	-0.0399269003449513	0.975185880451701	-0.0399269003449513	0.975185880451701	-2.50417410909057E-18	2.09103372838222E-19
61.3	-1.007122641517E-18	-5.04170927376583E-18	0.0978257529776918	0.98911697230192	0.0978257529776916	0.98911697230192	5.45778766912576E-19	1.6386063145254E-18
61.4	1.10752889167888E-18	3.20469859868732E-18	0.260301021197379	0.942800902399182	0.260301021197379	0.942800902399182	-2.4190965314788E-18	-4.00304051268379E-21
61.5	2.61388822393808E-18	3.01560709715874E-18	0.335304918227831	0.898766400428744	0.33530491822783	0.898766400428743	2.32250626345292E-18	5.11662487073953E-18
61.6	-3.15286411621854E-18	-8.17192176567063E-18	0.486940755940486	0.879055036026135	0.486940755940486	0.879055036026135	3.11112550045733E-18	-1.66974173477095E-18
61.7	1.65197860507451E-18	4.3148001940586E-19	0.606430830570116	0.785168548056122	0.606430830570117	0.785168548056122	6.60791442029805E-18	1.72592007762344E-18
61.8	4.89622714413348E-18	-1.50373954472193E-18	0.683662524431554	0.687025456576429	0.683662524431554	0.687025456576429	8.28781898435614E-19	-2.84776141493705E-18
61.9	2.48543094631268E-18	-3.28384738150478E-18	0.778310655010796	0.586400347725206	0.778310655010795	0.586400347725206	2.65914674592586E-18	3.08171694038524E-19
62	-2.34272858434385E-18	2.73596716941997E-18	0.848955330010086	0.501356282954851	0.848955330010086	0.501356282954851	-1.14545977494079E-18	-3.31237769333767E-19
62.1	-2.30431933806303E-18	7.39396021910435E-18	0.926803094227707	0.373273850283501	0.926803094227707	0.373273850283501	-5.49163811912094E-19	-6.78152451637431E-19
