# GHZ S RI R 50
50	-9.76441374965084E-18	-9.51861513024839E-18	0.794653586308498	-0.564179985222067	0.794653586308498	-0.564179985222067	6.53920334753626E-18	-2.95164319473106E-18
50.1	5.36461684726729E-18	2.57540843421817E-17	0.667810702831382	-0.675119575481707	0.667810702831383	-0.675119575481707	-1.70268424055498E-19	-1.56420736848484E-17
50.2	-1.02553947729046E-17	-3.55851117288628E-17	0.560729152345007	-0.770427855919438	0.560729152345008	-0.770427855919439	9.71918578854755E-18	-6.57195335555056E-19
50.3	-1.75040550050646E-17	1.47528372069519E-18	0.436614501333476	-0.879251288177006	0.436614501333477	-0.879251288177007	5.05195369033267E-19	6.6594969596847E-19
50.4	-8.64246860307455E-18	1.03521984559044E-17	0.243213516274203	-0.903614123837455	0.243213516274204	-0.903614123837456	-3.0088822215267E-18	-8.68058816675068E-19
50.5	6.72786183603468E-19	-1.16060088974706E-17	0.129740287397684	-0.958797782632672	0.129740287397684	-0.958797782632671	-1.31165417405927E-17	4.8065326558914E-18
50.6	3.3975369488146E-18	2.05232280418573E-18	-0.0478624789031361	-0.955492445854594	-0.0478624789031358	-0.955492445854593	2.36621074137013E-18	-8.21617762387838E-18
50.7	5.97664553061931E-19	-6.61612033437699E-18	-0.188522466213187	-0.930327649107531	-0.188522466213188	-0.930327649107532	1.80486530197374E-17	2.55361639930841E-18
50.8	1.96334301940475E-18	-5.21631241212724E-18	-0.357190542949563	-0.911223931141009	-0.357190542949563	-0.911223931141008	2.49715934596083E-17	-7.27586081484523E-18
50.9	2.12416558996865E-17	-8.03973270125517E-19	-0.483084746380159	-0.805402536626745	-0.483084746380159	-0.805402536626745	1.07990749714867E-17	5.76347821995022E-18
51	4.25364078200436E-18	-5.86744313704479E-18	-0.625291062370826	-0.736997447239506	-0.625291062370826	-0.736997447239506	-1.334868862913E-18	-1.86283654830579E-18
51.1	-8.51792693032586E-18	-1.23676297741438E-17	-0.731881374048192	-0.621173392494353	-0.731881374048193	-0.621173392494353	-3.95234111015289E-18	5.51144772621145E-18
51.2	2.49632534159904E-18	-1.20387274205639E-17	-0.816931811528072	-0.489981010742485	-0.816931811528073	-0.489981010742486	2.77750790922553E-18	-1.48248147715493E-18
51.3	5.73819276771157E-18	8.13363377666554E-18	-0.890605345849102	-0.353180447015908	-0.890605345849102	-0.353180447015907	1.36435906085439E-18	7.84386360550676E-18
51.4	8.87941115830353E-18	-1.04123299864319E-17	-0.952186605676132	-0.223513846381196	-0.952186605676132	-0.223513846381195	-3.36486394287117E-18	-1.00103884081959E-17
51.5	-1.48730819026163E-21	-1.5755038621344E-17	-0.942283212323493	-0.0345938645393844	-0.942283212323493	-0.0345938645393844	-1.6671231447909E-17	-1.51442127247941E-17
51.6	1.4262686873617E-17	-1.06899331559531E-19	-0.958593821072231	0.0851896948110234	-0.958593821072231	0.0851896948110242	1.1004471567567E-18	-1.82935937415619E-18
51.7	6.40501565093481E-18	-1.85862754784415E-17	-0.947495787227829	0.241067328256833	-0.947495787227829	0.241067328256833	6.74697467678997E-18	1.9922306207771E-18
51.8	-2.50002617519092E-18	1.14301531771984E-17	-0.836997776817172	0.385718260054293	-0.836997776817172	0.385718260054293	-6.49171294634515E-18	1.38332400292806E-17
51.9	-1.67223263604659E-17	-8.03335021323989E-18	-0.839011569305853	0.517819914563387	-0.839011569305853	0.517819914563387	-2.33938953765611E-17	1.27912486712539E-17
52	3.05317015490883E-18	1.30257421010699E-18	-0.683986023575302	0.654219521980357	-0.683986023575302	0.654219521980357	-1.00082533628583E-18	5.01106745030729E-18
52.1	6.86543595784542E-18	-8.80697731200879E-19	-0.580211369470663	0.737981724128494	-0.580211369470662	0.737981724128494	1.01708575196746E-17	-9.94262920204669E-18
52.2	1.49854931082638E-17	8.9078466094473E-18	-0.484158089083707	0.825274360913467	-0.484158089083707	0.825274360913466	7.34902277253543E-18	-6.38190964867864E-18
52.3	-1.18386509238633E-17	-8.34442349304948E-18	-0.351985731571628	0.891625517123183	-0.351985731571628	0.891625517123182	-1.71613398189509E-17	-7.32063661130886E-18
52.4	4.05170027682715E-18	-2.30128913963711E-17	-0.192658741861151	0.967938715986103	-0.192658741861151	0.967938715986102	-6.7611243629968E-17	-1.33924896882979E-17
52.5	-1.09520505082598E-18	1.30152155549639E-17	-0.0636727478239709	0.911725886382319	-0.063672747823971	0.911725886382319	-3.75078132126454E-18	-2.54011200387944E-17
52.6	-8.52461853649495E-18	5.52497032124149E-18	0.0729966053716268	0.981812774895473	0.0729966053716273	0.981812774895473	2.13539259075201E-17	2.91096115908708E-17
52.7	1.46444987674277E-17	2.19467885426214E-17	0.287253920753021	0.948018029848875	0.287253920753021	0.948018029848875	3.02054741400157E-17	-2.22016620274859E-17
52.8	-9.7830974499923E-18	6.00284929342427E-18	0.317773137435307	0.785295834761991	0.317773137435307	0.785295834761991	9.52364969351568E-18	9.8407525069871E-18
52.9	-1.06576907012716E-18	8.02834246930484E-18	0.598127368594669	0.880086173369256	0.598127368594668	0.880086173369256	-2.18408819973454E-17	1.24790975336714E-17
53	-1.48139106396268E-17	4.20893192574614E-18	0.607848326347437	0.674379304877358	0.607848326347437	0.674379304877358	1.66963982839519E-17	5.33131866259208E-18
53.1	-1.22005094104047E-17	6.88973753917896E-18	0.726279369139206	0.638677099097894	0.726279369139206	0.638677099097894	-3.40534537908189E-17	-1.03354448412781E-17
53.2	-3.06731006718686E-18	-5.31352173681391E-18	0.870545267404175	0.502646666647349	0.870545267404174	0.502646666647349	-4.36191477415817E-17	1.9107659029601E-17
53.3	-3.73964050110442E-18	4.15806756973252E-18	0.882138248754145	0.374925939858518	0.882138248754145	0.374925939858519	-3.22120695757468E-17	3.54766544857851E-17
53.4	-2.77951836669053E-17	-1.56151838362866E-17	0.914904354402263	0.17119440459623	0.914904354402263	0.17119440459623	-2.91963934636028E-17	-1.61585911908673E-17
53.5	-1.22332115692688E-17	-4.77837118493983E-19	0.985125854146356	0.123853234786962	0.985125854146356	0.123853234786962	-2.63713216229303E-17	6.50034066802926E-18
53.6	-4.10070884384756E-18	7.48728003950191E-19	0.976409273458776	-0.0884080723442637	0.976409273458776	-0.0884080723442638	-2.64081183437172E-17	-1.46703838595777E-17
53.7	-1.53986063096823E-17	9.28078226783398E-18	0.881710209029815	-0.245162056409757	0.881710209029816	-0.245162056409757	-1.53624533496194E-17	1.18034969303696E-17
53.8	7.93383099501261E-18	-1.74194510733944E-18	0.984880969275726	-0.320127912805155	0.984880969275727	-0.320127912805156	-2.24276695201717E-17	-1.81978157088827E-17
53.9	-9.56966451328648E-18	4.32619406069427E-19	0.83579986671752	-0.498480653720074	0.83579986671752	-0.498480653720074	5.58671320621132E-18	3.48441562453557E-18
54	-1.57480222619648E-19	-1.28346871301692E-17	0.729938353410207	-0.613396012047886	0.729938353410207	-0.613396012047886	1.99988762728283E-17	-4.50811048912989E-18
54.1	-1.29759900454399E-17	-1.02780411424377E-17	0.653360585320978	-0.686142161305626	0.653360585320978	-0.686142161305625	-1.99148168493209E-17	7.21164290941453E-18
54.2	2.12523636668871E-17	5.15750707890393E-18	0.553508804120033	-0.79121640437941	0.553508804120033	-0.79121640437941	1.2626951129878E-17	-1.49388881019481E-17
54.3	-1.03524705508197E-17	-2.24467052191638E-17	0.378278492837246	-0.886536993966069	0.378278492837245	-0.886536993966069	-2.73441473499586E-17	-5.80005466919681E-19
54.4	2.69342229909347E-17	-2.671873136138E-17	0.32190440689554	-0.86683616542494	0.32190440689554	-0.86683616542494	-2.05382521465021E-17	-2.16096242450372E-17
54.5	-1.29498790587668E-17	6.82269998168385E-19	0.114092732769761	-1.00688377814431	0.114092732769761	-1.00688377814431	-2.78994484740536E-18	1.21527519595081E-17
54.6	-1.65454202358592E-18	1.23093486754274E-17	-0.0242582082318107	-0.937572171901975	-0.0242582082318109	-0.937572171901975	-7.34788440668086E-19	1.53176409239612E-17
54.7	-4.89965626773166E-18	1.43673966041979E-18	-0.140787907111778	-0.98046302709341	-0.140787907111778	-0.980463027093411	4.91500276572778E-18	9.20067101028841E-18
54.8	1.38802764868514E-18	-5.2649978780613E-18	-0.310661277295603	-0.940146321314691	-0.310661277295604	-0.940146321314691	-4.05324464303726E-18	-5.46343995232603E-18
54.9	-7.3388885353806E-18	-5.42974189677066E-19	-0.442892440886421	-0.856645194283812	-0.442892440886421	-0.856645194283812	2.58022914917153E-18	-1.20124142561236E-17
55	6.07846841024691E-18	2.8227352073206E-18	-0.553754037079199	-0.810754421584508	-0.553754037079199	-0.810754421584508	3.77784162826001E-19	8.22603305501145E-18
55.1	-5.99294805770407E-18	1.14588125584862E-18	-0.685771662308506	-0.713179206046593	-0.685771662308507	-0.713179206046593	-3.32714854192939E-18	-1.82985535323556E-18
55.2	-7.35724133607456E-18	-8.3120525866221E-18	-0.758229781991816	-0.602366746194156	-0.758229781991817	-0.602366746194155	-4.81037681174897E-18	4.45678753522017E-18
55.3	-7.46182715880149E-18	3.70806373335465E-18	-0.860248629652396	-0.461749164972157	-0.860248629652396	-0.461749164972156	-3.92420175633871E-18	1.05388570532736E-17
55.4	-7.11801937391134E-18	2.45935175752919E-18	-0.912307039038728	-0.372067601781287	-0.912307039038727	-0.372067601781287	-1.09965792942648E-18	8.34769525267593E-18
55.5	-2.82111836088121E-19	9.32590311061231E-18	-0.978376683079472	-0.203806388269322	-0.978376683079473	-0.203806388269322	-5.62092134098379E-18	1.29062240183515E-17
55.6	1.40502679891901E-18	8.52034032245079E-18	-0.970294769444906	-0.0732992037261619	-0.970294769444905	-0.073299203726162	-7.23575308916321E-18	3.88460587862764E-18
55.7	6.60835817186926E-18	-6.0788584847012E-18	-0.995412669884554	0.0643055553374845	-0.995412669884554	0.0643055553374843	9.38170124451911E-18	-8.17917173226516E-18
55.8	2.66495161948081E-18	2.49708432093714E-18	-0.96673181272943	0.225913168294009	-0.966731812729429	0.225913168294009	-1.3045085455362E-17	1.02636974677102E-17
55.9	5.61055357975277E-18	7.59958499323214E-18	-0.928164374485398	0.352871408821933	-0.928164374485398	0.352871408821933	6.81855783040768E-18	-1.29259022787132E-17
56	-7.57662115338408E-18	1.83561779471323E-17	-0.840682976921282	0.489744078751213	-0.840682976921282	0.489744078751214	1.71412679906061E-17	9.71927965220984E-18
56.1	5.2682996727216E-19	-3.42020840939799E-18	-0.7939063262808	0.599537133533597	-0.793906326280799	0.599537133533597	4.95412381069141E-18	1.40951042724467E-18
56.2	6.13484246799405E-18	6.85260770685076E-18	-0.701198266978761	0.722074808231717	-0.701198266978761	0.722074808231717	-1.07460278977467E-17	-6.71730504358343E-18
56.3	6.97470458768709E-19	-1.19904946736435E-17	-0.537058020159623	0.815048079406933	-0.537058020159623	0.815048079406933	6.28930409341947E-18	-6.29751928570104E-18
56.4	-2.2994870033279E-18	3.6138371703181E-18	-0.473461023293086	0.882425689701412	-0.473461023293087	0.882425689701412	3.84768437435898E-18	5.7980588389647E-18
56.5	-1.80708212343053E-18	5.34728311947632E-18	-0.322762465347525	0.961641342680494	-0.322762465347525	0.961641342680495	-3.00039560697196E-17	4.15948529427662E-18
56.6	3.26267984727268E-18	7.51329070687695E-19	-0.170705807645796	0.963547164479607	-0.170705807645796	0.963547164479607	1.23653567901331E-17	-9.62672711360485E-18
56.7	6.32284585318109E-18	-1.49820965167474E-17	-0.0385588549439247	0.993298342618187	-0.0385588549439248	0.993298342618187	-1.1431272788426E-17	-7.76605429710881E-18
56.8	-1.27547634371752E-17	-1.13264068959561E-17	0.0858523212299058	1.00817730165498	0.085852321229906	1.00817730165498	2.15029811248491E-17	-2.17083827107893E-17
56.9	4.61118823116805E-19	-1.36705446394849E-17	0.237681473521521	0.959959984191843	0.237681473521521	0.959959984191842	-8.7422696337699E-19	-5.29337246311856E-18
57	-1.47275704341334E-17	9.22702216463181E-18	0.396882297453108	0.883483515274685	0.396882297453108	0.883483515274685	2.21637433430822E-17	4.45370341735912E-18
57.1	-3.36961024769803E-18	3.08112856410935E-17	0.503149845253609	0.847760880348042	0.503149845253609	0.847760880348042	5.50976106883516E-18	3.56567715647359E-17
57.2	4.38373832981316E-18	8.34646877065151E-18	0.626183257205912	0.793975279344632	0.626183257205913	0.793975279344632	-3.94588117973584E-17	1.24316376383318E-17
57.3	-3.58647392286718E-18	7.71757545503069E-18	0.769490975718979	0.62373445655336	0.769490975718979	0.62373445655336	4.41593778307567E-17	-2.1519972959301E-17
57.4	1.96845500880793E-18	1.09511351121037E-17	0.779483724851534	0.54261614348413	0.779483724851534	0.54261614348413	-1.74204535101954E-17	1.60432805579502E-17
57.5	-5.06754433961878E-18	2.83321127345132E-18	0.906590396448879	0.442611892583938	0.906590396448879	0.442611892583938	-8.65275311092086E-18	-1.39635753413737E-17
57.6	9.61472303826041E-18	-1.25055348654401E-17	0.962630321469924	0.2832334256203	0.962630321469924	0.2832334256203	-1.83584932250091E-19	-2.71288233751941E-17
57.7	3.43563256131775E-18	-1.39819393342624E-17	0.949051236113905	0.141709691210555	0.949051236113905	0.141709691210555	-8.97709453010034E-18	-2.52890059878634E-17
57.8	-6.06622440558171E-18	-7.24422706984953E-18	0.99630928221716	0.0279165215927228	0.99630928221716	0.0279165215927227	-9.74455801960329E-18	-1.09025271397798E-17
57.9	-6.41308143778741E-18	7.88927566171243E-18	1.00309249416951	-0.0980599581645149	1.00309249416951	-0.0980599581645149	1.20386629269052E-17	-1.18062677857173E-17
58	2.95043842345291E-18	-2.86494098176102E-20	0.938950621335542	-0.299484268529584	0.938950621335542	-0.299484268529583	6.92335017300058E-18	-4.26327240192926E-17
58.1	1.80958592434823E-17	1.28711160340148E-17	0.874320082121919	-0.37515537239154	0.87432008212192	-0.375155372391539	-2.05827345238267E-17	1.50974157321623E-17
58.2	1.16700032673045E-17	-3.46781572284177E-17	0.8489719241332	-0.523012495393103	0.8489719241332	-0.523012495393102	1.12793438955268E-17	-3.29436962793743E-17
58.3	-1.34440460507581E-17	1.02030695143414E-17	0.747074403773515	-0.651667451041076	0.747074403773515	-0.651667451041075	1.07603816564046E-18	-1.57333052120652E-18
58.4	-4.57861269603706E-18	2.73040757133806E-19	0.643775605923284	-0.683310171789386	0.643775605923283	-0.683310171789387	8.42911670638398E-18	-1.27557153703665E-17
58.5	-3.66983150659347E-18	1.62227884739835E-17	0.583572009676653	-0.822058278945442	0.583572009676654	-0.822058278945442	4.07064081146279E-18	1.16507894075713E-17
58.6	1.42414988003341E-17	-1.46081903984032E-17	0.427626665943586	-0.888606038469935	0.427626665943586	-0.888606038469935	-1.81645627859104E-17	-1.46402088990138E-17
58.7	2.7153765046769E-17	3.99345068672508E-18	0.291663670777862	-0.906632265780759	0.291663670777862	-0.906632265780759	1.32986221136792E-17	3.73378386674895E-18
58.8	2.75948170286832E-17	-2.07320709010645E-17	0.182420290454671	-0.953893275389271	0.182420290454671	-0.953893275389271	1.86271420263342E-17	-2.25317929972231E-17
58.9	4.74943562562482E-18	-9.65583429785981E-18	0.0669826269335488	-0.98808464187961	0.0669826269335484	-0.98808464187961	1.14811814475367E-18	-8.42923462980106E-18
59	5.69090960218624E-18	9.93328107513465E-18	-0.11215912398139	-0.961673006379617	-0.11215912398139	-0.961673006379617	-5.21122702968843E-18	2.6944222946693E-18
59.1	-8.24449584775847E-18	1.45378298017345E-17	-0.210117118700285	-0.939064550913657	-0.210117118700285	-0.939064550913658	-1.35437322486293E-17	1.83659795296794E-17
59.2	-8.73641049146438E-18	-1.18564022420178E-17	-0.339481972988586	-0.939058674440733	-0.339481972988585	-0.939058674440733	6.31765810243456E-19	-9.38376542071273E-18
59.3	2.02714876725425E-17	-5.34561495343302E-18	-0.494559076531015	-0.827646340792989	-0.494559076531015	-0.827646340792988	2.41082687727559E-17	-3.96818474252692E-18
59.4	3.44803207631779E-18	1.22781088323215E-17	-0.567596500351938	-0.784930969767793	-0.567596500351938	-0.784930969767793	-1.93215266467763E-18	-6.37404278856521E-19
59.5	5.91967825842329E-18	2.45699186008317E-18	-0.700505196608945	-0.69251285235283	-0.700505196608945	-0.692512852352831	3.28645063070132E-18	-6.98124715482335E-18
59.6	7.33657783137904E-19	-1.37043334697094E-17	-0.775970466255185	-0.56905196580036	-0.775970466255185	-0.56905196580036	-9.31266823532246E-18	2.51374682996408E-18
59.7	-5.46533579515276E-19	-1.14486634592329E-17	-0.857183657916708	-0.483234467796404	-0.857183657916708	-0.483234467796403	2.72326461928231E-18	-3.61093457011476E-18
59.8	2.10057930901707E-17	9.70775339414069E-18	-0.92483872481148	-0.354147548577227	-0.924838724811479	-0.354147548577226	1.50975921383811E-18	-5.50307480818235E-18
59.9	7.61338145508341E-18	1.05904821706894E-17	-0.95161857857853	-0.234823345452295	-0.95161857857853	-0.234823345452296	7.18808135285399E-19	1.31910341172284E-18
60	-7.26095119431979E-20	1.08577472436473E-17	-0.972486008041058	-0.0776406268737566	-0.972486008041058	-0.0776406268737567	-1.87969397923355E-17	2.33167836442494E-17
60.1	1.95346771079811E-19	-1.62702844381175E-17	-0.965162490747553	0.0423315728028573	-0.965162490747553	0.0423315728028574	4.65273219744214E-18	-1.17861009565485E-17
60.2	2.08551070371343E-17	2.0051648494656E-17	-0.978206483122503	0.155394116074547	-0.978206483122504	0.155394116074548	-4.74643861037335E-18	-1.4562423022326E-17
60.3	-1.79593775565583E-17	1.6177812155429E-18	-0.924540226403737	0.325921039713616	-0.924540226403738	0.325921039713616	-1.52605899518578E-17	-9.65087177657515E-18
60.4	-1.00658463168988E-17	3.91197660626905E-18	-0.86678425557061	0.401254095628971	-0.86678425557061	0.401254095628971	-5.5767524348217E-18	4.56628522766009E-19
60.5	0	0	-0.819794459348139	0.546900846789777	-0.819794459348139	0.546900846789778	3.23493332259175E-18	-7.7775682424096E-18
60.6	-6.6660338423325E-19	-8.00474016490733E-18	-0.732216086661555	0.6463503037176	-0.732216086661555	0.6463503037176	-9.64690833701369E-18	3.79655384652446E-18
60.7	5.31643660906373E-18	-1.92964624086229E-17	-0.634372799106961	0.743284964015502	-0.634372799106961	0.743284964015501	-3.24385800331735E-18	5.96742739290471E-18
60.8	3.29923159221418E-18	-5.90992809430089E-18	-0.531383669776755	0.828816766942709	-0.531383669776756	0.828816766942709	2.51755541531989E-17	-7.63110068134195E-18
60.9	2.70562409401664E-18	-1.40610030846953E-17	-0.423370176751301	0.89150441281802	-0.423370176751301	0.891504412818019	1.83528333630645E-17	-2.69563012572755E-17
61	-8.14660176147574E-18	1.07106584114348E-17	-0.284998603004451	0.941568744980193	-0.284998603004452	0.941568744980193	-1.46656952645878E-17	8.38363317607077E-18
61.1	-1.82248917642899E-17	-1.22309401978662E-17	-0.153846348854359	0.955948144296838	-0.15384634885436	0.955948144296838	-2.00862052928075E-17	1.34882802393312E-17
61.2	-8.36988814784283E-18	9.71394980549011E-19	-0.0399340739610252	0.975192173568433	-0.0399340739610252	0.975192173568432	-7.80382931095895E-18	1.42821487883645E-17
61.3	-1.04165711349536E-17	-1.05898061745811E-17	0.0978193520814332	0.989124114832509	0.097819352081433	0.98912411483251	-1.36540374304582E-17	-5.49536286362154E-19
61.4	2.23682075592645E-18	-1.33701745883298E-18	0.260295637600538	0.942809281777784	0.260295637600538	0.942809281777784	1.51448070942742E-17	-1.5094309634345E-17
61.5	-2.81521953774758E-18	-8.12247824155876E-18	0.335301145512119	0.898775053950301	0.335301145512119	0.898775053950302	-9.89127462065704E-18	1.17421704424509E-17
61.6	5.63997220491492E-19	-1.41124515812766E-17	0.486937705984436	0.879064144625622	0.486937705984437	0.879064144625622	-7.98137301928116E-18	-7.06027528305003E-18
61.7	-4.31509714568993E-19	1.65199442490394E-18	0.606429194545087	0.78517818530782	0.606429194545087	0.785178185307819	1.99573242988159E-18	-7.64047421518074E-18
61.8	-1.61757066919694E-18	-2.45241894097113E-18	0.683662491344508	0.68703511658173	0.683662491344508	0.68703511658173	1.13570769868391E-17	1.02411337890201E-17
61.9	-7.1857937564501E-18	-1.15179761215899E-18	0.778311918712067	0.586410005374373	0.778311918712067	0.586410005374373	1.11445185665188E-17	1.60188650386803E-20
62	2.95345760845096E-18	-1.62842615001975E-18	0.848957728988081	0.501365479319351	0.848957728988081	0.501365479319351	-1.78066554870322E-17	-1.73600841901645E-18
