# GHZ S RI R 50
50	4.32928126507409E-17	2.58139317049174E-17	0.793108847215794	-0.559608953500413	0.793108847215794	-0.559608953500412	-9.47262747790385E-18	2.70119030471951E-18
50.1	-1.77712263981608E-17	8.66851452373972E-18	0.666049265941442	-0.6712120182589	0.666049265941442	-0.6712120182589	3.75187710400468E-18	-1.63159860363489E-17
50.2	-1.21048877909039E-19	1.88409897707276E-17	0.559035985238413	-0.765119051245767	0.559035985238413	-0.765119051245766	3.6142006910193E-18	6.20454350042267E-18
50.3	-1.04908672368837E-17	-3.05845943953494E-17	0.437093137236993	-0.87264141126068	0.437093137236993	-0.87264141126068	1.54482102414068E-17	1.34380579137218E-18
50.4	-1.4371134699934E-17	1.12177125244297E-17	0.242800882185538	-0.899112212264695	0.242800882185538	-0.899112212264695	0	0
50.5	-2.54991428597895E-18	-5.70861527552947E-18	0.131513032031841	-0.951649157742941	0.131513032031841	-0.951649157742941	-4.48261796503198E-18	7.0538009646786E-18
50.6	-2.27354867924578E-17	-7.26144607250902E-18	-0.0454806404377022	-0.949321769801444	-0.0454806404377022	-0.949321769801442	-7.58722434385532E-18	-1.34387013827874E-17
50.7	-1.46465633457564E-18	-1.14782540878994E-17	-0.185293123597768	-0.923360557654533	-0.185293123597768	-0.923360557654533	1.01684632493615E-17	-7.58768073808645E-18
50.8	2.74557652844428E-17	2.035712119265E-17	-0.351260575239274	-0.905512085142746	-0.351260575239274	-0.905512085142746	2.51934141316285E-17	-6.38676334199075E-18
50.9	-2.0502793246109E-17	-1.2721658139249E-17	-0.478052925977429	-0.799442710888521	-0.47805292597743	-0.799442710888521	-1.20319777221E-17	-3.04598130622963E-18
51	7.90004851623673E-18	1.99408801072504E-17	-0.617818787612025	-0.732599705757594	-0.617818787612025	-0.732599705757594	1.2293672187378E-17	3.72140845991328E-18
51.1	1.07993552230393E-17	-1.20543425039199E-17	-0.72369470236417	-0.617555148561846	-0.723694702364169	-0.617555148561846	-2.22259180926527E-18	-1.39551304709472E-17
51.2	-1.11965532126572E-18	-3.77586204096738E-18	-0.808136715149709	-0.487243529225034	-0.808136715149709	-0.487243529225034	-4.02233401843791E-18	5.61660495048664E-18
51.3	-1.3316082114296E-17	-1.91329880441305E-17	-0.880965913285873	-0.352101488952176	-0.880965913285874	-0.352101488952177	-2.2028672137196E-19	-8.82977233980102E-18
51.4	-7.29152084961114E-19	5.40591462992268E-19	-0.940979268012575	-0.224882896114215	-0.940979268012575	-0.224882896114215	2.16227020194112E-18	-5.27542338970706E-18
51.5	4.5530128405402E-20	-1.04241272818672E-17	-0.932987903394544	-0.0359224639367775	-0.932987903394543	-0.0359224639367776	-1.91283215104061E-18	-4.69775899836071E-18
51.6	-1.98371236882506E-18	-9.20616027993782E-18	-0.947340368032549	0.0809994962326586	-0.947340368032548	0.0809994962326588	-1.26380195877065E-17	1.09292920013767E-17
51.7	-2.02362306978037E-18	5.6610750640876E-18	-0.936856845084118	0.234073059139393	-0.936856845084118	0.234073059139393	-2.33935608117777E-18	-1.34173442925154E-17
51.8	-4.09527797369906E-18	9.7473423497683E-18	-0.827174302466709	0.380385430027127	-0.827174302466709	0.380385430027127	-1.27497671717701E-17	-3.35480714577524E-18
51.9	-1.92681155757745E-18	1.61102326177268E-19	-0.829942016103343	0.506340815614191	-0.829942016103342	0.506340815614192	5.74733194023903E-18	1.03327147358956E-17
52	-3.61205290361081E-18	-1.91625176504168E-17	-0.677304337659608	0.644751855328204	-0.677304337659609	0.644751855328205	-3.46322959838587E-17	-6.07295275307807E-18
52.1	-4.3754145360405E-18	4.10081851261307E-18	-0.573942119953811	0.726731736726921	-0.573942119953811	0.72673173672692	2.47412120003687E-17	1.39861010836231E-17
52.2	-1.17447054721283E-17	-5.7953687742385E-19	-0.479855917202326	0.811110290698005	-0.479855917202325	0.811110290698004	-8.28181335116146E-18	2.65233988307292E-17
52.3	3.80728662772063E-18	-6.43585210368143E-19	-0.349924420973013	0.876303561742333	-0.349924420973013	0.876303561742333	5.59848028985379E-18	5.31935635191124E-18
52.4	-1.03292991026121E-17	1.16481887629117E-17	-0.194998281698234	0.95287873308793	-0.194998281698233	0.95287873308793	5.2599694679855E-17	1.8900078658158E-17
52.5	3.36086514161978E-17	1.99656461385699E-18	-0.0638977563273685	0.89543271827678	-0.0638977563273684	0.89543271827678	5.35398547596604E-18	-2.74778538649237E-17
52.6	2.77400615584982E-18	-3.654957200613E-18	0.0657951605856906	0.964800635574999	0.0657951605856908	0.964800635574999	-1.98374844723655E-17	-1.37524896349973E-18
52.7	-3.01805789694365E-17	-6.97614776831023E-18	0.277765444028436	0.935748064826458	0.277765444028436	0.935748064826458	-1.88795830646508E-17	4.97635022935394E-17
52.8	3.21960441127965E-18	1.35228553302791E-17	0.312909318245668	0.767607843161391	0.312909318245668	0.767607843161391	1.57957262688276E-17	-1.79450728833977E-17
52.9	-1.14495379488758E-17	7.60054684262372E-18	0.580545549589899	0.872676153494758	0.580545549589898	0.872676153494758	-1.63404284703033E-17	-3.99066071304631E-17
53	-1.67162274859178E-17	9.84848922671778E-19	0.595516845399508	0.662440938116269	0.595516845399508	0.662440938116269	1.82459243904815E-18	8.84632573497826E-18
53.1	7.90369320276336E-18	1.39677909718399E-17	0.707735563530935	0.62979698912419	0.707735563530934	0.62979698912419	2.1541036705074E-17	2.33461452023677E-17
53.2	1.47689451806805E-18	-8.23499005187205E-19	0.851319778974118	0.500030509090399	0.851319778974118	0.500030509090399	4.78694960294221E-17	-4.42668717708478E-18
53.3	3.06364049513642E-18	-1.23391054231449E-17	0.861670815711896	0.371799070097949	0.861670815711896	0.37179907009795	-1.9753788203857E-17	1.02286952894466E-17
53.4	1.39286712881812E-17	-1.16386866589351E-17	0.897776052130248	0.170510438805439	0.897776052130247	0.170510438805439	1.21098013271334E-17	8.79440517755618E-19
53.5	-1.31548837505614E-17	-3.23787399292789E-17	0.961626050644424	0.129114326405513	0.961626050644423	0.129114326405513	-4.81985121115532E-17	2.90318334668687E-18
53.6	3.50454210116915E-17	1.51897625527436E-17	0.957395060147569	-0.0803145816885182	0.957395060147569	-0.0803145816885183	8.0957537639806E-18	-2.89749427854277E-17
53.7	-5.59136604703407E-18	1.30865202035593E-17	0.864488782222569	-0.238424067122241	0.864488782222569	-0.238424067122241	1.32652964087177E-17	5.89082044008966E-18
53.8	-7.10323625907224E-18	8.41514912818614E-18	0.964639373011716	-0.301173875869498	0.964639373011716	-0.301173875869498	-1.38911113972908E-17	-7.62305826340514E-18
53.9	-3.79837675081843E-18	-9.3156740508665E-18	0.82066438013803	-0.481890310797865	0.82066438013803	-0.481890310797865	7.52840378620082E-18	-7.0444243471371E-18
54	1.04538015134657E-17	1.38294990973299E-17	0.716926698705949	-0.595661866983777	0.716926698705949	-0.595661866983776	1.44389872476951E-17	-3.44139592323901E-18
54.1	7.91567296681115E-18	-6.20909279867589E-18	0.640998673855114	-0.664741512502627	0.640998673855114	-0.664741512502627	1.78474704258794E-17	2.31129346418716E-18
54.2	2.58669863488482E-18	-6.59307750190733E-18	0.545296612678708	-0.767015570584835	0.545296612678707	-0.767015570584834	-1.32484130739951E-18	1.02208265797109E-17
54.3	8.48176592210736E-18	6.82340722743857E-18	0.375232598453745	-0.864087782968287	0.375232598453744	-0.864087782968287	2.42754619910578E-17	6.81545040532645E-18
54.4	2.08436895680075E-17	-6.7083381130041E-18	0.317819132868763	-0.83866895359592	0.317819132868763	-0.83866895359592	3.57311675118688E-17	1.85789334087577E-17
54.5	-2.26805618777397E-17	6.58941121225104E-18	0.121128556230049	-0.982528524818856	0.121128556230049	-0.982528524818856	3.29348443159177E-18	1.4845103432838E-17
54.6	-1.56345540100028E-18	-2.83522531825986E-18	-0.018408145977444	-0.913428400661233	-0.0184081459774439	-0.913428400661233	1.16909238535283E-17	2.42686564102288E-18
54.7	-1.60095596216385E-17	1.01041743229491E-18	-0.127510334167604	-0.955421896562066	-0.127510334167604	-0.955421896562067	-2.40064353173694E-18	-2.68793997410341E-18
54.8	3.38256555515962E-18	-6.37658499473903E-18	-0.293992434376527	-0.918694675460039	-0.293992434376527	-0.918694675460039	-1.44444527670579E-17	-3.57683861294972E-18
54.9	-9.1587157370216E-18	1.31515937609517E-17	-0.424655995727515	-0.83740801257355	-0.424655995727515	-0.83740801257355	9.6267581991883E-18	1.27378258090732E-17
55	-1.11594998224821E-18	-1.79871629392965E-17	-0.53057856410803	-0.793365050269377	-0.53057856410803	-0.793365050269377	1.57032833067657E-17	-1.31738202108849E-17
55.1	-3.40465492741322E-18	3.11951921096631E-18	-0.660246816885759	-0.700439639156814	-0.660246816885759	-0.700439639156813	-2.8294950638021E-18	-6.60770742840605E-18
55.2	-8.5403633128705E-18	1.51468446379173E-17	-0.73083299794978	-0.591735383661356	-0.730832997949781	-0.591735383661356	-2.77691743788907E-18	-5.68245424474959E-18
55.3	-1.17152811702229E-17	-5.28694642638805E-18	-0.83254844431144	-0.456709910684621	-0.832548444311439	-0.456709910684621	1.2608481175995E-18	1.97879798818616E-18
55.4	9.03710712198571E-18	-6.6223489491486E-18	-0.880914300078376	-0.370629001381391	-0.880914300078376	-0.370629001381391	1.43028148480687E-17	2.36882002888975E-17
55.5	9.48741422832349E-18	-1.02398108079029E-18	-0.948620188067456	-0.208599281709629	-0.948620188067457	-0.208599281709629	1.25710133044978E-17	4.00675540776953E-18
55.6	5.26317176891544E-19	-3.04418051841173E-18	-0.940177644577419	-0.0806765608316189	-0.940177644577419	-0.0806765608316189	2.10526870756618E-18	-1.21767220736469E-17
55.7	-5.60630688035798E-18	-6.75250037707412E-18	-0.965864540378811	0.0507143566184736	-0.96586454037881	0.050714356618474	7.08262295797002E-18	1.88351476439291E-17
55.8	2.4666354627067E-20	-8.9914876055139E-19	-0.940278851345932	0.208400135576424	-0.940278851345932	0.208400135576424	-1.30266744867466E-17	2.52208052713468E-18
55.9	-9.05340820255751E-18	-7.52086061589389E-19	-0.903416908407926	0.331061603587923	-0.903416908407926	0.331061603587923	3.67706034905509E-18	-3.11299580286304E-18
56	1.10713095563059E-17	-9.55842959516367E-18	-0.819549899324163	0.465954015338355	-0.819549899324162	0.465954015338354	-4.73109981475083E-18	7.94931966835939E-18
56.1	2.23475327690852E-17	-8.17637128329265E-18	-0.775652282297806	0.570249204962635	-0.775652282297806	0.570249204962636	4.79568307414907E-18	-1.53458876615753E-17
56.2	-3.72461197367356E-18	-8.22576132446191E-18	-0.688169459939077	0.689771147247283	-0.688169459939077	0.689771147247283	-1.98467304548899E-17	-3.61853097955163E-17
56.3	2.80943898651577E-18	-2.98919322517868E-19	-0.528852284648967	0.784332054135134	-0.528852284648967	0.784332054135135	-2.0549530413271E-17	-2.18301150245847E-17
56.4	-5.32711266570164E-18	-1.39102533414522E-17	-0.469477921493958	0.846238255400342	-0.469477921493958	0.846238255400342	-2.40902698744099E-18	-2.32679479133687E-18
56.5	-3.53568771460096E-18	8.41280383424304E-18	-0.325559898862877	0.925994427752796	-0.325559898862877	0.925994427752795	-1.51975524897236E-20	1.07017092763589E-17
56.6	3.91448849310285E-18	4.87618262192848E-18	-0.176368052299338	0.929027438571008	-0.176368052299338	0.929027438571007	-5.86141402167972E-18	-1.89804336751705E-17
56.7	1.38979985422746E-17	-9.79422441496705E-18	-0.0503605153472239	0.958897301306042	-0.0503605153472236	0.958897301306043	7.36785313122987E-18	-8.8737396243633E-18
56.8	0	0	0.0676554891392737	0.974056520496838	0.0676554891392738	0.974056520496839	-1.507599888501E-17	-2.12735555539234E-17
56.9	-1.44988023311343E-18	5.99147094936434E-18	0.216224255482642	0.929093453433576	0.216224255482642	0.929093453433575	-2.39323388712866E-17	-1.10940058704036E-17
57	-3.04890332715757E-17	1.0470403493495E-17	0.373082881583075	0.857504938033962	0.373082881583076	0.857504938033962	-2.21713328120009E-17	1.04445429809589E-17
57.1	9.35844529810265E-18	-3.61066613068482E-18	0.473402542443073	0.8239814330652	0.473402542443073	0.8239814330652	1.12761199742952E-17	-6.79294526260854E-19
57.2	-7.66300466823618E-18	3.02343038241305E-18	0.590988703285594	0.774916761517429	0.590988703285594	0.774916761517429	-4.6123227752204E-18	-8.09881636723843E-18
57.3	4.07021987993114E-17	-7.54240638437436E-18	0.736553430234461	0.612604263867646	0.736553430234461	0.612604263867647	5.60067183754362E-17	-2.98091472383832E-17
57.4	1.90291890695662E-18	1.0044658590643E-17	0.742571767534161	0.531066541902443	0.742571767534161	0.531066541902443	-6.95546406417822E-18	3.33135467725969E-17
57.5	8.33245809686168E-18	-1.01360422675174E-17	0.866584185498854	0.440524397071083	0.866584185498854	0.440524397071083	7.19889038068644E-18	-2.35131418478182E-17
57.6	1.3472599625959E-17	-4.53480269838578E-18	0.924144043058546	0.28719446636931	0.924144043058546	0.28719446636931	7.10472451527368E-18	2.26354737541162E-17
57.7	-4.20669501416676E-18	-6.08132668366547E-18	0.911374218978394	0.148075307859938	0.911374218978394	0.148075307859939	-8.18467419074885E-18	1.16603167233402E-18
57.8	3.24685970906888E-18	-5.12707313578608E-19	0.957788208598248	0.0423441651686851	0.957788208598249	0.0423441651686852	-7.51913404529498E-18	-5.46830479098055E-18
57.9	6.81008573806817E-20	-2.16990169717244E-19	0.965470330094503	-0.0771791688583366	0.965470330094503	-0.0771791688583364	4.76445799477001E-18	9.12291286713363E-18
58	5.11819572515231E-18	1.25803506661806E-17	0.908874170526398	-0.275895520962982	0.908874170526398	-0.275895520962982	6.80765516394907E-19	2.07252912255184E-17
58.1	6.11771711629555E-18	6.14640358311713E-18	0.84371531977673	-0.348322841501849	0.843715319776729	-0.348322841501849	1.00735238317067E-17	8.07193578064483E-18
58.2	2.01646077519718E-17	-2.52926524782363E-17	0.824175779606202	-0.488995870602861	0.824175779606202	-0.488995870602861	2.27034682039404E-17	-1.66455010112892E-17
58.3	-1.47962070173292E-17	7.09594964287782E-18	0.728273039767169	-0.615479869739926	0.72827303976717	-0.615479869739926	-2.18167347041935E-17	1.5506526082038E-17
58.4	-1.13863937046167E-18	8.43766420274189E-18	0.625245168454983	-0.644942131710125	0.625245168454984	-0.644942131710125	9.65036345599839E-19	-1.40338398337595E-17
58.5	1.8838025941356E-17	6.08311918514557E-18	0.574475478121025	-0.777718970626802	0.574475478121025	-0.777718970626802	1.19318274138935E-18	-7.15381445848584E-18
58.6	1.20859557517596E-17	8.42384106020782E-18	0.424463210720706	-0.845582525002807	0.424463210720707	-0.845582525002807	-2.46595419493002E-18	-5.90879806415343E-18
58.7	-1.14304295991856E-17	-1.2363743530036E-17	0.292218358536201	-0.863807481975768	0.292218358536201	-0.863807481975767	-2.59514372530717E-18	-1.67382456109051E-19
58.8	-9.00688830398788E-18	-5.57341747400149E-18	0.190176088974446	-0.909571623614689	0.190176088974446	-0.909571623614689	1.03051905897403E-18	6.99008254885446E-18
58.9	7.80956997220599E-18	2.74336351696566E-17	0.082335272946803	-0.943350962299999	0.0823352729468026	-0.943350962299999	-3.50318304418171E-18	1.99158662334595E-17
59	5.84327108498109E-18	-1.1807214204859E-18	-0.0922488468812288	-0.92228735280344	-0.0922488468812287	-0.92228735280344	4.11662850082348E-18	-5.96339122087796E-18
59.1	1.10405803042864E-18	3.5082871774656E-18	-0.184551949316222	-0.899888946697043	-0.184551949316222	-0.899888946697044	-1.02860270044526E-17	7.58902974587513E-18
59.2	-4.90809517158358E-18	7.22139438025222E-18	-0.305472012302909	-0.903447469335112	-0.305472012302909	-0.903447469335112	1.22445979009906E-17	2.25367258992239E-17
59.3	3.36827495521358E-18	1.90685576914726E-18	-0.459584616080735	-0.799197452298759	-0.459584616080736	-0.799197452298759	7.16013462691799E-18	-3.5096822034012E-18
59.4	-3.63995244271141E-18	-6.88528547225945E-18	-0.526173618938721	-0.758518401721761	-0.526173618938721	-0.758518401721761	-6.23699445501943E-18	-8.64559797125951E-18
59.5	-3.92570010147434E-18	3.15277955000026E-18	-0.655730054543241	-0.674256652836752	-0.655730054543242	-0.674256652836752	-1.38910178329816E-17	2.68320130314606E-18
59.6	1.00075765273843E-17	3.305811494332E-18	-0.730210035910392	-0.556169442419733	-0.730210035910392	-0.556169442419733	5.49157263719207E-18	-7.57792319777425E-18
59.7	1.9397682595305E-18	-2.80926985456019E-18	-0.807539480236965	-0.477479361506653	-0.807539480236965	-0.477479361506653	6.5549870126077E-18	1.6220823819393E-18
59.8	-1.85363071447464E-17	5.69953837158477E-18	-0.874858444650202	-0.356114492538307	-0.874858444650201	-0.356114492538307	-6.48543242150452E-18	6.64634770532143E-18
59.9	-2.00604752211826E-18	1.84918050368049E-17	-0.901122751152161	-0.242752690773562	-0.901122751152162	-0.242752690773562	-5.6080624091584E-18	1.11573425127918E-17
60	1.20431112243449E-18	-1.35218839998332E-17	-0.925004675970681	-0.0925702524427698	-0.92500467597068	-0.0925702524427696	5.77710444330909E-18	-2.10095447146486E-17
60.1	0	0	-0.918732996125269	0.0214854192461937	-0.918732996125269	0.0214854192461936	2.36635339861091E-18	3.55584250678129E-18
60.2	-1.80187195678828E-17	-4.61579401049747E-18	-0.933150884391659	0.125972811754986	-0.933150884391659	0.125972811754986	-1.03255425517558E-17	-2.74352640381333E-18
60.3	8.86516733066359E-18	2.72769836798638E-17	-0.886689249792105	0.291866378460981	-0.886689249792105	0.291866378460981	-7.77391082181962E-18	8.55820530170502E-18
60.4	-4.46703707751615E-18	1.68082962930333E-18	-0.829994954727729	0.362487037121555	-0.82999495472773	0.362487037121555	7.67269080525106E-20	2.0109254482469E-18
60.5	1.22178328060596E-18	-2.04460540046307E-17	-0.790804446296031	0.501655196169405	-0.790804446296031	0.501655196169405	-2.07702184621982E-18	5.74858204141209E-18
60.6	-3.19240919963994E-18	9.64685528475959E-19	-0.709006335267562	0.5975546835773	-0.709006335267562	0.597554683577301	-1.26303814268802E-19	7.34950392775583E-19
60.7	-2.19841232820039E-17	1.82385180585235E-17	-0.618238384616249	0.691522338697209	-0.618238384616249	0.691522338697208	-4.33259320027005E-18	-5.14602473525258E-18
60.8	-5.25361398859116E-18	8.24219413054275E-18	-0.522920737384385	0.774513588235362	-0.522920737384386	0.774513588235362	-8.09014411077757E-18	-8.2317205082204E-19
60.9	1.20381147820057E-17	-1.44086644019541E-17	-0.422259846750434	0.835333925437593	-0.422259846750435	0.835333925437593	1.59757236184198E-17	-1.93135334525151E-17
61	8.34723025966444E-18	5.22512557073123E-18	-0.291799501226879	0.886363815207403	-0.29179950122688	0.886363815207403	9.01795944422615E-18	1.41705505472473E-17
61.1	1.15541141664981E-17	2.47840157816446E-18	-0.167050600023751	0.901879414407149	-0.167050600023751	0.901879414407149	-6.9391864444512E-18	2.80892632613284E-18
61.2	8.21498641220254E-18	-2.57274243924354E-20	-0.0610991427325894	0.921627351680944	-0.0610991427325896	0.921627351680945	1.60863388534778E-17	-8.68203119859716E-18
61.3	1.06908176157078E-17	-6.60196067842201E-18	0.0678623402199586	0.938902279849944	0.0678623402199585	0.938902279849943	1.16452355307824E-17	1.73364016375646E-17
61.4	3.87149180095172E-18	-1.89733423008927E-17	0.225236039220865	0.899268540624307	0.225236039220865	0.899268540624307	-1.43892674998344E-17	-7.94588294536217E-18
61.5	-1.31775519159513E-17	-1.22622988372499E-17	0.294536459236968	0.856119832847549	0.294536459236969	0.85611983284755	-6.90360830080686E-18	1.07991096956578E-17
61.6	6.7148987375415E-18	-6.78640159301732E-18	0.437485579730138	0.84461287631576	0.437485579730138	0.84461287631576	-1.39635338445131E-18	3.33720105625184E-18
61.7	3.67375838753525E-18	3.57958550452556E-18	0.553926524928018	0.75810843943138	0.553926524928017	0.758108439431379	-5.27503604875241E-19	-3.3786156240944E-18
61.8	5.7715661620997E-18	8.7630801253221E-19	0.628386916615197	0.665402159515433	0.628386916615197	0.665402159515433	9.55245997050692E-18	1.10989595685021E-17
61.9	2.05152180636993E-18	2.35507908128078E-18	0.72030821339162	0.573094433078517	0.72030821339162	0.573094433078517	1.03970171195063E-17	-7.00891497942622E-19
62	6.06512629304773E-18	-1.24010960722603E-18	0.787208316692375	0.495808462875206	0.787208316692375	0.495808462875207	1.00135177314461E-17	3.5278914244156E-18
62.1	-1.24842372532714E-17	2.63238798577128E-17	0.865093428184519	0.377718997571568	0.865093428184519	0.377718997571568	-1.29302702801866E-17	5.66164914580872E-18
