# GHZ S RI R 50
50	-5.88917421219058E-19	1.74257641203882E-18	0.836609317976563	-0.600356037068571	0.836609317976563	-0.60035603706857	-9.7717126564605E-18	2.52238983239141E-18
50.1	4.43417911928136E-18	-8.84034570449312E-18	0.703869489021578	-0.717036485124668	0.703869489021578	-0.717036485124668	9.07970170957051E-19	1.73480271307431E-18
50.2	-9.79373263904342E-18	-9.77318903128146E-18	0.589843050227409	-0.819269866120336	0.589843050227409	-0.819269866120337	1.11928373017639E-17	1.11693588928931E-17
50.3	-1.89114829215752E-18	-8.99598729189408E-19	0.455562768582977	-0.933939133889709	0.455562768582977	-0.933939133889709	-9.940330198034E-18	-5.54167482549867E-19
50.4	-1.39605808174113E-17	7.24647044422956E-18	0.254445033565913	-0.958322649001848	0.254445033565913	-0.958322649001848	1.18459464755595E-17	-1.06954068146192E-19
50.5	2.26020687733582E-17	4.74057983406788E-17	0.130136011166718	-1.01798648508635	0.130136011166718	-1.01798648508635	-8.84154817429386E-18	-2.29810442534751E-18
50.6	6.02774299224094E-18	5.61095983243016E-18	-0.0570860102577796	-1.01318983735557	-0.0570860102577794	-1.01318983735558	-8.3045496194932E-18	-9.84812453831336E-18
50.7	8.86755972090033E-19	2.02010798688802E-18	-0.207128623344721	-0.987174068993497	-0.207128623344721	-0.987174068993496	-8.08043194755208E-18	3.54702388836013E-18
50.8	-4.79602458186295E-19	-8.61222907522028E-18	-0.387282048301609	-0.963668435274899	-0.387282048301609	-0.963668435274898	1.48025995160675E-17	-1.15975983013843E-17
50.9	6.89582801858948E-19	6.20333901514934E-18	-0.519370649819657	-0.853324134616645	-0.519370649819657	-0.853324134616645	1.48480815760678E-18	4.66570958059811E-18
51	5.45948377022075E-19	2.13597933342562E-17	-0.671205769248004	-0.777622236255574	-0.671205769248004	-0.777622236255575	7.98446149841408E-18	8.58072647380371E-18
51.1	1.38313864500926E-17	-4.81839615744326E-18	-0.78411129298023	-0.654155420794703	-0.78411129298023	-0.654155420794703	1.18160817503923E-17	1.43950749314509E-17
51.2	-3.55245513741202E-18	-8.23331256316268E-18	-0.874126618717555	-0.514391398266387	-0.874126618717555	-0.514391398266387	6.06544648635604E-18	1.09200929397922E-17
51.3	-8.13532101318889E-18	-1.28709391613916E-17	-0.951858909028836	-0.367536615425104	-0.951858909028835	-0.367536615425104	2.84896357506043E-18	-7.17019825707434E-18
51.4	2.23622711614879E-17	-7.20092212296212E-18	-1.0171659113277	-0.22661709355284	-1.0171659113277	-0.22661709355284	-1.07145024056034E-17	1.21841516561923E-18
51.5	-6.09260553737677E-18	3.72805708551872E-17	-1.00469054145986	-0.0288527492959904	-1.00469054145986	-0.0288527492959905	4.0419018572446E-18	2.12968110878403E-17
51.6	5.81502483988041E-19	1.67030495375853E-17	-1.02245505196385	0.102561240206498	-1.02245505196385	0.102561240206498	-2.46328117044039E-18	2.01235778438072E-17
51.7	6.0695889639522E-18	-1.87792600143013E-17	-1.00817787627745	0.270137055507729	-1.00817787627745	0.270137055507729	-1.4328686055361E-17	-4.30079137882876E-17
51.8	-9.04695355229573E-19	1.56609270015441E-17	-0.892062980867942	0.420153307757387	-0.892062980867941	0.420153307757386	-6.26169684425118E-18	2.54560452034713E-17
51.9	1.24129356606336E-17	-1.53702152688667E-18	-0.888977551580627	0.566922535628523	-0.888977551580627	0.566922535628523	1.55737077788468E-17	1.68155625757971E-17
52	-7.42766613311504E-18	-2.32719554121023E-17	-0.724055780152118	0.706674307510645	-0.724055780152118	0.706674307510645	-2.54710326959961E-17	-1.17206315021118E-17
52.1	4.35100837333701E-18	-7.03460077769236E-19	-0.612912553285713	0.797243200915697	-0.612912553285713	0.797243200915697	1.49239998168862E-17	-1.21380553647722E-17
52.2	-1.76904718347861E-17	-1.15863773415156E-18	-0.507087602167353	0.891933865905287	-0.507087602167353	0.891933865905287	-3.51574111167396E-17	2.3050945636421E-17
52.3	-3.93624345114424E-19	-2.72855144172498E-17	-0.364004700535752	0.962112052564038	-0.364004700535752	0.962112052564038	-2.66285025953897E-18	-2.19427271661235E-17
52.4	1.16497088490242E-17	7.52214469240213E-18	-0.190350923656635	1.03942288699126	-0.190350923656635	1.03942288699126	-2.61603331629252E-17	2.53011989483688E-17
52.5	-2.11516328337107E-17	1.4516778320208E-17	-0.056246443279118	0.983477674571362	-0.0562464432791178	0.983477674571362	7.14189566520757E-18	4.20841042422272E-18
52.6	-9.32054875667301E-18	2.94215492131582E-17	0.0977703651167913	1.05385865258544	0.0977703651167919	1.05385865258544	2.35688097241166E-17	2.03006271285952E-17
52.7	-1.24859654253807E-17	-6.85150326277657E-19	0.323636165044022	1.01046414428313	0.323636165044022	1.01046414428313	1.3593069125978E-18	8.62726667971524E-18
52.8	-5.20562258125037E-20	-1.66086941670697E-17	0.353370527813897	0.849344734268426	0.353370527813897	0.849344734268427	-3.48574180221908E-17	-2.63611136059724E-17
52.9	1.13208980930175E-17	3.24437669521037E-17	0.659567661493848	0.926929780505287	0.659567661493848	0.926929780505287	3.28856009231485E-18	-3.68812798320499E-17
53	6.13363409174941E-18	7.17406394428869E-18	0.665911432952286	0.720006186414938	0.665911432952286	0.720006186414938	2.23943521585407E-17	1.3257055241664E-17
53.1	1.89994499841589E-17	-2.38323750247618E-17	0.797527623833168	0.674169599693534	0.797527623833168	0.674169599693534	1.41359804216333E-17	-7.1829863021612E-18
53.2	-6.13297472524604E-18	-2.11767230403629E-18	0.946667182175051	0.521610461666096	0.94666718217505	0.521610461666096	2.4169014774498E-17	3.09260909108598E-19
53.3	2.0641574937086E-17	2.75766298344167E-17	0.961225776342679	0.386892931170483	0.961225776342678	0.386892931170483	1.99037375933768E-17	-5.83578782780572E-17
53.4	1.27139998488837E-17	8.0821991912518E-19	0.9897424500456	0.170804805557389	0.9897424500456	0.170804805557389	-2.12437811216196E-18	-4.47045653719167E-18
53.5	-9.10183673020197E-18	1.44958681467721E-17	1.06916436019083	0.108303222262223	1.06916436019083	0.108303222262223	4.02487813935892E-17	-1.68109584793863E-17
53.6	2.21334939426566E-17	1.00297952895389E-18	1.05193929643803	-0.116697688896607	1.05193929643803	-0.116697688896607	1.56899227278249E-17	-5.51617601182031E-18
53.7	2.5402133325802E-17	-1.83431982599287E-17	0.950606941121876	-0.279043945181344	0.950606941121876	-0.279043945181344	1.99240330257573E-17	-1.66938316348799E-18
53.8	1.69144090393746E-17	1.71761774048152E-17	1.05612278199038	-0.377789339177361	1.05612278199038	-0.377789339177361	-2.83813122123424E-17	2.04611868193487E-17
53.9	-1.36219564103604E-18	-6.01528368539432E-18	0.893193112386367	-0.559212751257879	0.893193112386368	-0.55921275125788	6.83175746964976E-18	-5.24880443373994E-18
54	1.98637241408729E-17	4.73094943550846E-17	0.777896024642787	-0.68086619947837	0.777896024642786	-0.680866199478369	1.47005493857895E-17	1.96430987535373E-18
54.1	8.67640548124305E-20	9.18201610751555E-19	0.694009339599572	-0.762680213504699	0.694009339599572	-0.762680213504699	-9.42795020151077E-18	-2.13427262195379E-17
54.2	-3.43836448168389E-18	-1.30916642441236E-17	0.580969425268159	-0.875187745624059	0.580969425268159	-0.875187745624059	-4.22227410885526E-18	1.21647479281501E-17
54.3	1.02672361448628E-17	9.83788040693818E-18	0.389738677243796	-0.97007769078513	0.389738677243796	-0.970077690785131	1.1972225241452E-18	-6.73032923312863E-18
54.4	-1.60870346660128E-17	3.29606050243291E-18	0.328386207698057	-0.95860068895198	0.328386207698057	-0.95860068895198	3.26757444313774E-17	2.76186322712108E-17
54.5	9.6305848583618E-18	-4.29018117169596E-17	0.0949882572159339	-1.09389000528917	0.0949882572159343	-1.09389000528917	-7.77705851224456E-18	-1.62232641808705E-17
54.6	-9.23703929581903E-18	8.17898988971885E-18	-0.0490296945955618	-1.02146684098587	-0.0490296945955619	-1.02146684098587	1.20512878829519E-17	1.15982704116777E-17
54.7	7.11948180472026E-18	-1.54072024842088E-17	-0.183687554519728	-1.06366875820845	-0.183687554519727	-1.06366875820845	-5.82663987463858E-18	-1.93801291127044E-17
54.8	-1.79786884539561E-18	-3.74518189838113E-18	-0.36579658861314	-1.01383148602684	-0.36579658861314	-1.01383148602684	6.43332781174328E-18	7.754622793017E-18
54.9	-1.19751452653944E-17	5.43316506888586E-18	-0.506356077431118	-0.921652432056733	-0.506356077431118	-0.921652432056734	-2.33927691515704E-17	1.04623438362249E-18
55	2.6464717966664E-18	-4.90434354007892E-18	-0.629792153156404	-0.867586585394193	-0.629792153156404	-0.867586585394193	2.11921743700546E-18	-1.29397503729753E-17
55.1	-8.01302928784651E-18	3.9319942856868E-18	-0.769905098326481	-0.756288427806923	-0.769905098326481	-0.756288427806922	-1.62153234825143E-17	-2.74183029399742E-18
55.2	-1.03359184527602E-17	4.55149953383931E-18	-0.848086813096825	-0.635197751370221	-0.848086813096826	-0.635197751370221	-9.44147960212023E-18	-1.14396591772858E-17
55.3	1.90054432355524E-18	7.49892113148874E-18	-0.95291471541829	-0.478212645570092	-0.952914715418291	-0.478212645570092	1.30360949924044E-17	-7.25773897483647E-18
55.4	9.19366664945272E-18	3.25899002585965E-18	-1.01157372614214	-0.375889520680004	-1.01157372614214	-0.375889520680004	1.22400488586922E-17	1.05537790465752E-17
55.5	-1.13104753502302E-17	6.88124213976426E-18	-1.07511854259959	-0.189805065966948	-1.07511854259959	-0.189805065966948	-4.33791158659755E-17	1.63753097608081E-17
55.6	-7.22603453778805E-18	-1.05649001556861E-17	-1.06584303735171	-0.0479506279228414	-1.06584303735171	-0.047950627922841	-4.46533659450279E-18	5.54545121806206E-18
55.7	2.03345237286451E-18	-4.02293918735923E-19	-1.0879179086939	0.106582791398304	-1.0879179086939	0.106582791398305	1.99121693914464E-17	-2.08437123085372E-17
55.8	-2.15370521903233E-18	2.42714722207883E-18	-1.05066592453553	0.281339552462951	-1.05066592453553	0.281339552462951	-1.46998838900291E-17	1.55884306219138E-17
55.9	-1.30823226719322E-17	3.01933831128084E-18	-1.00494495040175	0.421070470721591	-1.00494495040175	0.421070470721591	6.52334840436029E-18	-3.69401469687486E-18
56	3.56119071919205E-18	1.73452133137166E-18	-0.905997543785851	0.566471370469481	-0.90599754378585	0.566471370469481	1.59792842081399E-17	3.3768946062946E-18
56.1	1.29213606577268E-17	-1.10706201137687E-17	-0.848984877699783	0.689429030318186	-0.848984877699784	0.689429030318186	1.7424847863798E-17	7.89373028124437E-18
56.2	-1.04896880739483E-17	-2.45158090021645E-17	-0.741241708744726	0.820504180477004	-0.741241708744727	0.820504180477005	2.10636089524299E-17	-2.34630104386221E-17
56.3	8.97873148151109E-18	1.33352499707902E-17	-0.56156264656204	0.913301379165608	-0.561562646562039	0.913301379165608	-1.43169190775649E-17	-1.06354991147303E-17
56.4	7.49573304871655E-18	-5.83158752795724E-18	-0.484536332577788	0.99086616347463	-0.484536332577788	0.99086616347463	-7.95878216062743E-18	3.51791490291387E-18
56.5	1.40315559623276E-18	-6.15439354300388E-18	-0.315098315172488	1.06969606303059	-0.315098315172488	1.06969606303059	9.82413167248436E-18	1.6606163859768E-17
56.6	-4.111582128674E-19	-2.22047781514636E-18	-0.150870136634661	1.06844891157422	-0.150870136634661	1.06844891157422	3.25014312093727E-17	-1.79605527594925E-17
56.7	-8.35742055589203E-18	6.22905806929384E-18	-0.00164097396746417	1.09623701061499	-0.00164097396746439	1.09623701061499	-2.1096389597381E-18	8.33245585341191E-18
56.8	-1.11793784531658E-17	-2.61665247881232E-17	0.139847240626736	1.10794299726766	0.139847240626736	1.10794299726767	-2.56973976628037E-17	2.12537322483419E-18
56.9	1.45598214853936E-17	1.53227391448064E-17	0.303377704792441	1.05012757441547	0.30337770479244	1.05012757441547	8.99533068701108E-18	-3.22057961654426E-18
57	-4.62268101770867E-18	1.90136675340817E-17	0.472265065928274	0.960347909086681	0.472265065928274	0.960347909086681	1.51287983269191E-17	1.29165374724227E-17
57.1	6.70787333552897E-18	1.7996959245218E-19	0.592934233599789	0.915778175302576	0.592934233599788	0.915778175302575	-5.59555605578461E-18	4.27476130651872E-17
57.2	-3.97873727230212E-17	-1.26343477093913E-17	0.729046014633338	0.848259463627132	0.729046014633338	0.848259463627133	-6.74914279344891E-17	-3.67517773782107E-18
57.3	-2.83744940707387E-18	5.11518115373109E-18	0.871903784164196	0.657236996664059	0.871903784164196	0.657236996664058	-8.7824917751823E-18	3.69354186731986E-17
57.4	3.88807704057717E-18	3.44653348319028E-19	0.889520658311408	0.570194159173975	0.889520658311408	0.570194159173975	9.70318871931727E-18	2.11164204386336E-17
57.5	-6.21631623621118E-18	-7.51380710095304E-18	1.02335353757753	0.447289624992093	1.02335353757753	0.447289624992093	-1.34154580432823E-17	3.01033632052212E-17
57.6	-2.32117056619176E-17	2.636120564393E-17	1.07661377481944	0.270168220456017	1.07661377481944	0.270168220456016	-1.72225994219837E-17	3.44182688908836E-17
57.7	1.10173482382167E-17	4.50765619967516E-19	1.05984366940804	0.11745485662928	1.05984366940804	0.11745485662928	6.40284548213708E-18	7.50144594121042E-18
57.8	8.90868162920974E-18	1.35513510540654E-17	1.10663094383586	-0.0165486735487719	1.10663094383586	-0.0165486735487721	7.8149517172624E-18	1.25211580755704E-17
57.9	-1.65251431172854E-17	-9.88703249866199E-18	1.10878280727508	-0.159762501382894	1.10878280727508	-0.159762501382895	-3.08365855707029E-17	-4.54074582945826E-18
58	4.71067745327518E-18	6.85681074730011E-18	1.02716496765109	-0.372286494114785	1.02716496765109	-0.372286494114784	-5.22711410955177E-18	1.31272168598646E-17
58.1	-3.68742408676084E-18	4.56826426942631E-18	0.958291300527619	-0.458007054852809	0.95829130052762	-0.458007054852809	1.78437871242903E-17	-6.86181673359009E-19
58.2	-1.57634983631394E-18	3.96626785096328E-18	0.917750096521048	-0.622826888787677	0.917750096521047	-0.622826888787677	7.85635592139124E-18	-3.13233587185386E-17
58.3	-1.49448849281769E-17	3.44565111461291E-18	0.799120098997919	-0.758836306798844	0.799120098997919	-0.758836306798844	-2.85112154313459E-17	6.34106301822773E-19
58.4	2.20279091279853E-17	4.56766578842813E-18	0.688703408023752	-0.796020284952424	0.688703408023752	-0.796020284952424	3.25124599594626E-18	-4.35686096935448E-18
58.5	7.66155994586602E-18	6.12289367848269E-18	0.605743373496443	-0.947249685647871	0.605743373496442	-0.94724968564787	5.05218156952449E-18	-4.75080259425794E-18
58.6	-1.98519792714883E-18	-1.11851940157393E-17	0.432122756573028	-1.01198087754821	0.432122756573028	-1.01198087754821	9.57114310482066E-18	3.9221217560149E-18
58.7	1.9626213900948E-17	1.625712508888E-17	0.282620927270719	-1.02880833786247	0.282620927270719	-1.02880833786246	-1.70067978476398E-17	2.52722963141598E-18
58.8	8.29826343668457E-18	4.5661489288285E-18	0.15422126063858	-1.07733711286774	0.15422126063858	-1.07733711286774	3.98970625856762E-18	-6.32610652403003E-18
58.9	8.6205788583458E-18	-1.84187642405804E-18	0.0191401038239707	-1.10999996835504	0.0191401038239707	-1.10999996835504	2.28777913809303E-17	-1.20463460554385E-17
59	-5.98587661219907E-18	-1.14487359413752E-17	-0.174474189918297	-1.07059513466585	-0.174474189918298	-1.07059513466586	3.06633176282252E-19	-1.19413068361087E-17
59.1	5.37320212283566E-18	1.09923286610351E-17	-0.287547429490412	-1.04344831480511	-0.287547429490412	-1.04344831480511	-2.72540200544267E-18	9.31566276350169E-18
59.2	-6.63634494410901E-18	-1.85986764044324E-17	-0.436704938151926	-1.0326009094819	-0.436704938151926	-1.0326009094819	6.49675309908834E-20	-1.51320276973341E-17
59.3	1.81462143540027E-17	-7.00847044317244E-18	-0.597825382649323	-0.9024651837759	-0.597825382649323	-0.902465183775901	9.52458074377999E-18	-4.24435778950228E-18
59.4	-2.47704256794895E-18	1.74580292348785E-17	-0.685181257729393	-0.850382181452863	-0.685181257729393	-0.850382181452863	-3.27638071762302E-18	7.75607024294562E-18
59.5	2.69131729325924E-18	4.77651902457982E-18	-0.826640861138192	-0.736959053625294	-0.826640861138192	-0.736959053625294	6.18873226738291E-18	-2.05075536958197E-18
59.6	7.03453865917775E-18	-1.46596530919851E-17	-0.905112603124663	-0.597041613172832	-0.905112603124662	-0.597041613172832	-2.64182994378127E-19	-1.09798267000573E-17
59.7	-6.44524740873614E-18	-5.81378791910662E-18	-0.993739195192343	-0.491902539226696	-0.993739195192342	-0.491902539226695	-1.15758091138348E-17	-7.26569442008989E-18
59.8	-6.23782142648524E-18	-9.8033124440144E-18	-1.06149636792676	-0.342139099571616	-1.06149636792676	-0.342139099571616	-6.30705672010933E-18	-7.85961386819054E-18
59.9	-2.3157787142151E-17	1.83129200495769E-17	-1.08757194125219	-0.205567741323623	-1.08757194125219	-0.205567741323624	-8.30201919709485E-18	-2.11337951367929E-18
60	-4.81422669962293E-18	1.13240780834874E-17	-1.10053974624626	-0.0292875131957246	-1.10053974624626	-0.0292875131957246	1.32824701480696E-17	-1.21890106108658E-17
60.1	1.19915801936836E-17	1.84259576510517E-18	-1.08791825591109	0.107126687379338	-1.08791825591109	0.107126687379338	2.26184893678753E-17	-3.17703412700753E-18
60.2	-1.43614690555935E-17	2.34499994819492E-17	-1.09457442015505	0.240912203403201	-1.09457442015505	0.2409122034032	3.97166180657338E-19	1.90235156091592E-17
60.3	1.05693759776521E-17	1.95420075545025E-17	-1.0228710459862	0.424797758471144	-1.0228710459862	0.424797758471144	1.76603946128873E-17	-1.09420738628726E-17
60.4	2.73863326791215E-17	-1.40710751647843E-18	-0.957729165995976	0.512294755981634	-0.957729165995977	0.512294755981633	9.93111034709614E-18	3.55166784609072E-18
60.5	-1.4869090078119E-17	-1.09639126296745E-17	-0.890738480316314	0.673078349558636	-0.890738480316315	0.673078349558636	-8.39575814045468E-19	-2.48600657111047E-18
60.6	1.06317089248843E-17	3.79840973302368E-18	-0.786288170901095	0.781222375653417	-0.786288170901095	0.781222375653416	-6.44170113620087E-18	7.41774580527513E-18
60.7	-6.42039297052732E-18	-1.48218684844849E-17	-0.66895853839365	0.884941960207543	-0.66895853839365	0.884941960207543	-1.60914029862973E-18	-1.76277497304679E-18
60.8	-1.35758191107784E-17	7.3960293968049E-18	-0.54529115375974	0.975565402221005	-0.54529115375974	0.975565402221005	-1.7601063526599E-17	-3.80131714858552E-18
60.9	-1.34541193124823E-18	2.24093141698408E-19	-0.417200958908387	1.04113509235881	-0.417200958908386	1.04113509235881	1.97474950633087E-18	-1.47093821384164E-17
61	1.88984538573578E-17	8.27299631213486E-18	-0.257732538740014	1.08796576636581	-0.257732538740014	1.08796576636581	3.86483725446444E-18	9.21929129387134E-18
61.1	3.26152382766205E-18	5.2263353538615E-18	-0.108587217301884	1.09780588268372	-0.108587217301883	1.09780588268372	1.65717895767864E-18	5.17492125974969E-18
61.2	1.68211189679433E-18	-1.01662242525717E-17	0.0257179982274112	1.11295724750733	0.0257179982274106	1.11295724750733	9.89394424707242E-18	-1.87512087274581E-17
61.3	7.91430246825385E-18	8.26294746734297E-19	0.185034492416093	1.11681031980223	0.185034492416093	1.11681031980223	-2.13285524079593E-17	-1.60717051405508E-17
61.4	7.29122458154393E-18	1.3412490123258E-17	0.361752950019599	1.05333865011534	0.361752950019599	1.05333865011534	1.25069179631912E-17	7.30555398879465E-18
61.5	-1.78573140919616E-17	1.77816353799958E-17	0.451065321713509	1.00238661242711	0.451065321713509	1.00238661242711	1.1442825478652E-17	-1.06197773200967E-18
61.6	4.05737694867192E-18	2.42833168245519E-17	0.622150352553677	0.961779518575495	0.622150352553677	0.961779518575494	-1.64509195101123E-17	-3.65161766066382E-18
61.7	2.49401507659476E-17	-2.51823069346768E-18	0.749670553288954	0.847923746861413	0.749670553288954	0.847923746861413	1.06185573034607E-17	4.66958781274863E-18
61.8	3.32081876273151E-18	-7.70002484389329E-18	0.833428873694077	0.733198655866171	0.833428873694077	0.733198655866171	5.19351520940136E-18	6.87546490675165E-18
61.9	-2.70728767312654E-19	2.89889303435325E-17	0.933719205995584	0.610496399856716	0.933719205995584	0.610496399856716	5.94786213697688E-18	-5.2553663432043E-18
62	1.42962669323787E-17	7.94900106954293E-18	1.01097659158233	0.50446633130232	1.01097659158233	0.504466331302321	2.71335967058499E-17	3.83143908410914E-18
62.1	9.9566373898303E-18	1.13697969334291E-17	1.0874978499525	0.351215003960489	1.0874978499525	0.351215003960489	1.65435253115744E-17	-7.44773417316813E-18
