# GHZ S RI R 50
50	1.6788994836954E-17	2.56963323108141E-17	0.789483652563108	-0.55935011865215	0.789483652563109	-0.559350118652151	-1.61753956683909E-17	1.06678068179246E-17
50.1	-2.41790708272758E-17	1.6345552228781E-17	0.66448425829435	-0.668782684256749	0.664484258294351	-0.668782684256749	3.7352177577579E-18	-1.85265361297019E-17
50.2	1.16620312092666E-17	-6.9775110211709E-18	0.55906617655185	-0.764594670692869	0.55906617655185	-0.764594670692869	7.58394601572985E-18	3.30293613873051E-18
50.3	-7.00445309538419E-18	-4.80990255699748E-18	0.434957518822535	-0.874069617283125	0.434957518822535	-0.874069617283125	3.31329687536534E-18	1.6409147571445E-18
50.4	6.26721895483838E-18	4.12229199393962E-18	0.244246375660657	-0.896727204731656	0.244246375660658	-0.896727204731656	1.13982973951054E-18	-1.93715717342704E-18
50.5	1.40043093721232E-17	3.06459790260578E-17	0.130700812410959	-0.954325283161757	0.130700812410958	-0.954325283161756	-2.34343886839919E-17	1.42500005004027E-19
50.6	-1.50450745377472E-17	7.76372607975896E-18	-0.0456193457855447	-0.95082674478636	-0.0456193457855446	-0.95082674478636	-3.00982114596565E-19	-3.12940775338807E-18
50.7	-1.07407385601826E-18	5.48802377584844E-18	-0.185412288572206	-0.927201086288524	-0.185412288572206	-0.927201086288523	-1.0379599399109E-17	-7.16438555145612E-19
50.8	-1.5658033705916E-17	-2.38404865752568E-18	-0.354824045591544	-0.908132868102145	-0.354824045591544	-0.908132868102144	4.28995976415334E-18	-5.07792007566756E-18
50.9	1.0238872410955E-17	1.93664771119201E-17	-0.478824096264388	-0.80395173624745	-0.478824096264389	-0.80395173624745	1.20201181367374E-17	6.51144574278182E-18
51	6.28428917756612E-18	1.46818456063936E-18	-0.622035986085971	-0.735737430934818	-0.62203598608597	-0.735737430934818	-1.58781029418984E-18	-2.67807996772974E-19
51.1	-2.38338193732521E-18	5.2123863088975E-18	-0.728546221662937	-0.620944747343536	-0.728546221662938	-0.620944747343536	4.65043126443092E-18	8.91340639972451E-18
51.2	-4.40800388298969E-18	6.75256282331874E-18	-0.813726314965618	-0.490780981339156	-0.813726314965618	-0.490780981339157	2.84718756704417E-18	2.04031419117135E-18
51.3	-2.77318590960336E-18	1.19364418865518E-18	-0.887989492584671	-0.354390756343633	-0.887989492584672	-0.354390756343633	2.3000092481926E-18	2.18363707603559E-18
51.4	-1.6480528022556E-17	1.94655858817134E-18	-0.951003539180463	-0.224434591588945	-0.951003539180464	-0.224434591588945	4.99987570967597E-18	6.47454619661994E-19
51.5	1.38686469554523E-18	-1.25991655262656E-17	-0.940145257700519	-0.0373155038710145	-0.940145257700518	-0.0373155038710149	1.06029679952203E-18	-2.30237562959559E-17
51.6	2.46391816261737E-17	9.14106420404305E-18	-0.958744194085586	0.0833165025690643	-0.958744194085586	0.0833165025690643	1.8396555433219E-17	-3.22171404970312E-18
51.7	-2.05757548586747E-17	-4.90403134696359E-18	-0.948107929158203	0.240034838268072	-0.948107929158203	0.240034838268072	-2.67934323948355E-18	8.99592753499523E-18
51.8	7.75386806486854E-18	-1.06545718776558E-18	-0.838351481075928	0.38214649809871	-0.838351481075928	0.38214649809871	1.27289425918519E-17	-4.54563757042449E-18
51.9	-6.46746355506219E-18	1.28508665613302E-17	-0.8409211003745	0.518200690003615	-0.8409211003745	0.518200690003614	-1.97729402215086E-17	3.55239216372779E-17
52	4.81037510449742E-18	-2.87008870543028E-18	-0.685707101063709	0.65221637216546	-0.685707101063709	0.652216372165459	9.50710813135416E-19	-3.45232223718783E-18
52.1	3.24662674329073E-18	4.13989426931846E-19	-0.583202366337567	0.736996893529101	-0.583202366337567	0.736996893529102	1.87867087797154E-17	1.2881378430365E-17
52.2	-6.69620494281664E-18	-6.32926125141314E-18	-0.48714886201671	0.826413317233684	-0.48714886201671	0.826413317233684	-2.92879105634877E-17	1.30170996691375E-17
52.3	5.21927817434004E-18	3.81756355762093E-18	-0.354839097365015	0.893757790896332	-0.354839097365015	0.893757790896333	1.65714976840432E-17	-1.52416455102795E-17
52.4	-3.17327886388644E-18	-1.00529765599534E-17	-0.193688791987321	0.9700970098737	-0.19368879198732	0.9700970098737	-8.05421418949535E-19	-3.34292700723932E-17
52.5	-9.53433926518151E-19	-1.34510982917583E-17	-0.0678441535594962	0.915723738984702	-0.0678441535594962	0.915723738984701	-1.76377012614858E-17	9.20235077808825E-18
52.6	-1.76340363970653E-18	-3.49499528007091E-17	0.0730017574260781	0.986947259489587	0.0730017574260778	0.986947259489586	-2.65264756970573E-17	-1.66662844516343E-17
52.7	2.84700593092059E-17	-6.63156186491934E-18	0.287588074862679	0.950492577967245	0.287588074862679	0.950492577967245	-2.46647956963827E-17	-1.8513303930543E-17
52.8	-1.82017308163381E-17	-1.75772540118372E-17	0.313750605993744	0.793707706723761	0.313750605993744	0.793707706723761	-8.70510583701957E-18	2.02781682653625E-17
52.9	-3.40910332540029E-17	-5.14460817301513E-17	0.60277282781662	0.881180730580484	0.60277282781662	0.881180730580484	-6.57280104955395E-17	3.80834990202418E-17
53	3.91167870158527E-17	1.51729986893177E-18	0.608177292935542	0.680899282362715	0.608177292935542	0.680899282362715	1.74309004536562E-17	2.59826290679232E-17
53.1	-1.70616398807372E-18	6.49594222405734E-17	0.731094121472082	0.644074280894288	0.731094121472082	0.644074280894288	-1.73250908398279E-17	-3.18299210973686E-17
53.2	-1.29104427393873E-18	4.84252130704096E-18	0.875570651677447	0.504779343383086	0.875570651677448	0.504779343383086	-1.95716727359954E-17	-1.97622074461199E-18
53.3	1.3355110285385E-17	4.57307587082282E-18	0.888493621525865	0.378991825519576	0.888493621525866	0.378991825519576	-3.84102853519083E-19	1.83082681078176E-17
53.4	9.62233793310111E-18	8.70308804861247E-18	0.919083787404564	0.175094035065773	0.919083787404563	0.175094035065773	-3.94097693699295E-18	1.70767882249452E-18
53.5	2.90267021597256E-18	1.69212707141173E-17	0.99471940883711	0.124152063690716	0.99471940883711	0.124152063690716	-1.09725963412644E-17	2.55418115469135E-17
53.6	3.23700894572519E-17	-1.1048238387585E-17	0.983395560850028	-0.0887564626384586	0.983395560850029	-0.0887564626384585	1.34644316049736E-17	7.86380814226686E-18
53.7	-1.10493649765335E-17	-2.08359917227277E-17	0.888599453720337	-0.243267219370303	0.888599453720337	-0.243267219370303	-1.57427514169396E-17	-1.72025232478651E-17
53.8	-1.32552093806427E-17	4.4554684727573E-18	0.994694493191932	-0.32701880990567	0.994694493191932	-0.32701880990567	-3.54233465944112E-18	1.44255872462143E-17
53.9	-1.02339505804743E-17	-7.43751359263623E-18	0.843349589332639	-0.502606595645123	0.843349589332639	-0.502606595645122	1.87262341573302E-17	-6.50309239938545E-18
54	-7.83322687557681E-18	-1.79927565579587E-18	0.737344539385505	-0.617895455679173	0.737344539385505	-0.617895455679173	6.2185072159064E-18	1.08882225456927E-17
54.1	7.16184849897053E-18	-3.35069232675634E-19	0.661638222050077	-0.69331688728749	0.661638222050077	-0.69331688728749	2.73815768946631E-17	-2.83961490379245E-17
54.2	9.16316290244022E-18	-2.80128731899592E-17	0.560000616038408	-0.800418083343126	0.560000616038408	-0.800418083343126	-8.84718140310497E-18	-7.3449509902958E-18
54.3	-1.14992580977478E-17	-4.9057638486228E-18	0.382459789841538	-0.894447761917542	0.382459789841538	-0.894447761917541	-1.29240230041511E-18	5.77601358417769E-18
54.4	-2.62318422070112E-18	-6.31753397240019E-18	0.327970688509547	-0.879874059751632	0.327970688509547	-0.879874059751632	3.22784544964703E-17	-1.85874685724662E-17
54.5	-1.97721676339782E-17	2.16155417569923E-17	0.113230474894902	-1.01709179304534	0.113230474894902	-1.01709179304534	3.69410539869102E-17	3.44015125655777E-17
54.6	-4.37850261405769E-18	6.46942946627085E-18	-0.0230194409694456	-0.948743185641973	-0.023019440969446	-0.948743185641972	-6.24211611316103E-18	3.03084470813083E-19
54.7	3.6107446055521E-18	-4.71631538771667E-18	-0.144298931343307	-0.993047939280257	-0.144298931343306	-0.993047939280257	1.56731586413297E-17	1.90350045535982E-17
54.8	1.18259994989604E-17	8.56639640183137E-18	-0.315730980863405	-0.951129967483075	-0.315730980863405	-0.951129967483076	-5.2526833425053E-18	1.04404347303742E-17
54.9	-3.15562199826095E-18	1.24104506857827E-17	-0.448448875613371	-0.867298988653251	-0.448448875613371	-0.867298988653251	-2.1873933965853E-17	1.08501969068723E-17
55	5.16733035591394E-19	3.42592518955272E-18	-0.562626490235036	-0.821197087538977	-0.562626490235036	-0.821197087538976	-4.03462780362845E-18	1.04193633876938E-17
55.1	-5.89464274452935E-18	-5.88145586947387E-18	-0.696037622514257	-0.721485113027154	-0.696037622514257	-0.721485113027154	-3.29685227366449E-18	-5.35202002375035E-18
55.2	1.29488212577061E-17	-2.36742541784925E-17	-0.769944261445811	-0.610488410526072	-0.769944261445811	-0.610488410526073	1.23860097048007E-17	-1.32213115065173E-17
55.3	6.00696856343021E-18	-3.23485009775092E-18	-0.872218280481969	-0.467101203647788	-0.872218280481969	-0.467101203647787	1.20164263486498E-17	-1.10619221636307E-17
55.4	6.12242258142132E-18	-1.32264209300505E-18	-0.927461098096395	-0.37584435485281	-0.927461098096396	-0.37584435485281	-1.20365590858207E-17	-2.37717399079977E-17
55.5	-6.42677568551148E-18	-7.61057984077926E-18	-0.992708133595205	-0.204274228963805	-0.992708133595205	-0.204274228963805	-2.46583648410769E-17	3.22194615452211E-18
55.6	9.78357497901742E-19	1.21402018916213E-17	-0.985751919267513	-0.0729245486153175	-0.985751919267512	-0.0729245486153175	-1.03079075948676E-17	1.79999576767416E-19
55.7	-8.82841311063337E-19	1.19933654652381E-19	-1.01119799447194	0.0683714219820176	-1.01119799447194	0.0683714219820175	1.21849352806274E-18	1.06240791464231E-17
55.8	3.54985070820288E-18	1.18084677406251E-18	-0.981236608588018	0.231958628892689	-0.981236608588018	0.231958628892688	5.52280225565064E-18	3.15136152617181E-18
55.9	-2.68255560811146E-18	-3.20599708373887E-17	-0.942505075222285	0.361488814191163	-0.942505075222285	0.361488814191163	3.92667993595226E-19	4.40168463154463E-18
56	1.26614458130075E-17	5.17485820567809E-18	-0.853651914040321	0.499280336843719	-0.853651914040321	0.49928033684372	7.48527389424445E-18	-1.33084673028529E-17
56.1	6.56517569017606E-18	-3.71643213013044E-18	-0.805834352426307	0.612919946588802	-0.805834352426307	0.612919946588802	-2.22768169439974E-17	-6.17227771343217E-18
56.2	7.22773465260007E-18	-7.55161334630199E-18	-0.71049497621407	0.737498972123173	-0.71049497621407	0.737498972123173	2.067578946423E-17	1.74333957754179E-17
56.3	-9.10914630281802E-18	5.8108446438591E-18	-0.544306635124225	0.829322438570328	-0.544306635124225	0.829322438570328	-1.24326023732242E-17	-2.43788957719125E-17
56.4	-1.52539251233216E-19	-4.25622028146465E-18	-0.478536273968262	0.901094598825824	-0.478536273968262	0.901094598825825	2.29833303867041E-18	-3.20689660012043E-17
56.5	-6.56752529187098E-18	1.81523075642236E-17	-0.324077018015581	0.980221804222702	-0.324077018015581	0.980221804222701	-1.83413324538651E-17	6.81328275254535E-17
56.6	-1.22908923447536E-18	5.96945042694089E-18	-0.171084476950315	0.982065230812021	-0.171084476950315	0.982065230812022	-2.0556259436815E-17	1.64262891302918E-17
56.7	8.36394838131352E-18	-4.76954049934565E-18	-0.0353204601552736	1.01242781744105	-0.0353204601552735	1.01242781744105	1.37112978503946E-17	8.09630290703837E-18
56.8	3.96761242282836E-18	1.15403300245948E-18	0.0930695341497391	1.02790175677825	0.0930695341497395	1.02790175677825	9.12500939100611E-18	-9.17988465908878E-18
56.9	-1.73290687023297E-18	-5.08391342357747E-18	0.246524737860563	0.978400067421103	0.246524737860563	0.978400067421103	-5.14684696229809E-18	1.27968106068114E-17
57	7.56413180982169E-18	-3.47923529759516E-18	0.406760713714696	0.899550725524454	0.406760713714696	0.899550725524454	1.82783025704434E-17	4.81967477096763E-18
57.1	-6.71843103757025E-18	1.38614321008313E-18	0.517168930568242	0.86323560294212	0.517168930568242	0.863235602942121	-6.59027366279441E-18	-1.74718519131042E-17
57.2	7.82796206985998E-18	-1.06342116148247E-18	0.643999610515424	0.807010717771516	0.643999610515423	0.807010717771516	2.63880618955319E-17	1.73837816696846E-17
57.3	6.57962208794327E-18	-1.94904132074104E-17	0.78537947252151	0.632477818618847	0.78537947252151	0.632477818618847	-7.85015010303718E-18	-2.35634317417437E-17
57.4	-2.28300209462823E-18	1.13565230954945E-17	0.79887781445646	0.552769997697855	0.79887781445646	0.552769997697855	-1.38782839785746E-17	9.60080861868484E-18
57.5	6.17233202167171E-18	9.20812958872268E-18	0.928310209348398	0.44678433443362	0.928310209348398	0.44678433443362	1.26508642206444E-17	1.09192055462533E-18
57.6	4.44812900902764E-18	-3.64567354377424E-18	0.983693065948037	0.284180496157875	0.983693065948037	0.284180496157875	-3.04383194483419E-18	-1.05184809236291E-17
57.7	-9.02695550191805E-18	2.52602378615114E-18	0.970402243565934	0.141932808929788	0.970402243565935	0.141932808929788	-8.07950966414165E-19	-8.94875428137484E-18
57.8	-6.26792542433226E-18	-2.10241663172271E-17	1.01889819185273	0.0229275120319079	1.01889819185273	0.0229275120319077	9.24313416792219E-18	-4.99474690449163E-18
57.9	1.08855837920444E-17	4.65663516746453E-18	1.02584587779306	-0.107125697957344	1.02584587779306	-0.107125697957344	5.04106499088964E-18	6.00862521927427E-18
58	9.29547905477039E-19	6.91031774247443E-18	0.957318038967974	-0.309572508604138	0.957318038967974	-0.309572508604138	1.58882756318232E-17	3.69930234873092E-17
58.1	-2.21267321437022E-17	-1.73541385184199E-17	0.89427995018566	-0.387454989186667	0.89427995018566	-0.387454989186666	1.72755962053633E-18	-9.6731336160336E-18
58.2	-6.59479963571752E-18	-1.52870821800714E-17	0.865553291007626	-0.540191155286613	0.865553291007626	-0.540191155286612	-1.90607242792094E-17	-9.32269570579745E-18
58.3	-2.43454916203455E-18	1.48831569772919E-18	0.760499851491624	-0.670222388664838	0.760499851491623	-0.670222388664838	-9.70205957377015E-18	-1.56035206678454E-17
58.4	2.6679462563457E-17	-1.14784410248688E-17	0.65823068193426	-0.70388111828309	0.65823068193426	-0.70388111828309	2.01523442863754E-17	1.15652043486755E-17
58.5	8.82170152801626E-18	-1.90067926720278E-17	0.591909206493317	-0.846943380739697	0.591909206493317	-0.846943380739696	9.41314311302008E-18	-3.89458743330582E-17
58.6	3.49342729758224E-18	-9.71616106741902E-18	0.432884942899646	-0.912892866543385	0.432884942899647	-0.912892866543384	-1.12060363071613E-18	-1.37104763794612E-18
58.7	-1.37259332063944E-17	6.53721900407073E-18	0.295258745796958	-0.931470252253328	0.295258745796957	-0.931470252253328	-6.95652955883712E-18	1.13081377063163E-17
58.8	-4.50927128084719E-18	9.35308794145747E-18	0.181494928268683	-0.980414091962379	0.181494928268683	-0.980414091962378	9.09838581915368E-18	-2.05278932835615E-18
58.9	-4.64270943173891E-18	8.48238226519052E-18	0.0611544985535841	-1.01556741675375	0.0611544985535839	-1.01556741675375	-5.83781465475312E-18	-1.15579004017185E-17
59	1.83930059947509E-17	-7.6460214713863E-18	-0.120395184205535	-0.986214220795871	-0.120395184205535	-0.986214220795872	4.04506467829541E-18	2.08474615087465E-18
59.1	4.02502807573405E-18	-2.08538550523365E-17	-0.22217065880439	-0.964419125711841	-0.22217065880439	-0.964419125711841	1.19220070064694E-17	-3.08371981912769E-17
59.2	1.50148924422573E-18	5.94729510333029E-18	-0.357344080710877	-0.962560871821545	-0.357344080710878	-0.962560871821545	-7.19853614018506E-18	-3.45459000854951E-18
59.3	7.11532367000192E-18	-5.33517693663022E-18	-0.512670085129344	-0.847254427680675	-0.512670085129343	-0.847254427680675	-5.61508505856347E-18	5.2207592810476E-18
59.4	-6.77741265070017E-18	8.73060252287506E-18	-0.590592688907517	-0.803942136030377	-0.590592688907517	-0.803942136030377	-9.47733916722703E-18	4.26666381085372E-18
59.5	-1.61579129943706E-17	-4.90883196213577E-18	-0.72582336919116	-0.706621801602614	-0.72582336919116	-0.706621801602614	-7.26081783682931E-18	-5.14740148012964E-18
59.6	-9.04674605059813E-18	1.05915878753884E-17	-0.802288514169402	-0.58039566719324	-0.802288514169403	-0.58039566719324	-2.20430684804378E-18	1.50531451145932E-17
59.7	4.52370387554726E-18	-2.84087377784808E-18	-0.886657628159832	-0.490181263597011	-0.886657628159832	-0.49018126359701	3.59482442377262E-18	4.05022491257258E-18
59.8	1.18086808217756E-18	-1.36167800705366E-18	-0.954976988405139	-0.356408641929697	-0.954976988405139	-0.356408641929697	1.47608510272195E-18	-1.70209750881707E-18
59.9	-2.10471801678057E-17	6.37175406157921E-18	-0.982823462365246	-0.233507289175668	-0.982823462365246	-0.233507289175668	3.18775198234098E-18	-7.3138050989929E-18
60	-2.19498401508892E-17	1.71759174531667E-17	-1.0022012721747	-0.0720987056379906	-1.0022012721747	-0.0720987056379906	6.56811712852903E-18	-2.58927676452527E-18
60.1	1.6049162133707E-18	1.5414741441199E-17	-0.994987981212963	0.0516573078275212	-0.994987981212963	0.0516573078275211	-2.52806712700903E-17	-1.69617427879138E-18
60.2	1.10440845093808E-17	-9.60746570376328E-18	-1.00773316497957	0.170619331264274	-1.00773316497957	0.170619331264274	2.172695555065E-17	-3.73607370325971E-18
60.3	1.94931799522786E-17	-1.13268350808518E-19	-0.949867468709145	0.343897689340366	-0.949867468709144	0.343897689340365	-1.98338941686805E-18	2.18164880670692E-17
60.4	-1.69888600486253E-17	1.3944479970586E-18	-0.892372235792443	0.422750893410442	-0.892372235792443	0.422750893410442	-9.87991187914398E-18	9.39944072166249E-18
60.5	1.7779797484434E-17	-8.44164451702059E-18	-0.840541136147452	0.572843421658165	-0.840541136147452	0.572843421658165	6.32429940793259E-18	-1.3720177675292E-18
60.6	-1.2428946950626E-17	-8.40967221065236E-18	-0.749769343106192	0.674970070562163	-0.749769343106191	0.674970070562163	-3.41914470665625E-18	-1.24763187599903E-18
60.7	-2.27400263919229E-18	-7.67370901591713E-18	-0.647743595662035	0.774229904902428	-0.647743595662036	0.774229904902429	-5.59787118057E-18	-6.17972556799396E-18
60.8	9.10245452448315E-18	-5.90739918235463E-18	-0.540053702686764	0.861890468602953	-0.540053702686764	0.861890468602952	1.12053770795593E-17	2.54614249930482E-18
60.9	-3.65626926339525E-18	8.23534229470833E-18	-0.427483506909287	0.926387781761567	-0.427483506909287	0.926387781761567	3.41959979473842E-19	1.98806746683463E-17
61	-4.81063351854258E-18	3.09514164387222E-17	-0.284226758348794	0.976282373592432	-0.284226758348794	0.976282373592431	2.4901298799785E-17	2.43447996378558E-17
61.1	-3.51853674856343E-18	-3.3608134225881E-18	-0.149119382747856	0.990591936615614	-0.149119382747855	0.990591936615614	6.21928272098659E-19	6.11158101950659E-18
61.2	3.15266267383456E-17	-7.89496873164328E-18	-0.0298766159675864	1.01016267473761	-0.0298766159675861	1.01016267473761	9.11055503293156E-18	-1.89835543276042E-17
61.3	2.51315330883166E-17	1.55042064391812E-17	0.113760967151021	1.02233260943396	0.113760967151021	1.02233260943396	2.08095177114333E-17	9.89272571893423E-18
61.4	7.37403051174792E-18	-9.85574386094081E-18	0.279372191871924	0.972169492906079	0.279372191871924	0.97216949290608	2.10192337050391E-18	8.36998111451287E-18
61.5	-2.2540735484587E-17	7.39168794100262E-19	0.358644354131955	0.928417407168101	0.358644354131955	0.928417407168101	-3.61008598621175E-18	-3.97540675065344E-18
61.6	-6.18373791129159E-18	-8.00302417341027E-18	0.516262346841541	0.903385581823976	0.516262346841541	0.903385581823976	7.65323265789378E-19	-4.9986030966436E-18
61.7	-2.09361984438785E-19	8.91050792743706E-19	0.637930218956573	0.80519121850938	0.637930218956573	0.80519121850938	9.38031003354546E-18	-3.90757229288502E-18
61.8	-1.91319202395041E-17	8.14096410534389E-18	0.717479042154446	0.704068489122769	0.717479042154446	0.704068489122769	-1.4062188629137E-17	-1.92619540894768E-18
61.9	-9.01448055969603E-19	1.48989842903343E-17	0.814321189125472	0.598265306759456	0.814321189125472	0.598265306759456	1.90356399313456E-18	2.23727309789926E-17
62	2.81309071239631E-18	-9.55247467343567E-18	0.888080326211276	0.508211896175999	0.888080326211276	0.508211896175999	2.54085476028721E-17	1.45613815242084E-17
