# GHZ S RI R 50
50	-6.35746523895582E-18	1.71703972114133E-17	0.780197097602973	-0.555769103131729	0.780197097602973	-0.555769103131729	-7.01076587366436E-18	9.44547454272769E-19
50.1	-1.08248534080257E-18	4.54390063188698E-18	0.656158691749237	-0.663489174972589	0.656158691749237	-0.66348917497259	1.19912099583594E-17	-8.44165940590912E-18
50.2	-4.23861395380018E-19	-6.27472963511605E-18	0.551823866782471	-0.758138434531469	0.551823866782471	-0.758138434531469	1.47491564152447E-17	-3.96260138787171E-18
50.3	3.50770947944314E-18	7.26636455480146E-18	0.42864971245945	-0.866550536162985	0.42864971245945	-0.866550536162984	-3.63694711903403E-19	4.86737106032677E-18
50.4	9.53433892364834E-18	2.58229061477594E-18	0.239772428607762	-0.887928432179892	0.239772428607762	-0.887928432179891	-1.75854281469318E-17	2.49250489690161E-18
50.5	7.45928928573119E-18	8.59451492981974E-18	0.127423133723128	-0.9452495937045	0.127423133723129	-0.9452495937045	2.2827056375096E-18	6.26824974115203E-19
50.6	1.6784514154721E-17	-2.46025386679075E-18	-0.0471554948073692	-0.941201191523281	-0.0471554948073688	-0.941201191523281	2.91174457577991E-18	-1.84083178185568E-18
50.7	-3.09735516894288E-18	4.79301064892154E-19	-0.185301946264719	-0.91764272214972	-0.185301946264719	-0.91764272214972	5.01481400176541E-18	-3.7609832146971E-18
50.8	-1.46751428030095E-17	1.03390904502321E-17	-0.353305157137365	-0.898502637639802	-0.353305157137365	-0.898502637639802	-2.35132515306593E-17	1.74566563449226E-17
50.9	2.40900408769729E-17	-3.95725108534399E-18	-0.4754212827505	-0.79500032318186	-0.4754212827505	-0.79500032318186	3.40089242022153E-18	-2.52067864090221E-17
51	1.5699887164321E-17	3.09824900416843E-17	-0.61735795243488	-0.727267767977103	-0.61735795243488	-0.727267767977103	1.99940940157804E-17	4.89054530200884E-18
51.1	2.73629766456721E-17	-6.47158669023497E-18	-0.722504750385112	-0.613444843075493	-0.722504750385111	-0.613444843075493	8.00714361806189E-19	-1.43449483466256E-17
51.2	-1.34730551654848E-18	1.46312665171148E-17	-0.806510410046481	-0.484469112436228	-0.806510410046481	-0.484469112436227	1.73606532502539E-19	6.86487759246548E-18
51.3	-1.56232229486487E-18	7.60674172836097E-18	-0.879843844290874	-0.349312693426724	-0.879843844290874	-0.349312693426724	2.5683730065161E-18	-6.12434616791445E-18
51.4	1.48709832299442E-17	-6.23183604020033E-18	-0.942275813898539	-0.2205664263452	-0.942275813898539	-0.220566426345199	-6.71613344449411E-18	1.20598521182012E-18
51.5	-3.81530012360521E-18	5.58559712050212E-19	-0.930693226659204	-0.0353587607766775	-0.930693226659204	-0.0353587607766774	-1.27046681048031E-17	-1.15305757062945E-17
51.6	2.00768411671855E-17	2.84299763777891E-17	-0.949351711793823	0.0840122367543294	-0.949351711793823	0.0840122367543295	1.70632896430006E-17	-3.0438456217955E-18
51.7	8.89778303652889E-18	1.46156802246589E-17	-0.938658994379461	0.239313945271807	-0.938658994379461	0.239313945271807	1.43066288826704E-17	-2.23986455386833E-18
51.8	2.00152509561021E-18	1.69892004456821E-17	-0.829382085127593	0.37933007069091	-0.829382085127593	0.37933007069091	1.33026124028339E-17	5.64975226790918E-20
51.9	-5.84962916969023E-18	5.60135946689636E-19	-0.832260621907951	0.514660431150973	-0.832260621907951	0.514660431150973	3.12094553243887E-17	1.92979987484791E-17
52	-2.86303936669163E-19	6.08362789381322E-18	-0.677854807704317	0.646704255937691	-0.677854807704318	0.646704255937692	-2.55959556060998E-17	-6.73007950961217E-18
52.1	1.12409801491379E-17	5.0360196476777E-18	-0.576484445042823	0.730426999325998	-0.576484445042824	0.730426999325998	3.22273608301891E-17	-7.31294259457719E-18
52.2	-1.06497797630397E-17	-3.03199172415909E-18	-0.481443726921262	0.819099288590794	-0.481443726921261	0.819099288590794	-8.0034946999541E-18	2.10352054684275E-17
52.3	-1.74546623392522E-17	2.50656293291371E-18	-0.350373786326929	0.885662376159565	-0.350373786326929	0.885662376159566	-2.01094511240795E-18	6.74425053680171E-18
52.4	6.25798651842723E-18	3.72558500312389E-17	-0.190341209300868	0.96114793579783	-0.190341209300868	0.96114793579783	7.34592153474947E-17	1.40704689391162E-17
52.5	2.60176385453812E-17	1.03656309886468E-17	-0.0665819009165191	0.906868722612154	-0.0665819009165191	0.906868722612153	-5.95246848893552E-18	-2.84267600569769E-17
52.6	-3.47138546734261E-18	-6.22256513536707E-18	0.0735193021023212	0.977796723302261	0.073519302102321	0.977796723302262	4.80599304917505E-17	5.00859647809708E-17
52.7	2.31947211887085E-18	-2.56596921383968E-18	0.286323441467156	0.940860593249133	0.286323441467156	0.940860593249133	-1.48343510550687E-17	2.00518770302877E-17
52.8	1.67182290776573E-17	-2.07532939827166E-18	0.310397731230662	0.785905618058868	0.310397731230662	0.785905618058868	-2.11587102705739E-17	-2.26078222524402E-17
52.9	-7.81759348542173E-18	-4.45985102237154E-17	0.599019048045117	0.871928359281048	0.599019048045117	0.871928359281047	-1.89596597494261E-17	-1.56049418031457E-17
53	-1.42311607017653E-17	-1.30046875324223E-17	0.602518695498459	0.673812431663347	0.602518695498459	0.673812431663347	1.75141731895153E-17	-3.5638984405814E-18
53.1	-7.70463201686537E-18	-9.19463447762107E-18	0.724915964181384	0.637504197238669	0.724915964181384	0.637504197238669	-8.58720363842793E-18	9.25634398969374E-18
53.2	-1.0257653793397E-17	-1.41485995062786E-17	0.868076878861461	0.498850841001238	0.868076878861461	0.498850841001238	-2.52222676723798E-17	1.61613348509699E-18
53.3	2.37935522338706E-17	4.11297796626388E-18	0.880490967131346	0.374760369712299	0.880490967131346	0.374760369712299	1.17097751649612E-17	-2.44887124126418E-17
53.4	-1.75707930660471E-17	2.02734734945267E-17	0.90999180117822	0.172562270414467	0.90999180117822	0.172562270414468	-2.76968497109684E-18	-1.08961625326548E-18
53.5	-6.64192655037109E-18	-1.67196979069581E-18	0.985968329602774	0.122192687943817	0.985968329602774	0.122192687943817	-2.86276229165095E-18	-2.72061830260983E-17
53.6	-4.16544025288451E-18	-4.29480070966705E-18	0.973992226959631	-0.088930988084449	0.973992226959631	-0.0889309880844491	1.37899253264789E-17	-7.17180074965144E-17
53.7	6.58915366335917E-18	6.15632882419444E-18	0.879489623807031	-0.241300492666073	0.879489623807031	-0.241300492666074	2.03386844949061E-17	-1.62632076544909E-17
53.8	-1.31282229884313E-17	-8.30719642778552E-18	0.985845420142662	-0.325218336851879	0.985845420142662	-0.32521833685188	0	0
53.9	-5.22359511506685E-18	2.77638260650685E-18	0.835002506717765	-0.498562388943894	0.835002506717765	-0.498562388943894	-3.60860344012164E-17	-2.20609812957192E-18
54	5.91571293715684E-18	5.2612946233675E-17	0.729867606551073	-0.612450251492103	0.729867606551073	-0.612450251492103	4.96278128801091E-17	8.74919095727186E-18
54.1	2.33945790798476E-17	-1.89471572395929E-18	0.655253708635371	-0.68713618534024	0.655253708635371	-0.68713618534024	1.45817189439486E-17	-2.26120269923656E-17
54.2	-1.49550060928488E-17	2.87723170022264E-18	0.554470107089822	-0.793356288989354	0.554470107089822	-0.793356288989354	-8.44911717801327E-18	1.00145213016188E-17
54.3	1.93739700831528E-18	1.59835945961196E-17	0.378122935358377	-0.88609171033334	0.378122935358377	-0.886091710333341	-2.90617864549523E-19	1.36587071017383E-17
54.4	5.14975021901875E-18	1.2411924460867E-17	0.325162102800665	-0.871976288240115	0.325162102800665	-0.871976288240116	4.16604528388299E-18	1.35474957058122E-17
54.5	-4.44352878958815E-18	-4.64642093997572E-18	0.111154469504777	-1.00774453329887	0.111154469504777	-1.00774453329887	-2.16604268820071E-17	-1.18304664550605E-18
54.6	-1.26966298542268E-17	-8.58292330829172E-18	-0.0230561981169227	-0.939640036240522	-0.0230561981169224	-0.939640036240522	-1.83136149319674E-18	-6.04765922075233E-18
54.7	2.30759953851992E-18	-4.26771062086163E-18	-0.143541184894982	-0.983974660261845	-0.143541184894982	-0.983974660261845	-1.26407556856592E-18	1.82758795381492E-17
54.8	-9.21456545741369E-18	-1.65987056456575E-17	-0.31341019932513	-0.942105541776667	-0.31341019932513	-0.942105541776667	-9.22988344217865E-18	-3.77318242661621E-18
54.9	-1.71937385504544E-17	5.95950816651536E-18	-0.444573326870278	-0.858891391451138	-0.444573326870278	-0.858891391451137	-2.43143557529323E-17	-1.62006544028608E-17
55	-4.99968936173496E-18	1.23485702621169E-18	-0.5578191323855	-0.813430850000433	-0.5578191323855	-0.813430850000432	-4.56025273893177E-18	1.18068911679526E-17
55.1	7.88071969717008E-19	1.95373364428993E-18	-0.689966578137709	-0.714418416947463	-0.689966578137709	-0.714418416947463	-3.12250285413786E-18	-8.67002285251959E-18
55.2	1.05754142331354E-18	2.70706029876307E-18	-0.762981952750793	-0.60463968760384	-0.762981952750793	-0.60463968760384	-8.05174720013914E-18	5.26723521469474E-18
55.3	6.35735207357921E-18	9.52906803519289E-18	-0.864162154678136	-0.462298230284739	-0.864162154678136	-0.462298230284739	7.15887680093374E-18	-1.17864550800028E-17
55.4	2.1277326908269E-17	-8.48248689811249E-18	-0.919149594377749	-0.372158935987452	-0.919149594377749	-0.372158935987451	2.56507981925875E-17	-1.79015110241889E-17
55.5	1.80275635526591E-17	6.77337293284217E-18	-0.983585437531176	-0.201855688878109	-0.983585437531176	-0.20185568887811	-9.58681404184245E-18	1.34922554523174E-17
55.6	-1.85126620068031E-18	-2.74657572093275E-19	-0.976625872111048	-0.0720527527621336	-0.976625872111047	-0.072052752762134	-1.93853803305977E-17	1.73054388330942E-17
55.7	1.47746591711303E-17	1.51414836346963E-18	-1.00195928454432	0.0680923200702656	-1.00195928454432	0.0680923200702656	3.76373473122341E-18	6.54929191669244E-18
55.8	7.34035863939859E-18	-1.04603292036508E-17	-0.972048867458418	0.230146617805913	-0.972048867458419	0.230146617805912	1.0838198390574E-17	3.72763025403895E-19
55.9	-5.48218845859836E-18	-9.01868675943183E-19	-0.933758414450996	0.358419464704672	-0.933758414450996	0.358419464704672	-1.38029795591773E-17	-6.25329956832234E-18
56	-1.44629376036639E-18	1.44649035448188E-17	-0.845547101281503	0.494699843697311	-0.845547101281504	0.494699843697311	1.74149036376029E-17	9.78846098200084E-18
56.1	-1.36130398981152E-17	-1.46355318935118E-17	-0.79838583465143	0.607486314591879	-0.79838583465143	0.60748631459188	1.11068268246525E-18	-1.05618325514866E-17
56.2	-1.09325351577472E-17	4.13941362031395E-19	-0.70381307569366	0.730966051056787	-0.70381307569366	0.730966051056786	2.83695948261758E-17	-2.96735665301998E-17
56.3	2.68795479014089E-18	-1.16675100632586E-18	-0.538938709770914	0.82145595322802	-0.538938709770914	0.82145595322802	1.45495638808298E-17	8.28750416181256E-18
56.4	3.62948676498324E-18	-8.87708154575154E-18	-0.474095495288397	0.893001320240843	-0.474095495288397	0.893001320240842	2.96787176252347E-17	-1.15099615811144E-17
56.5	2.38105409367262E-19	1.03452751178004E-17	-0.320821161856466	0.971310128892439	-0.320821161856466	0.971310128892439	-1.05980967138795E-17	2.03880865900427E-17
56.6	-1.00869209868691E-17	8.05964689403241E-18	-0.169503480922384	0.972867252668576	-0.169503480922383	0.972867252668575	1.4527269946714E-17	1.96017149550511E-17
56.7	7.60158180745146E-18	4.03390814661992E-18	-0.0349486851672888	1.00307690982146	-0.0349486851672887	1.00307690982146	1.06624924062699E-17	-2.72846117774808E-17
56.8	-1.05479831047391E-17	2.85000521429822E-18	0.0923111347074564	1.01863121826911	0.0923111347074566	1.01863121826911	-1.61370454429286E-17	-3.02574481040921E-17
56.9	9.86637764886608E-18	-7.27539487550217E-18	0.244171395804058	0.969412394221435	0.244171395804058	0.969412394221434	-1.40765260939154E-17	-2.98304423282676E-17
57	1.89233629650524E-17	1.11327497824545E-17	0.402725462574034	0.890986934090777	0.402725462574034	0.890986934090777	-2.71934142485535E-17	1.58338845426795E-17
57.1	-1.81449860230444E-17	-6.29251848552324E-18	0.512243486575729	0.855313200518736	0.512243486575729	0.855313200518736	-2.14962698830848E-17	-3.68625000268178E-18
57.2	-1.61786044776432E-17	5.62862712386991E-18	0.6381280727643	0.799688516939783	0.6381280727643	0.799688516939783	-1.11115498846579E-17	1.60928504810778E-17
57.3	7.49684511785342E-18	1.90300389166642E-18	0.777739364048051	0.626191848989698	0.777739364048051	0.626191848989699	2.03251149679063E-17	7.95230668791467E-18
57.4	4.13230447745676E-18	-1.5278945917216E-17	0.791060602666262	0.548035288532482	0.791060602666262	0.548035288532482	-2.86707802050354E-18	1.50510326778573E-18
57.5	-7.82999262501212E-18	-1.84394042672855E-18	0.919680511879263	0.442698982333459	0.919680511879264	0.442698982333459	-1.6909126572143E-18	-2.11883441355204E-18
57.6	-1.29125126114777E-17	1.29524800868962E-17	0.974342023713594	0.281515688755465	0.974342023713594	0.281515688755465	-3.6096144188476E-18	4.05228163973569E-18
57.7	-7.8314982860086E-19	8.30762368740743E-18	0.960981105276433	0.14100762909456	0.960981105276434	0.14100762909456	5.0167156176812E-18	1.1755641377026E-17
57.8	7.96207546714689E-20	7.96964895821186E-18	1.00939702796057	0.0229719565684705	1.00939702796057	0.0229719565684702	1.04417971383992E-18	-3.49290297006655E-18
57.9	1.81841491296847E-18	-1.33440724286741E-17	1.01648306926045	-0.105884751114257	1.01648306926045	-0.105884751114257	-9.33302908903453E-18	-1.79387786606522E-17
58	-2.30484380616269E-18	-5.76821610649991E-18	0.947989589358653	-0.306345177965189	0.947989589358653	-0.306345177965189	1.19541219843973E-17	1.95068144231254E-17
58.1	4.35801137026713E-18	-6.99544287552993E-18	0.885999522762702	-0.383112916913249	0.885999522762702	-0.383112916913249	-1.07492393980696E-17	-7.88700292332036E-18
58.2	-8.65522612852485E-18	7.59815711863695E-18	0.857552752748217	-0.534805633169693	0.857552752748219	-0.534805633169694	-9.10112842756187E-18	1.46043022976415E-18
58.3	1.40782817450902E-17	7.07980526861296E-18	0.753354661839998	-0.663502738094805	0.753354661839999	-0.663502738094806	5.6443253047778E-18	-2.80589689396176E-18
58.4	-1.50171633533284E-17	-1.16933456887339E-17	0.652657786116288	-0.696553909277329	0.652657786116288	-0.696553909277328	-1.35788134306228E-17	1.03881529295942E-17
58.5	-2.27976039968959E-17	2.76760104288746E-17	0.586779163194879	-0.838865591355656	0.586779163194879	-0.838865591355655	1.27360487465529E-18	2.46946436718646E-17
58.6	3.5313300436709E-19	8.67797887694102E-18	0.429219292222728	-0.903936767378579	0.429219292222727	-0.903936767378579	8.42973696308617E-18	2.09082640135108E-18
58.7	1.9214774441881E-17	-1.02856171146632E-17	0.293206217797793	-0.922210552141128	0.293206217797794	-0.922210552141128	-8.23223264869131E-18	-3.83352053529453E-18
58.8	5.40976742474849E-18	-6.98282079365893E-18	0.180548957806173	-0.97100500337418	0.180548957806173	-0.97100500337418	1.8127602273228E-19	1.88315809438695E-18
58.9	3.71317601254904E-18	-1.3215068874689E-18	0.061314147699421	-1.00614059189788	0.0613141476994208	-1.00614059189788	-3.51779966619449E-18	-7.53336824885921E-18
59	-5.79518493304791E-18	-2.46479281874796E-18	-0.118451164386046	-0.976754649551376	-0.118451164386046	-0.976754649551376	-5.50665183453058E-18	2.2202614095333E-18
59.1	-3.1327575899423E-18	1.17045106965441E-17	-0.219124859915861	-0.955566301506006	-0.219124859915861	-0.955566301506007	-3.82091592488518E-18	2.17625398743638E-17
59.2	2.03662541260955E-18	-1.00300730719694E-17	-0.353332354614729	-0.953977582157522	-0.353332354614729	-0.953977582157523	-5.14786861268349E-18	-1.49533662653408E-17
59.3	-1.63232376971577E-18	-4.51085025880393E-18	-0.506900325428282	-0.839454543689171	-0.506900325428282	-0.839454543689171	-2.21447746274832E-18	-1.16504720194401E-18
59.4	-3.22115406512226E-18	-4.57025210934194E-18	-0.584242914313625	-0.797091676297039	-0.584242914313625	-0.797091676297039	-1.37985777701991E-17	-1.67928126060509E-17
59.5	1.59702759311461E-17	9.86382151597901E-18	-0.718325458889197	-0.700560800573439	-0.718325458889198	-0.700560800573439	-6.98372829776721E-18	1.74901965051812E-19
59.6	-8.18782548617713E-18	1.7999860305444E-18	-0.793936714322459	-0.575674722822873	-0.793936714322459	-0.575674722822872	-3.33106278349946E-18	5.91640191407401E-18
59.7	-6.67100958163272E-18	-2.05571965682838E-17	-0.877840057114829	-0.486444556872119	-0.87784005711483	-0.48644455687212	-3.68998947497511E-19	8.47342162209314E-18
59.8	-7.54740040421433E-18	8.6699690508653E-18	-0.945606348212613	-0.353926762537271	-0.945606348212613	-0.353926762537271	-6.64531618356235E-18	3.59365778417534E-18
59.9	-5.39539787692925E-19	1.06548769833642E-18	-0.973347539914806	-0.232392756418042	-0.973347539914806	-0.232392756418042	-1.38325900652703E-18	4.65434336621328E-18
60	2.41697921014382E-17	9.45630840432318E-19	-0.992495231621149	-0.07250141204526	-0.992495231621148	-0.0725014120452597	8.37350040775953E-18	2.09809291889428E-18
60.1	1.90263892573481E-17	2.01426157952742E-17	-0.985581088424625	0.0499192083401631	-0.985581088424625	0.0499192083401633	1.93546726840309E-17	1.50150613531459E-17
60.2	-1.05395352870631E-17	1.30582345298773E-17	-0.998602504704446	0.167888192646123	-0.998602504704446	0.167888192646122	-1.12172197421365E-17	2.94033226124854E-18
60.3	1.02508744186575E-17	-1.0758533614635E-17	-0.941084848157626	0.339501353743942	-0.941084848157625	0.339501353743943	1.91498253193756E-17	-1.36281769481811E-17
60.4	1.2980992890272E-17	2.14443747685514E-17	-0.884649466277901	0.417442227651335	-0.884649466277902	0.417442227651335	1.69516083580123E-18	8.38525766937427E-18
60.5	-7.66775854913904E-19	1.3901724575406E-17	-0.833309339185473	0.566401419623024	-0.833309339185473	0.566401419623024	-3.5471207699951E-18	1.37483694044232E-17
60.6	1.3739737012545E-18	1.14737133911461E-17	-0.743587013074537	0.667581035023565	-0.743587013074537	0.667581035023565	-2.97934477791573E-18	-4.67774665265073E-18
60.7	-2.33078494949797E-17	-7.33348008824215E-18	-0.642645817231985	0.765997608223432	-0.642645817231984	0.765997608223431	6.75619560145942E-18	-1.632665074421E-18
60.8	1.17744191323104E-17	-1.05529927850537E-17	-0.536081622876122	0.853003055872211	-0.536081622876121	0.853003055872211	9.71669272563558E-18	1.91790479453855E-18
60.9	-1.75860658384035E-18	1.2309517172469E-17	-0.424735691252619	0.91709801247305	-0.424735691252618	0.91709801247305	6.08145187761548E-18	-5.15734608970732E-18
61	-6.51195379232375E-19	-8.77370383993107E-18	-0.282881213673332	0.966591825437713	-0.282881213673332	0.966591825437713	-1.36489522943209E-17	-5.60348481109974E-18
61.1	-1.09915058331556E-17	-1.63918025996278E-17	-0.149246790310432	0.980893831178807	-0.149246790310431	0.980893831178806	-4.05579077109646E-18	-7.07657999622262E-18
61.2	2.06452880892711E-17	-9.81684238044134E-18	-0.0311890079192579	1.00062914727607	-0.0311890079192581	1.00062914727607	1.4103894333186E-18	5.31393517606765E-18
61.3	2.51547713534833E-17	1.14769985354191E-17	0.11121253847004	1.01290699064912	0.11121253847004	1.01290699064912	-1.41617408613933E-18	6.08104269169758E-18
61.4	-3.68522035395804E-17	-6.44867537315066E-19	0.27517710481453	0.963138272932044	0.27517710481453	0.963138272932045	-3.39915628547245E-18	1.59522548854863E-17
61.5	1.34781747328227E-17	4.87855977794844E-18	0.353570665896019	0.920379975488918	0.353570665896019	0.920379975488918	3.36867109371239E-18	2.13688566823406E-17
61.6	-4.16472860708636E-18	-1.1041770630436E-17	0.510105856670346	0.895667812759891	0.510105856670346	0.89566781275989	7.133128414812E-18	4.23109083554284E-18
61.7	-2.86949341492436E-18	-3.4528720103901E-18	0.630587028173417	0.79849006456105	0.630587028173417	0.79849006456105	-7.81698133743584E-18	-1.75544450441195E-17
61.8	1.79303489444974E-18	4.80980606974099E-18	0.709363918035361	0.698652983975836	0.709363918035362	0.698652983975836	1.03494332669196E-17	1.99234897329685E-18
61.9	5.60400936534952E-18	-1.12810511050201E-17	0.805448777265431	0.593976371387159	0.805448777265432	0.593976371387159	2.66097111237038E-18	7.13347530741872E-18
62	-2.05590522130233E-17	1.20243788204507E-19	0.878855884880899	0.50501758239811	0.878855884880899	0.505017582398109	-1.02981237100201E-18	8.85183613499682E-18
62.1	5.66471734556167E-18	-3.48175112716633E-18	0.956459947142363	0.371736853773011	0.956459947142363	0.371736853773012	1.82680153026747E-17	-2.73899085587484E-17
