# GHZ S RI R 50
50	-1.62207845840096E-17	-9.03685347936647E-18	0.780845500827441	-0.554333052513971	0.780845500827441	-0.554333052513971	6.78067243845834E-18	-6.8988105545098E-18
50.1	-2.03269797610106E-18	-2.26364260770266E-17	0.657583698936974	-0.661816493991233	0.657583698936974	-0.661816493991233	9.84827362526558E-18	5.22168643043455E-18
50.2	4.26930013975687E-18	-2.93989808068802E-17	0.553823067789739	-0.757310639938829	0.553823067789739	-0.757310639938829	6.51480247781362E-18	3.31420040453261E-19
50.3	-3.65064009460459E-17	-2.32543182620236E-17	0.430190194979708	-0.866587447888426	0.430190194979708	-0.866587447888426	1.58594114163925E-17	4.78037102348197E-18
50.4	-1.09853218710584E-17	-2.18212367109973E-17	0.24228969666079	-0.887395421846109	0.24228969666079	-0.887395421846109	6.11291280807809E-18	-7.4713979088275E-18
50.5	3.45554902632664E-18	2.88922961439687E-17	0.129302666795196	-0.946395642279928	0.129302666795196	-0.946395642279926	-8.67589949839619E-20	3.26173557705214E-18
50.6	-1.09820280929597E-17	-1.27121910818428E-18	-0.0452013571608033	-0.942429462529473	-0.045201357160803	-0.942429462529472	9.96212085441389E-18	6.79918197604045E-18
50.7	5.38098087968238E-18	2.09014204875341E-17	-0.183525371548419	-0.919827005275149	-0.18352537154842	-0.919827005275149	1.420273133491E-17	2.36098519502794E-18
50.8	-4.86923863036347E-18	-7.65530159246623E-18	-0.352642463609163	-0.900677383612066	-0.352642463609163	-0.900677383612065	1.28380065025281E-17	-5.24109286691585E-18
50.9	2.62634519715983E-18	1.42844985715033E-18	-0.474337739215381	-0.797946696518169	-0.47433773921538	-0.797946696518169	-5.71379942860134E-18	1.05053807886393E-17
51	-9.05535729612536E-18	-3.5340505075184E-18	-0.617488629579487	-0.730065790330652	-0.617488629579487	-0.730065790330652	-5.48164898524623E-18	3.90266359956311E-18
51.1	1.45370702522118E-17	-8.27988049200918E-18	-0.723168664784078	-0.616461142148569	-0.723168664784078	-0.616461142148569	6.93072124398029E-18	3.64818934535247E-18
51.2	2.40946551681754E-17	-3.95853247535917E-18	-0.807756822117953	-0.487608763515948	-0.807756822117954	-0.487608763515949	-3.52472381623851E-18	-3.38012092986496E-18
51.3	5.48468775661033E-18	1.43811578228338E-17	-0.881857277470158	-0.352143257573816	-0.881857277470158	-0.352143257573816	1.20210155412731E-17	-5.83925009969484E-18
51.4	-1.40880171826107E-17	1.20530974679691E-18	-0.945452561341933	-0.222626246578011	-0.945452561341933	-0.222626246578011	5.62563852673087E-18	-8.52645503374401E-19
51.5	8.2100575480565E-19	8.61207874866716E-18	-0.933525489877783	-0.0377793614367047	-0.933525489877782	-0.0377793614367048	-2.63100621411948E-18	4.34430909583831E-18
51.6	6.75455338883636E-18	-2.13506241243762E-17	-0.953625042055636	0.0827519583667228	-0.953625042055635	0.0827519583667227	4.06933324527142E-18	1.05832970948815E-17
51.7	-1.50353882548808E-17	2.30995703315772E-17	-0.943202714067708	0.239244268215249	-0.943202714067708	0.239244268215249	2.04524159871762E-17	5.43067524772172E-17
51.8	5.40860465721605E-18	3.76628870682965E-18	-0.834193713460169	0.378480218674584	-0.834193713460169	0.378480218674583	2.49229256328479E-17	-5.2695491028643E-18
51.9	2.21944501141962E-18	-1.19186626895453E-17	-0.837209177417918	0.516765986418672	-0.837209177417918	0.516765986418672	-1.47113209469368E-18	-2.70355462247754E-17
52	5.56308904357427E-18	1.14383730303125E-17	-0.682309312520405	0.648048166457616	-0.682309312520405	0.648048166457616	2.17865137707332E-18	1.74165688292635E-17
52.1	-1.5384554414336E-17	8.70939002355528E-19	-0.581239674648836	0.732900047354926	-0.581239674648836	0.732900047354926	2.55573488458735E-17	-4.03006305024027E-18
52.2	-1.09713609681471E-17	1.78330707606702E-17	-0.485694825014087	0.823284270497117	-0.485694825014087	0.823284270497117	2.9141904168331E-17	-2.97369207114565E-18
52.3	-1.14984151803301E-17	2.14746724353228E-17	-0.353950496672531	0.890810945961731	-0.353950496672531	0.890810945961732	-5.53495964593774E-18	3.54308040523459E-18
52.4	4.39766823355087E-18	2.46156465084826E-17	-0.192184461739359	0.966616425563156	-0.192184461739359	0.966616425563157	2.67326949000816E-17	1.47147859210962E-17
52.5	-4.42805761005841E-18	5.79357814491323E-20	-0.0695916621885083	0.913520121251688	-0.0695916621885084	0.913520121251687	1.16878749948553E-17	1.50486886880622E-17
52.6	-4.06031428151508E-18	1.4667308292441E-18	0.0736622166614399	0.985241535084768	0.0736622166614397	0.985241535084768	1.50325482319339E-17	8.8697881247449E-18
52.7	2.83208392737913E-18	4.23397635477357E-18	0.287425476625401	0.946671609473193	0.287425476625401	0.946671609473192	-3.39001099107788E-17	4.29057449995408E-18
52.8	-3.56716372308325E-18	-1.52594141124442E-19	0.309526805670295	0.794909081357982	0.309526805670295	0.794909081357982	1.52372942422649E-18	1.65935035574628E-17
52.9	1.05838613687237E-17	-1.75228226107535E-19	0.604053346269513	0.876490519798211	0.604053346269512	0.876490519798211	-1.95942782840208E-17	-3.69117928224906E-17
53	1.98633268187646E-17	3.79249951968878E-18	0.605517780296403	0.681097772263375	0.605517780296403	0.681097772263375	-5.0065061801413E-18	-6.75590220559737E-18
53.1	1.84128681895574E-18	1.42440760703476E-18	0.731118278625244	0.643720968493435	0.731118278625243	0.643720968493434	2.52220359168763E-17	4.15855994793458E-17
53.2	-1.69054253912407E-17	-2.89841882669313E-17	0.874912430976306	0.50255396340862	0.874912430976306	0.50255396340862	-3.50216581384374E-17	3.04905561965345E-18
53.3	-4.63767371234727E-19	-5.16055532547334E-18	0.888425523822804	0.378990914609193	0.888425523822804	0.378990914609193	-2.72662725691949E-17	-9.73048043972238E-18
53.4	-7.28157949474812E-18	1.41889015860163E-17	0.916881796201232	0.175949924609423	0.916881796201232	0.175949924609423	1.74259767517799E-17	1.34544516684532E-17
53.5	1.90275058207431E-18	1.39910769387189E-17	0.996275101928655	0.122828885023093	0.996275101928654	0.122828885023093	8.49121883543279E-19	-3.39130509690774E-18
53.6	3.74692249913231E-17	-1.72689750956944E-18	0.982762186022892	-0.0894727021378277	0.982762186022892	-0.0894727021378278	1.1042515701443E-17	-8.01763975842305E-17
53.7	5.96866058955206E-18	-2.39384951499863E-17	0.88804171418621	-0.241247555952956	0.888041714186209	-0.241247555952956	-3.50889689810747E-17	6.95901923066997E-18
53.8	2.92088248573069E-17	1.99301228216077E-17	0.996110570417428	-0.331056603925181	0.996110570417427	-0.331056603925181	1.15088940652282E-17	-2.29161869043405E-17
53.9	-8.74061676444629E-18	1.6206779828575E-17	0.843512676469487	-0.503445173812246	0.843512676469487	-0.503445173812246	1.43361354457752E-17	8.68268705079549E-18
54	-4.3462439042157E-18	-3.750623690827E-17	0.737861055906312	-0.618160169050169	0.737861055906312	-0.618160169050168	-8.47550681892779E-18	1.75706765821582E-18
54.1	-2.01754916442967E-17	1.41634544417787E-17	0.663302346952654	-0.69494971310035	0.663302346952653	-0.694949713100349	1.22389186696807E-17	2.18679831501975E-17
54.2	-2.73411701440215E-18	1.00178109757276E-18	0.560889279533122	-0.802863395947536	0.560889279533121	-0.802863395947536	-6.10066793995015E-18	3.41330330192872E-17
54.3	8.98897081018374E-18	1.41515993993334E-17	0.382456129557951	-0.895211255131048	0.382456129557951	-0.895211255131048	4.49904832717469E-17	1.61103997306787E-17
54.4	-1.75570561365813E-17	-8.06488407504741E-18	0.33004855558556	-0.884353833743475	0.330048555585559	-0.884353833743474	-2.14937619171438E-17	5.91145286071609E-18
54.5	2.11113951643267E-17	-1.95919730991013E-17	0.111049211460002	-1.01869336831553	0.111049211460002	-1.01869336831553	-3.36387009578358E-17	-3.35376929524678E-17
54.6	-1.49307781644392E-19	-3.13675561971461E-18	-0.0226234631015734	-0.951115173493224	-0.022623463101573	-0.951115173493224	1.18004835706365E-17	-1.62810092251506E-17
54.7	3.25270595414587E-18	1.00440498818135E-17	-0.1466826278591	-0.996295649471457	-0.1466826278591	-0.996295649471456	3.61027097535709E-18	-1.39468442676492E-17
54.8	1.64840692639956E-17	1.61033508550606E-17	-0.318244675001039	-0.953255960162861	-0.318244675001039	-0.953255960162861	1.22821322759532E-17	1.92609149947453E-17
54.9	-3.63860045733661E-18	9.11590446758531E-18	-0.450378530251644	-0.869507458398514	-0.450378530251644	-0.869507458398514	1.4445633979179E-18	-1.9344533303894E-17
55	-9.80811655221976E-18	-1.0719796150093E-17	-0.56624652277036	-0.823553207198342	-0.56624652277036	-0.823553207198342	1.72691986531543E-18	-1.41840632283836E-17
55.1	1.05945157528795E-18	-5.62002611319608E-18	-0.699822449587348	-0.722741125600788	-0.699822449587348	-0.722741125600788	5.80173737116943E-18	-1.65010522827444E-17
55.2	-8.47109357066651E-18	-2.7703165798389E-18	-0.774164783776869	-0.612274606789743	-0.774164783776869	-0.612274606789743	4.1983888531673E-18	-7.9408523554311E-18
55.3	5.81715904398711E-19	-5.27804040010182E-18	-0.875911270918347	-0.467580362937728	-0.875911270918347	-0.467580362937728	7.35895924866126E-18	3.30464541645539E-18
55.4	-1.13884816656272E-17	-1.0950682963352E-17	-0.933114141291987	-0.375840583455651	-0.933114141291987	-0.37584058345565	9.66065643890743E-18	1.78130220473963E-17
55.5	-8.52032472289949E-18	-7.51675043292162E-18	-0.997250263104547	-0.202750060037769	-0.997250263104547	-0.20275006003777	5.93838369313676E-18	-4.79908070521723E-18
55.6	-7.47027243349986E-19	-1.56840948854823E-17	-0.991005952777697	-0.0717023036255698	-0.991005952777697	-0.0717023036255699	1.72570939498717E-18	-1.18631858619054E-17
55.7	2.80148360339843E-18	5.13882089122028E-19	-1.01652253179751	0.0714442381542623	-1.01652253179751	0.0714442381542624	-1.14288927360767E-17	-2.0240324230873E-18
55.8	-1.07159165519012E-17	7.42699081227367E-18	-0.985653116197292	0.235468013679127	-0.985653116197291	0.235468013679126	-1.18544494752832E-17	1.79895797744824E-17
55.9	-1.71400327440641E-17	1.07911365326183E-18	-0.94699441713801	0.366006553483197	-0.94699441713801	0.366006553483197	-3.36603378858994E-18	-9.02162510604058E-18
56	1.35689374133727E-18	-1.29937381816521E-17	-0.857531242494563	0.50351108738214	-0.857531242494562	0.50351108738214	4.52662525023706E-18	-1.51539364809761E-17
56.1	-1.44534750325658E-17	1.68369147165657E-18	-0.809304114575799	0.61924165895314	-0.809304114575799	0.619241658953139	3.69311351769466E-18	3.45941401116897E-17
56.2	-1.0757055414299E-17	-8.74861120592515E-18	-0.712561053667219	0.744512360324242	-0.712561053667219	0.744512360324242	-6.26549997800041E-18	-5.87369770274518E-17
56.3	-7.1610903149519E-18	4.07739807533377E-18	-0.545731286435387	0.834718424394799	-0.545731286435387	0.8347184243948	1.36443716109247E-17	3.54618043809974E-17
56.4	7.15784344348832E-18	1.2864841312547E-17	-0.478942145808384	0.909295782344185	-0.478942145808384	0.909295782344184	5.61965378685059E-17	4.14392301008388E-17
56.5	7.31148070647784E-19	-1.68687983822005E-17	-0.322594678368051	0.98779992361413	-0.322594678368051	0.987799923614129	5.39605928328158E-18	-6.45079894840221E-17
56.6	-4.50650624508292E-18	-2.98595152439465E-18	-0.169933619750922	0.98938551264666	-0.169933619750922	0.98938551264666	1.53133463013547E-17	9.12917266936545E-18
56.7	3.91231386724277E-17	-1.74251550123556E-17	-0.0323943715562615	1.01999222904394	-0.0323943715562616	1.01999222904394	2.94933330716951E-18	-1.7914946445608E-17
56.8	-5.96870319820162E-18	8.78794796721529E-18	0.0980604516754808	1.0358304065916	0.0980604516754809	1.0358304065916	-1.52963555275832E-17	-2.00205431713651E-17
56.9	8.60540547875857E-18	1.57511783443464E-17	0.251667782477602	0.985560898444093	0.251667782477603	0.985560898444093	3.8912791506336E-17	3.19173879426042E-17
57	9.89318384469505E-19	1.45232916001135E-17	0.411581408648861	0.905289799497426	0.411581408648861	0.905289799497426	1.43847788832793E-17	1.48266907143592E-17
57.1	-8.98095356462609E-18	-9.78035349919375E-18	0.52427481153243	0.868860508680246	0.52427481153243	0.868860508680246	-8.1573875275562E-18	7.81692617260851E-18
57.2	1.54235809204112E-17	4.33369599015208E-18	0.65309522981299	0.811238928989195	0.65309522981299	0.811238928989195	1.24045990722973E-17	-1.26967608174915E-17
57.3	9.77059242700289E-18	-9.50862224862E-18	0.792035750404074	0.634381452788607	0.792035750404074	0.634381452788607	-6.33113718556814E-17	-3.34258326064447E-17
57.4	8.84853232935973E-18	-2.48128308282402E-17	0.807818731085178	0.556485953790199	0.807818731085178	0.556485953790199	1.7356290731451E-17	-6.69141870454872E-17
57.5	-1.40832986084733E-17	-5.45595283817179E-18	0.93825525402751	0.446736512368101	0.93825525402751	0.446736512368102	-1.6762261868044E-17	-1.17266652067943E-17
57.6	1.97919623986512E-18	5.57611917063785E-18	0.992688601160574	0.282758910650243	0.992688601160574	0.282758910650243	-4.64924738468664E-18	1.4513721211828E-17
57.7	5.8014012756443E-18	1.94139372244697E-17	0.979511891506719	0.141030474504728	0.97951189150672	0.141030474504728	6.08947237858162E-18	2.74672450010437E-17
57.8	1.46470552180992E-17	1.46019974104192E-18	1.02870626551195	0.0190050696263737	1.02870626551195	0.019005069626374	2.038610934991E-18	-5.43753392259389E-18
57.9	8.78167143111716E-18	1.55411787306712E-18	1.03576034359064	-0.11313821329737	1.03576034359064	-0.11313821329737	6.0338894484684E-18	-7.60237377924829E-18
58	-2.80721093400329E-18	1.0900034988552E-17	0.964202143652591	-0.315042646295611	0.964202143652592	-0.315042646295612	2.90301406421805E-18	5.23364482714944E-17
58.1	-1.09241240765013E-17	-5.54759083327938E-18	0.902817933676437	-0.39379181045785	0.902817933676437	-0.39379181045785	5.16756473543407E-19	-4.11277100410783E-18
58.2	-2.52708383229351E-18	-3.25193343199204E-18	0.871842881822994	-0.549197726639738	0.871842881822994	-0.549197726639737	-4.87790014798806E-18	3.79062574844027E-18
58.3	1.04734439549607E-17	1.9536423743078E-17	0.765087938685906	-0.67932060736759	0.765087938685907	-0.67932060736759	-8.62823985384996E-18	-1.20012279683134E-17
58.4	2.44649108748638E-17	1.80905638272804E-17	0.664413736050505	-0.713997114364045	0.664413736050504	-0.713997114364045	1.76303133890126E-17	-7.88765729053726E-18
58.5	-2.23988243587655E-17	-5.70806211454124E-18	0.594068363110775	-0.859468502703814	0.594068363110774	-0.859468502703813	-1.73206682147391E-17	-1.36991938771729E-17
58.6	1.10477362418762E-17	4.72622349193129E-17	0.433796644861016	-0.924416644278724	0.433796644861016	-0.924416644278724	2.19632740109707E-17	2.6434298972304E-17
58.7	-1.93694507136744E-18	2.78221968527288E-18	0.295971166910946	-0.943143233059288	0.295971166910947	-0.943143233059288	9.30187070609788E-18	-7.52876172571733E-19
58.8	-1.07453249782861E-17	1.10704159116027E-17	0.179726630246595	-0.993065711254354	0.179726630246595	-0.993065711254354	8.29936624585842E-19	4.08346373250157E-18
58.9	-1.72931247320271E-17	-1.11742059800462E-17	0.0566534055292498	-1.02877299303598	0.0566534055292497	-1.02877299303598	-1.4259952395188E-18	-3.86304792465064E-18
59	-9.83078378124426E-18	-1.01507269001431E-17	-0.125440143271273	-0.997315655874537	-0.125440143271273	-0.997315655874538	-1.69298035017325E-17	-6.07489022031093E-18
59.1	4.74161009740006E-18	-2.3787495618702E-17	-0.229194138508851	-0.976365041886396	-0.229194138508851	-0.976365041886396	3.14963834884072E-18	-1.13065598745778E-17
59.2	1.43182399447364E-18	-6.89491053680476E-18	-0.367757743898842	-0.973279138024158	-0.367757743898841	-0.973279138024158	-2.40023528615152E-18	-4.14251488280913E-18
59.3	9.22214486828247E-18	-1.17353595081387E-17	-0.522129995358304	-0.855738070489616	-0.522129995358305	-0.855738070489616	9.92283706328547E-18	-1.54794040380684E-17
59.4	3.24440956831205E-18	1.30425370553648E-17	-0.603054293048584	-0.812491716168817	-0.603054293048584	-0.812491716168818	6.92897662742543E-19	-5.35698891366325E-18
59.5	2.18176267315403E-18	9.52046015333241E-18	-0.739104828264115	-0.712212946435447	-0.739104828264116	-0.712212946435447	-1.83308736511936E-17	-1.14927753771158E-18
59.6	7.2396453629453E-18	-1.67530652358954E-17	-0.815688690053363	-0.584857688137637	-0.815688690053364	-0.584857688137637	3.53606385777692E-18	-1.134654507743E-17
59.7	-2.27061949540796E-19	-1.72733087840053E-17	-0.901870575675932	-0.492139520034873	-0.901870575675931	-0.492139520034873	-8.09067019109803E-18	-1.00361892587989E-17
59.8	-2.03846377360395E-17	-1.60640916003799E-17	-0.970223826756759	-0.355870154319315	-0.97022382675676	-0.355870154319315	-5.41414383316292E-18	2.0896103183541E-18
59.9	-1.56152372626851E-17	1.53164089195421E-17	-0.99867118301617	-0.231299280191522	-0.998671183016171	-0.231299280191522	-3.0139236787897E-18	5.12090292932592E-18
60	-1.42951740722746E-17	1.17141818422443E-17	-1.016796625185	-0.0679101157632163	-1.016796625185	-0.0679101157632164	4.82307130428893E-18	-2.07931156169366E-18
60.1	-4.02210734518381E-18	2.72529363620053E-17	-1.00976404105914	0.0576573372015986	-1.00976404105915	0.0576573372015985	-1.72720572721211E-17	2.07333920061679E-17
60.2	1.55731167484196E-18	-2.55538219067446E-18	-1.02235520947189	0.180094508641587	-1.02235520947189	0.180094508641587	-8.06627702388018E-18	1.88460662439312E-17
60.3	-3.80437628486569E-19	2.90519905679908E-17	-0.961739541181339	0.354191246684322	-0.96173954118134	0.354191246684322	-3.51580157452522E-18	1.97538442221929E-17
60.4	-1.06512756051148E-17	-1.74813405711582E-17	-0.904997741034007	0.434931491643801	-0.904997741034007	0.434931491643801	-7.37472345554402E-18	8.18972629458711E-19
60.5	-6.62278373862029E-18	4.42474910234766E-18	-0.850024884348635	0.587323566509179	-0.850024884348635	0.587323566509179	8.22740598500788E-18	3.11134508455048E-18
60.6	1.89956103090397E-18	-7.39507126906702E-19	-0.75762496732489	0.69066931777362	-0.75762496732489	0.690669317773621	5.96848823082255E-18	-1.50107924645392E-17
60.7	-2.41066817906427E-19	8.41240181481735E-18	-0.653314111330482	0.790948356573154	-0.653314111330482	0.790948356573154	9.30723395246514E-19	-4.8268135809741E-18
60.8	9.6248792721875E-18	-1.18225321284419E-17	-0.543008340599937	0.879596238211243	-0.543008340599936	0.879596238211243	-5.59638371424993E-18	-8.23333792108915E-19
60.9	-8.26993862906245E-18	8.26663159745205E-18	-0.427987072821784	0.945016400523314	-0.427987072821784	0.945016400523314	1.52493130857198E-17	-2.08342894418746E-17
61	4.86823366503265E-19	-7.88698762564022E-19	-0.282198897979353	0.994456626524069	-0.282198897979353	0.994456626524069	-8.73148021283E-18	2.23483361405112E-18
61.1	-1.65213706551439E-18	-1.03438849372969E-17	-0.145245075406565	1.00863880803773	-0.145245075406565	1.00863880803773	3.4309694670306E-18	-3.68523047763022E-18
61.2	1.46195488211492E-17	1.80317180135926E-18	-0.023016785989489	1.02843469456383	-0.0230167859894893	1.02843469456383	8.19776378868131E-18	-1.89270222230694E-17
61.3	-8.58895874126952E-18	2.30973241321592E-17	0.123917623854962	1.03933313845209	0.123917623854963	1.03933313845209	-2.53851354848742E-18	1.1734941180437E-17
61.4	-9.26337191663912E-18	8.70553534188962E-18	0.290626075066184	0.986683278500438	0.290626075066185	0.986683278500439	-2.77734556721461E-17	1.02713483062521E-17
61.5	3.21800115433706E-18	-1.78590836953975E-18	0.372337275444677	0.943653555567381	0.372337275444677	0.943653555567381	8.11859532328737E-18	7.37900261195048E-18
61.6	3.4463601259422E-18	1.7605281838261E-17	0.533342030203156	0.915000809527294	0.533342030203156	0.915000809527294	-9.0573983120896E-18	-1.77540664977232E-18
61.7	-3.41293247080695E-19	1.93366573619168E-17	0.655715925524569	0.814397256576739	0.655715925524569	0.814397256576738	6.81975495271756E-18	8.76877946244861E-18
61.8	-5.43350791599955E-18	8.65995487665714E-19	0.736350753379227	0.711947356407821	0.736350753379226	0.71194735640782	-5.41550502394834E-19	1.09436546004774E-17
61.9	-5.48903566140273E-18	1.26988306290184E-17	0.83415527637494	0.603192789026459	0.83415527637494	0.603192789026458	-5.1020672683497E-18	5.07051824491043E-18
62	1.71561780309067E-17	9.9772790684645E-18	0.90976985053091	0.510261588069445	0.909769850530911	0.510261588069444	-1.55678144502465E-17	-1.371274852645E-17
62.1	-1.8201522019239E-17	1.48763962209919E-17	0.987676941676705	0.372010796557402	0.987676941676704	0.372010796557402	-2.45325512652372E-17	9.64015784081308E-18
