# GHZ S RI R 50
50	-8.21490791517893E-19	-2.15035787276566E-17	0.853636382686012	-0.612647085511522	0.853636382686011	-0.612647085511521	-5.33295233866555E-19	8.30599502600174E-19
50.1	-9.20310805412445E-18	1.66379541031861E-17	0.716917887569442	-0.733470540738308	0.716917887569442	-0.733470540738308	-6.23952250366171E-18	6.53105047954886E-18
50.2	-1.83178343450967E-18	-1.53619600715645E-17	0.598793309286326	-0.836016605272827	0.598793309286326	-0.836016605272827	1.44158492583541E-18	-1.45885298066714E-18
50.3	2.86129242851692E-18	4.83927102945212E-18	0.463251543074974	-0.950348458912891	0.463251543074975	-0.950348458912892	-1.58714845113844E-17	1.11809027694651E-17
50.4	-3.07529049154345E-17	1.1233876160177E-17	0.256147383132434	-0.978751392627683	0.256147383132435	-0.978751392627683	9.4352442705082E-18	1.03934675728645E-17
50.5	-1.19174364433134E-17	4.734665755655E-18	0.130309108139968	-1.0344068043414	0.130309108139968	-1.0344068043414	-1.69298603625648E-17	1.50500487322697E-18
50.6	-9.49951173839862E-18	-1.66819055356802E-18	-0.060659222347227	-1.0302438561892	-0.0606592223472272	-1.0302438561892	-4.33637786404244E-19	-3.66971335943817E-18
50.7	3.50635546958391E-18	-1.0710807554407E-18	-0.213874305373357	-1.00141701226167	-0.213874305373356	-1.00141701226167	-2.97230806476543E-18	-6.64117243107214E-18
50.8	-2.26049339535466E-18	-2.4570433727161E-17	-0.394080053283292	-0.97743838873455	-0.394080053283291	-0.97743838873455	1.43413424245207E-17	-1.77267479960689E-18
50.9	-1.44140220207276E-17	1.26956508273177E-17	-0.531095892133682	-0.863714373888104	-0.531095892133682	-0.863714373888104	-3.18297579924289E-18	-1.60961408444837E-18
51	-4.5903159460475E-18	5.52076977737775E-18	-0.682319048830531	-0.786785193639931	-0.682319048830531	-0.78678519363993	2.92745632605446E-18	-7.18390025094537E-18
51.1	1.23926400297671E-17	1.56199758129884E-17	-0.796518263313416	-0.660467915799632	-0.796518263313416	-0.660467915799632	1.38079079935715E-17	3.0685249682582E-18
51.2	-7.6228510603276E-19	-6.92859352422354E-18	-0.887262279824775	-0.517674422273401	-0.887262279824775	-0.517674422273401	4.84871370973558E-19	-6.58218795462757E-18
51.3	1.07898257377662E-17	1.15235721961094E-17	-0.964625432251548	-0.368749821553856	-0.964625432251548	-0.368749821553856	1.92324248340124E-18	-7.61231941442633E-19
51.4	-1.41613163036281E-17	8.42105783455181E-19	-1.02775152571795	-0.226884209748123	-1.02775152571795	-0.226884209748123	-8.09904179083286E-18	7.89288498248447E-18
51.5	1.66489230268775E-18	2.77811522912159E-18	-1.01737272914467	-0.0244758327558187	-1.01737272914467	-0.024475832755819	5.38344475049551E-18	2.59178561621511E-19
51.6	-2.28544741938488E-18	9.52311054974217E-18	-1.03086522320339	0.106993333706962	-1.03086522320339	0.106993333706962	-2.18017564378587E-17	8.38268658311127E-18
51.7	5.31946575559833E-18	-4.21347038110341E-18	-1.01543355232547	0.27448056796339	-1.01543355232547	0.27448056796339	-5.72844197018234E-18	-6.88730425568971E-17
51.8	-1.13357175106796E-17	-5.7906805221454E-18	-0.897629671792705	0.430564334413409	-0.897629671792705	0.430564334413409	6.22832473805077E-18	9.40767936439228E-18
51.9	1.57327507145547E-17	-3.87638521546241E-18	-0.892584068586938	0.571367310218644	-0.892584068586938	0.571367310218644	1.49592377755377E-17	-2.31400360729367E-17
52	5.80975537993092E-18	-2.61366211066548E-17	-0.727221750956064	0.716602281129561	-0.727221750956064	0.716602281129561	-3.77092712266544E-17	-1.81868348336876E-17
52.1	9.09794010848199E-18	9.47050005989063E-18	-0.612600950157894	0.806338313121645	-0.612600950157895	0.806338313121645	-1.11619271470767E-17	6.33726320760217E-18
52.2	7.19197473291768E-18	1.71785001407667E-17	-0.505441011596698	0.897891465550214	-0.505441011596698	0.897891465550213	1.04467427383921E-17	-1.11857537287655E-17
52.3	-5.19657351569951E-18	2.85267075655144E-17	-0.361227189615598	0.966795123672268	-0.361227189615597	0.966795123672268	1.77691468429216E-17	1.0537930984077E-17
52.4	1.02988518602415E-18	-2.74440885483085E-18	-0.189497506080531	1.04432049687826	-0.189497506080531	1.04432049687826	-1.14301577920447E-17	-2.51619602723666E-17
52.5	-1.23244179622078E-19	1.25978670873964E-18	-0.0480755708649379	0.985191040186216	-0.0480755708649378	0.985191040186216	1.40950271845406E-17	-5.40425786397591E-18
52.6	-4.20961238924534E-18	2.45237272424078E-17	0.0997054711873561	1.05321563848473	0.0997054711873559	1.05321563848473	-2.96129263233248E-17	-1.01555185778113E-17
52.7	-6.97401727820637E-18	3.79329974910194E-18	0.326315506990926	1.01429700361967	0.326315506990926	1.01429700361967	7.09653372220587E-18	-2.45032887999005E-19
52.8	1.55255599207718E-17	-2.94760081263651E-17	0.365700786398388	0.841691424074082	0.365700786398387	0.841691424074081	-5.15847565631119E-17	-1.21816150276551E-17
52.9	2.83723781866845E-17	2.44813092162359E-17	0.656935695692772	0.931753150174895	0.656935695692771	0.931753150174895	7.57379271426424E-18	-2.12365508485439E-17
53	-3.83053215776073E-17	-2.30208240845193E-18	0.672346562173598	0.713966502970606	0.672346562173598	0.713966502970607	1.8959457141072E-17	1.82719363074738E-17
53.1	9.56903427386508E-19	-5.40822268362024E-18	0.79652909174181	0.668967705522748	0.796529091741809	0.668967705522747	4.91030122601481E-17	4.09318737878114E-17
53.2	-8.19764816311228E-18	-9.1800890107462E-18	0.945957478239769	0.521099197579987	0.945957478239769	0.521099197579987	1.2610963896826E-17	1.23744040269907E-17
53.3	-2.26798749474732E-17	1.79390553196581E-17	0.958543653366381	0.381428494340594	0.958543653366382	0.381428494340594	-1.76401117746578E-17	6.97119842815063E-17
53.4	2.22281443506057E-18	-1.09322249477161E-18	0.991336873463119	0.164213961249139	0.991336873463118	0.164213961249139	8.39920066113253E-18	-1.37925742439559E-17
53.5	-4.06098237087424E-18	1.79463512204248E-19	1.06077218482582	0.106869000168437	1.06077218482582	0.106869000168437	3.78319155508007E-18	-3.75740491261668E-18
53.6	-1.06641703354008E-17	1.82806010865612E-17	1.04810446425113	-0.118441966415366	1.04810446425113	-0.118441966415366	-2.25651314057051E-17	-4.23516309643483E-17
53.7	-1.61621516505134E-17	-2.38844481720229E-17	0.94651447724371	-0.286348104437194	0.94651447724371	-0.286348104437195	-5.16894426426176E-17	-1.14326314563817E-17
53.8	2.01521449280952E-17	2.49082964280594E-17	1.04607509456093	-0.370174846470698	1.04607509456093	-0.370174846470697	1.66807002139222E-17	2.41907504781736E-19
53.9	-1.17374496109902E-18	-1.95539049567287E-17	0.886301861505207	-0.557923645867063	0.886301861505207	-0.557923645867062	-2.15503463341839E-17	-1.66645574539688E-17
54	1.76294596620054E-17	-7.95288104876994E-19	0.770198456581377	-0.679933057853035	0.770198456581377	-0.679933057853034	-6.81342783439182E-18	-4.54206180372522E-18
54.1	3.14002599997618E-19	-1.45585516562256E-17	0.683505370520881	-0.757638290900844	0.683505370520881	-0.757638290900844	-7.41324975768904E-19	-7.1866102061417E-18
54.2	1.74256755459546E-17	-2.47549629491942E-17	0.572461975809024	-0.867091541666731	0.572461975809024	-0.867091541666731	-3.66262352338516E-18	-2.28731123889318E-17
54.3	-1.11107814195446E-17	4.94083083871461E-18	0.384019496867666	-0.964851431843145	0.384019496867665	-0.964851431843145	2.42234147749801E-17	-9.27570565068587E-18
54.4	3.64299131590475E-18	-4.79696060717806E-18	0.31781301088356	-0.943969945796975	0.31781301088356	-0.943969945796976	-1.61687546962709E-17	-1.47403642609936E-18
54.5	-6.11594528565768E-18	3.44292132153195E-17	0.0955954763310604	-1.08471857472294	0.0955954763310603	-1.08471857472294	3.50154151019483E-17	1.45766981178304E-17
54.6	1.63606972899427E-18	6.966551512563E-18	-0.0537470590827684	-1.01017229985992	-0.0537470590827678	-1.01017229985992	-3.46200626543809E-17	2.69031506612521E-17
54.7	1.73984011678647E-17	-2.08007621297068E-17	-0.180998697527061	-1.04942045117043	-0.18099869752706	-1.04942045117043	2.3589509559496E-18	-3.00690293026633E-17
54.8	6.02765496973439E-18	1.03426840884057E-17	-0.361633586937533	-1.00184990620195	-0.361633586937533	-1.00184990620195	3.28585769662939E-18	-5.28525111570638E-18
54.9	9.79009461961783E-18	-5.12972215874883E-18	-0.502505465208223	-0.909356389590012	-0.502505465208223	-0.909356389590013	1.99980960260298E-17	-1.47875952420743E-19
55	9.43245810939798E-19	3.36022563940607E-18	-0.620867535712928	-0.85471012274724	-0.620867535712928	-0.85471012274724	3.08363434372352E-18	3.03824557416667E-18
55.1	-3.80850866189105E-18	7.07213932566386E-18	-0.759366465154625	-0.746142319325673	-0.759366465154625	-0.746142319325673	-7.62133441467537E-18	1.38985570418059E-17
55.2	-5.00238895938127E-18	8.8585488578336E-18	-0.83551902414653	-0.624071359251061	-0.83551902414653	-0.624071359251062	-7.40244394965375E-18	-1.7442636716249E-18
55.3	-1.28989425752636E-17	-4.42397548330369E-18	-0.940440230929152	-0.470727625141607	-0.940440230929152	-0.470727625141607	-1.9182107640897E-17	-4.81312471332831E-18
55.4	-1.08808249471494E-17	-2.32052681971277E-18	-0.993494992631103	-0.369968670449645	-0.993494992631103	-0.369968670449645	-2.38990137872747E-18	1.46870481287643E-17
55.5	2.18862581811627E-18	1.14896022535606E-17	-1.05869021858473	-0.188379687995697	-1.05869021858473	-0.188379687995697	-1.38449224596551E-17	1.4412471291448E-17
55.6	-2.78006195001985E-18	-2.51207976277185E-17	-1.04708559842117	-0.04663907310074	-1.04708559842117	-0.0466390731007401	-4.84731720763919E-18	-9.99907768912198E-18
55.7	1.20381331352545E-17	1.73802067529005E-18	-1.06826720016771	0.102520200978906	-1.06826720016771	0.102520200978905	1.42225620956696E-18	-8.41565459951598E-18
55.8	4.29732074489275E-19	-2.46399329369895E-19	-1.03274363997636	0.275072219818038	-1.03274363997636	0.275072219818039	1.33964949086824E-17	1.45492794569071E-18
55.9	-9.88656125124834E-18	-1.67711237282682E-17	-0.986548390808485	0.411295669441789	-0.986548390808485	0.411295669441788	-1.54983670694293E-17	-1.81467503491467E-17
56	-4.19596803885655E-18	6.44468135369538E-18	-0.889048173888015	0.556163645714976	-0.889048173888016	0.556163645714976	2.3831344379737E-17	-5.37836065771649E-18
56.1	5.41665876464372E-18	3.19859306349754E-18	-0.832957062686234	0.672984084368816	-0.832957062686234	0.672984084368816	1.86127452722589E-17	8.06883429733463E-18
56.2	-2.25631380903604E-17	-2.23888137367576E-17	-0.728802283412697	0.801176680906867	-0.728802283412697	0.801176680906866	-1.07924666353003E-17	-2.75929588588473E-17
56.3	1.55008358307884E-17	6.15954965269593E-18	-0.551295947442613	0.896683234071542	-0.551295947442613	0.896683234071541	3.45220036735297E-17	2.99237063084633E-17
56.4	3.97375207041973E-18	-5.58355376528319E-18	-0.47708551018619	0.966545656781497	-0.47708551018619	0.966545656781498	1.41399451014853E-17	-3.62234500707337E-17
56.5	-3.70271060637842E-18	3.75076895123036E-18	-0.312972682884635	1.045823102465	-0.312972682884634	1.045823102465	-2.7517809993904E-18	-7.10799409049293E-17
56.6	-1.53716845477742E-17	-2.46309810188091E-18	-0.148916320713897	1.04447961213826	-0.148916320713897	1.04447961213826	-4.13277660235339E-17	-1.00180299646425E-17
56.7	1.10156700713876E-17	-7.85800676576963E-18	-0.0049092629459525	1.07095312580931	-0.00490926294595246	1.07095312580931	9.87495113477367E-18	8.04953654469034E-18
56.8	-2.204481079701E-18	-8.99250030001353E-18	0.130594070812493	1.08121024155812	0.130594070812493	1.08121024155812	-1.14516223875263E-17	-5.66638134921653E-18
56.9	-2.42238929092334E-17	-3.50922160805132E-18	0.292524872918849	1.02494621073687	0.292524872918849	1.02494621073687	6.82718296244683E-18	2.59217113356057E-17
57	3.69507758294089E-17	-4.40062743454327E-18	0.460859350262511	0.938495738460634	0.46085935026251	0.938495738460634	2.53384744600094E-17	-7.98106554924423E-18
57.1	-6.72684108989114E-18	-4.14581074607568E-18	0.574893997565497	0.894130752813398	0.574893997565498	0.894130752813398	-3.01932713089396E-17	1.42354129040555E-17
57.2	9.48561835133651E-18	5.72602393470546E-18	0.705004087363531	0.830078082670512	0.705004087363531	0.830078082670512	4.32715122858174E-17	-9.58149853764353E-18
57.3	2.06939648942315E-17	3.43679786846804E-19	0.852327862472312	0.645221297308465	0.852327862472313	0.645221297308465	1.73935086423392E-17	-2.96212107322211E-17
57.4	-1.30924416463102E-18	-2.15039055061474E-17	0.863622385915469	0.554341900480185	0.863622385915469	0.554341900480185	-1.13227029238394E-17	-3.34951983542074E-17
57.5	1.24933626745713E-17	-3.00500191428706E-18	0.993866996229135	0.441098069646198	0.993866996229136	0.441098069646199	-9.93896654026312E-18	-2.62724516457145E-17
57.6	-5.07014070315549E-18	1.85673275725119E-18	1.04846077527285	0.268232435103536	1.04846077527285	0.268232435103536	-8.06401793119021E-19	-2.75783516122419E-18
57.7	1.06226139402027E-17	-1.09878601946673E-17	1.03078754432344	0.115329742756937	1.03078754432344	0.115329742756938	-4.45586873279737E-18	-4.78922920252259E-17
57.8	7.5100663675498E-18	-6.46909974460529E-19	1.07520663491046	-0.0104076693454718	1.07520663491046	-0.0104076693454712	-6.36523833110346E-18	-1.79309805246247E-17
57.9	-1.16359511122607E-17	-9.77888837815822E-18	1.07664400256599	-0.147451490726587	1.07664400256599	-0.147451490726587	-1.81257117232371E-17	-3.97944237553345E-18
58	-7.88292358931501E-18	-1.51652459271278E-17	1.00209065462445	-0.359813949805809	1.00209065462445	-0.359813949805809	-4.16968575268953E-18	-3.28815895692537E-17
58.1	-1.63992328139729E-17	5.61544468351661E-18	0.929270011396606	-0.442320359853844	0.929270011396606	-0.442320359853844	-2.20568995092584E-18	7.67752148437417E-18
58.2	-2.88830524822055E-18	9.6791458197689E-18	0.894137836587801	-0.599410121466371	0.894137836587802	-0.599410121466372	-6.34201301287881E-18	-4.31355286266433E-19
58.3	-1.19531838649296E-17	-2.46473084246543E-17	0.779951140482742	-0.733886970183159	0.779951140482741	-0.733886970183158	-9.80851874940123E-18	-2.5907408882054E-18
58.4	3.39547058395546E-17	9.65801712897375E-18	0.666265220421646	-0.767595735779107	0.666265220421646	-0.767595735779108	2.40948434232152E-17	-2.15241971581479E-17
58.5	-1.04631968457173E-18	2.70889998134218E-18	0.593506457116878	-0.911842123922776	0.593506457116878	-0.911842123922776	9.60307870097129E-18	-8.74296055622524E-18
58.6	3.27827860974762E-18	6.38023934185771E-18	0.423800755532739	-0.977947319790273	0.423800755532739	-0.977947319790272	2.60453466725802E-18	5.66127484801792E-18
58.7	-2.13627526784683E-17	8.67627340070822E-18	0.275797282895389	-0.993615608864797	0.275797282895389	-0.993615608864797	-1.46389575859159E-17	7.33911571769564E-18
58.8	2.30011304871665E-17	-2.30200802994622E-17	0.154397601017798	-1.03905723994378	0.154397601017798	-1.03905723994378	7.81967044162448E-18	-7.62697707937328E-18
58.9	-9.26863700038696E-18	-1.3398531250118E-17	0.027028189861769	-1.06981833633213	0.0270281898617689	-1.06981833633213	-8.51623747457934E-18	-2.82796061342484E-17
59	-8.05315769414631E-18	9.126750211442E-18	-0.163913158143854	-1.03510552109349	-0.163913158143854	-1.03510552109349	-2.14458379314054E-17	1.72335614108908E-17
59.1	2.89153227786546E-18	1.24694052560969E-17	-0.270985330529093	-1.00577109387733	-0.270985330529093	-1.00577109387733	5.94853846050313E-18	7.42789233093522E-18
59.2	-3.84239219160228E-19	6.06822890533783E-18	-0.410697545908127	-0.997827060597934	-0.410697545908127	-0.997827060597935	1.02287636021412E-17	8.16884244383241E-18
59.3	1.42230483829662E-17	-1.3739433427139E-17	-0.572693550497018	-0.873329495565964	-0.572693550497018	-0.873329495565964	8.10690044475024E-18	-1.86538781743167E-17
59.4	-8.31195177945933E-18	9.95654476765954E-19	-0.651643005319677	-0.821468050189531	-0.651643005319677	-0.821468050189531	5.13764777751703E-18	3.15914182192413E-18
59.5	-7.87011887878517E-19	2.05822969664109E-18	-0.789877523904763	-0.7157207688763	-0.789877523904762	-0.7157207688763	1.42865563962666E-17	4.28321539485945E-18
59.6	-1.55020568532073E-17	6.93034899334857E-18	-0.866951089668442	-0.579317961180768	-0.866951089668442	-0.579317961180769	-6.67076083559328E-18	-1.32008410391859E-18
59.7	-2.40511510653178E-18	-1.53247670213171E-17	-0.950238439968017	-0.481071286369313	-0.950238439968017	-0.481071286369313	3.91581190700987E-18	2.00708582474165E-18
59.8	2.97337761929541E-18	-1.39541975273972E-17	-1.0170431704038	-0.338363672311026	-1.0170431704038	-0.338363672311026	-1.30300286211438E-18	-6.57529185711158E-18
59.9	-4.69935278459375E-18	-9.08412374947589E-18	-1.0410068805447	-0.206982263170519	-1.0410068805447	-0.206982263170519	-1.11830070020838E-18	-1.26248462241596E-17
60	-4.74318320403455E-18	1.22999650980271E-17	-1.05644898302363	-0.0367553488583294	-1.05644898302363	-0.0367553488583292	-1.37720390901517E-17	2.44103610363212E-18
60.1	-1.13169828993125E-17	-3.74578596019679E-18	-1.04308991028994	0.0939790763814825	-1.04308991028994	0.0939790763814827	-2.37416222611967E-17	2.37919261487596E-18
60.2	-7.99381323617524E-18	-8.79394199201663E-19	-1.04998579342475	0.218082433104548	-1.04998579342475	0.218082433104548	8.68147550686452E-18	-2.00803990546943E-17
60.3	-1.46859597554357E-17	8.76232956943797E-18	-0.984939629277676	0.398569430462178	-0.984939629277676	0.398569430462178	-7.89939425299203E-18	-3.93800542358363E-18
60.4	-5.88798376724622E-18	7.25105413257135E-18	-0.918305606924489	0.480200474284456	-0.918305606924489	0.480200474284457	-1.62645551450594E-18	3.97375689996967E-18
60.5	1.32443424303896E-17	-9.37231481316898E-18	-0.859298057986672	0.634149775740453	-0.859298057986672	0.634149775740453	2.7983181971166E-18	-9.48937483897343E-18
60.6	-6.47490751662463E-18	-1.1862532704517E-17	-0.759426160537306	0.738129761064471	-0.759426160537305	0.738129761064471	-4.13859341384151E-18	8.64102254252171E-18
60.7	2.1306210083962E-18	4.53276350562044E-19	-0.648416141143697	0.83826870811693	-0.648416141143696	0.838268708116929	6.12034153636057E-19	2.35725918367723E-18
60.8	1.04095412769506E-17	-5.2047353205248E-18	-0.532015297916531	0.92552287826882	-0.532015297916531	0.92552287826882	6.05425864936604E-19	-9.24559604910857E-19
60.9	-1.8719931378626E-17	7.23204428398516E-18	-0.410941085627269	0.988037389609451	-0.410941085627269	0.988037389609451	-1.26536590451297E-17	4.17707691231053E-18
61	3.95116280514604E-18	9.38308969336687E-18	-0.258796994901162	1.03526528811298	-0.258796994901162	1.03526528811298	2.19360982452641E-18	9.00549829501795E-18
61.1	4.72227866641324E-17	-1.35031769279521E-17	-0.115435292158382	1.04491791508837	-0.115435292158381	1.04491791508837	1.07148202537072E-17	-3.98815080845676E-18
61.2	-7.31350379632571E-18	2.43572404196088E-17	0.0103098108563818	1.05924786000912	0.0103098108563816	1.05924786000912	-4.55288358733342E-18	1.61507544378124E-17
61.3	8.89342625692183E-18	2.20482061137512E-17	0.160301324097471	1.06605818393911	0.160301324097471	1.06605818393911	2.50312306864215E-17	1.53688729644853E-17
61.4	-1.22721565225554E-17	1.51813702121327E-17	0.332928360632994	1.00863558190567	0.332928360632994	1.00863558190567	-3.04248413578011E-18	9.86564165127244E-18
61.5	5.69726064112417E-18	2.08164911087754E-17	0.414964000575726	0.956315329537013	0.414964000575726	0.956315329537014	-5.27862505196616E-18	6.67852383206631E-18
61.6	-8.34441866909217E-18	-6.38620492942479E-18	0.576621189896089	0.924902168193341	0.576621189896088	0.924902168193341	2.7376428441945E-19	-2.39642369914022E-17
61.7	3.04440738511533E-17	6.2109305997978E-19	0.701156203499579	0.817524084525875	0.701156203499579	0.817524084525875	6.57733862997024E-18	3.55890635225409E-18
61.8	-5.49520106391611E-18	2.24383658341925E-17	0.781129875225624	0.706893644875992	0.781129875225623	0.706893644875991	-1.67621111129179E-17	2.58630724189981E-17
61.9	-2.86038700278302E-18	-1.74726890275859E-17	0.878091319116559	0.592315880789852	0.878091319116559	0.592315880789851	7.55114064172913E-18	-1.11837945387443E-17
62	5.99424638816553E-18	8.55557335818753E-18	0.950059156799637	0.494400517227906	0.950059156799637	0.494400517227907	-7.33589384865325E-18	-9.34239205335928E-19
62.1	4.84117383206474E-18	3.75390753605856E-18	1.02649793691212	0.351353257273856	1.02649793691212	0.351353257273857	1.63670896122311E-17	1.38624678437067E-18
