# GHZ S RI R 50
50	-2.05964335131577E-17	2.41591111281557E-17	0.81901878803667	-0.578566183444704	0.81901878803667	-0.578566183444704	-9.46778545881319E-18	-9.83478341519784E-18
50.1	9.60367935289157E-18	5.68289940004926E-18	0.686921336083354	-0.695536653509187	0.686921336083354	-0.695536653509186	-1.13636061056104E-19	-9.11695830038387E-18
50.2	8.03272556051785E-18	1.39575823039953E-17	0.574555668854544	-0.791275388667268	0.574555668854543	-0.791275388667268	-1.25816930049201E-17	-1.1375846313896E-18
50.3	-4.93456488111783E-17	-3.53580879888576E-17	0.449379049580905	-0.899821687369868	0.449379049580904	-0.899821687369868	1.947884955158E-17	-3.69400099254193E-19
50.4	1.33674177588106E-17	-3.92529877447257E-18	0.247601796570853	-0.930411061900389	0.247601796570853	-0.930411061900389	-1.14540120232727E-17	-1.39736015081225E-17
50.5	-7.03659566836617E-19	1.21273041579477E-17	0.132648557170993	-0.980091907077621	0.132648557170993	-0.980091907077621	6.71167243093167E-18	-5.19010418355477E-18
50.6	-3.00581103722338E-17	5.73474352533878E-19	-0.0500408785262763	-0.978250620241625	-0.0500408785262763	-0.978250620241624	-3.82099819786881E-18	-4.62754917304614E-18
50.7	-1.12902884137538E-17	-9.7902591990907E-18	-0.194939694587395	-0.949513098718157	-0.194939694587395	-0.949513098718157	-4.28049688421399E-18	-1.71174898273089E-18
50.8	1.82062478431101E-17	-1.08964441770924E-17	-0.3634193957012	-0.930470991284901	-0.3634193957012	-0.930470991284901	1.29268583336394E-17	-1.66239143037856E-17
50.9	2.95869370141188E-18	-5.65111840749308E-18	-0.496431434742105	-0.820266340061524	-0.496431434742105	-0.820266340061524	-6.731061765203E-18	-2.15245302722624E-17
51	-1.49103482703111E-17	-1.31081661891978E-17	-0.637736493312085	-0.750854736738805	-0.637736493312085	-0.750854736738805	1.0512978687415E-17	-1.68778162017794E-18
51.1	2.60273398194312E-17	-5.20880869570775E-18	-0.746347760560113	-0.631527155698062	-0.746347760560111	-0.631527155698062	1.89833107047596E-18	-8.72532193458335E-18
51.2	-1.25007220076213E-17	-1.45589225246146E-17	-0.832707799900772	-0.496535395886986	-0.832707799900771	-0.496535395886986	-2.57409670264451E-17	-6.47755663003637E-18
51.3	-3.55856310189363E-18	-6.1380115627347E-18	-0.906213214684682	-0.357316184025479	-0.906213214684682	-0.357316184025479	9.22645481396841E-18	-2.64529680938777E-18
51.4	-4.93682119071532E-18	9.92172964245299E-18	-0.965078034822926	-0.226835675051787	-0.965078034822926	-0.226835675051787	-3.87446090825754E-18	1.71155073964459E-17
51.5	1.288269778721E-17	-2.56506845112642E-17	-0.958773451429037	-0.031441553173976	-0.958773451429036	-0.0314415531739764	-2.45373400318701E-18	-1.13596407022467E-17
51.6	1.76410979075413E-17	1.3064282344175E-17	-0.969467496429653	0.0880098218963559	-0.969467496429653	0.0880098218963558	4.219083825806E-18	-6.62147861473253E-18
51.7	1.30565307771156E-17	-1.67388280030117E-17	-0.957374980834973	0.243557483869666	-0.957374980834973	0.243557483869666	-2.28561783195924E-18	5.09777355672527E-18
51.8	-1.0198511134819E-17	-1.43498501614292E-17	-0.844987074000703	0.397017613523012	-0.844987074000703	0.397017613523012	-5.36958441822594E-17	-2.88127519778775E-17
51.9	-2.89367275788791E-17	1.56696313181851E-17	-0.844956324371863	0.52043713130467	-0.844956324371863	0.520437131304669	4.42795173140529E-17	1.08308261620341E-17
52	-7.01724672741657E-18	-4.24227630010936E-18	-0.689889582120599	0.665050845459352	-0.689889582120598	0.665050845459352	3.27203929168568E-17	2.05268747955734E-17
52.1	-1.53192683470835E-17	-6.55259103621935E-18	-0.581680757367132	0.747837836022759	-0.581680757367132	0.74783783602276	-3.25085550584506E-17	1.74919772991311E-17
52.2	-1.00984106225303E-17	-7.34235473760965E-19	-0.484294783505542	0.83095916160009	-0.484294783505543	0.83095916160009	-4.55695243050463E-19	1.54734559271899E-17
52.3	6.1394508560003E-18	2.64722374321217E-17	-0.350965677396903	0.895948142749511	-0.350965677396903	0.895948142749512	3.33072425969295E-17	8.93994271281997E-18
52.4	4.73096630496378E-18	1.97329821243858E-18	-0.194818492577416	0.973152802395729	-0.194818492577416	0.973152802395728	-6.17640185912247E-17	-2.94646203691569E-17
52.5	-3.12224452927594E-18	-2.23078536381022E-17	-0.0555459159740925	0.91287927634093	-0.0555459159740919	0.91287927634093	-1.30775845578274E-17	-4.25268122321482E-17
52.6	1.56110637685303E-17	-3.19517250335698E-17	0.0719831489260091	0.980265021811056	0.071983148926009	0.980265021811057	-4.27283417942893E-17	-1.40197788180626E-17
52.7	4.1457803415691E-17	2.20718468205357E-17	0.287253620300227	0.953638771828571	0.287253620300227	0.953638771828571	1.62454553390438E-17	-6.63514254617787E-18
52.8	-8.06121285209184E-18	-9.40184512265352E-18	0.331493375128493	0.774913907274421	0.331493375128493	0.774913907274422	-1.78245492363509E-17	-1.7021235321672E-17
52.9	-8.51724414280454E-18	4.98874542098759E-18	0.590566185552305	0.888396094928356	0.590566185552306	0.888396094928356	6.6249712052452E-17	-1.50103021446452E-17
53	-2.21621120268903E-17	8.15564054078703E-18	0.613757023644029	0.667611440197244	0.61375702364403	0.667611440197244	8.15557093027136E-18	5.1607835567473E-18
53.1	1.34759233746294E-17	4.29117384949099E-18	0.721945336388354	0.633668022565949	0.721945336388354	0.633668022565949	1.42110528673153E-17	-1.47733870943197E-17
53.2	-2.25742545168381E-18	-5.74625903071132E-18	0.867031721046441	0.504851943037514	0.86703172104644	0.504851943037514	2.44831338192632E-17	-2.85247803217395E-18
53.3	5.27784598907092E-18	-2.02149437839498E-19	0.876392824544633	0.370377186631677	0.876392824544633	0.370377186631678	-1.15792533967457E-17	3.31499075160708E-17
53.4	0	0	0.915865795034647	0.165301086808771	0.915865795034646	0.165301086808771	-2.2479683355216E-18	2.32165579617664E-17
53.5	-3.12082133183174E-18	2.50410355516071E-17	0.972395519840643	0.125418024199858	0.972395519840643	0.125418024199858	5.67455765965859E-17	7.12762789954793E-18
53.6	-1.8064629503779E-17	6.61787850832877E-18	0.970839270482086	-0.0871081868756236	0.970839270482087	-0.0871081868756239	2.24045541233285E-17	3.48413220916423E-18
53.7	9.34892623928819E-19	1.64363894547229E-17	0.876423317329221	-0.251858690316136	0.876423317329221	-0.251858690316136	2.93582821170665E-17	3.31969617330539E-19
53.8	1.0653153112003E-17	-3.60425185498014E-18	0.971464796328385	-0.305856991584286	0.971464796328385	-0.305856991584286	7.07320504717184E-18	3.83766665091684E-18
53.9	9.78777751780795E-18	-1.30173246720728E-17	0.82770655144815	-0.493325163751147	0.827706551448151	-0.493325163751147	-8.65142342674446E-18	-1.10885721354602E-17
54	7.97330301707528E-18	-1.0014954805332E-17	0.721255908518143	-0.609097479774347	0.721255908518142	-0.609097479774346	-1.01227355192113E-17	-1.4264154552057E-17
54.1	-2.98939962734162E-18	5.37857298275346E-19	0.641138141823097	-0.676500125595926	0.641138141823098	-0.676500125595927	-1.77343271857634E-17	6.98915214611489E-18
54.2	1.6091668774761E-17	-8.35637035732322E-18	0.5444493002429	-0.777718135223319	0.5444493002429	-0.777718135223319	-1.54053387845766E-19	-4.15417506666699E-17
54.3	-1.29345117874586E-18	-1.95568171807799E-17	0.37355660282614	-0.877590895103036	0.37355660282614	-0.877590895103037	6.56372085488461E-18	6.82433013111608E-18
54.4	5.33225992745827E-18	-1.93356749512399E-18	0.310417848885416	-0.845429522452007	0.310417848885416	-0.845429522452007	2.01569397600649E-17	2.34419989953645E-18
54.5	1.17604941383789E-17	-4.29709910248656E-18	0.118620166197617	-0.993409962581116	0.118620166197617	-0.993409962581116	-7.67215145787963E-18	-1.25781626744788E-17
54.6	-3.15889811198093E-18	9.05657889390587E-18	-0.0272913867013806	-0.921903026464169	-0.0272913867013807	-0.921903026464168	6.49237887782596E-18	-1.51670409289532E-17
54.7	3.03750314881172E-18	-4.25619100167524E-18	-0.133581620326317	-0.961069476155519	-0.133581620326316	-0.961069476155518	7.72671664357585E-18	6.29771221013879E-18
54.8	2.54282305720365E-18	6.26745273590043E-18	-0.301465459780359	-0.924531950983309	-0.301465459780359	-0.924531950983309	-3.61721886691242E-18	6.08853061354822E-19
54.9	-2.51010258647519E-18	-3.93481663167151E-18	-0.434425916801624	-0.841201284630577	-0.434425916801624	-0.841201284630577	-1.91443587881741E-17	5.47763742906679E-18
55	1.33081201793287E-18	-7.64759969901196E-18	-0.538563458550759	-0.794860749140195	-0.538563458550759	-0.794860749140196	8.89889192346646E-18	-1.36664170591131E-17
55.1	3.8244667597177E-18	5.28129076045536E-18	-0.668658054006146	-0.701540660719306	-0.668658054006146	-0.701540660719305	1.32152835058444E-17	-3.44344070856606E-18
55.2	1.44333293532057E-18	2.85135076625614E-18	-0.738851011453556	-0.589690805770843	-0.738851011453556	-0.589690805770843	-5.90989787072235E-18	-5.01517659721202E-18
55.3	4.88200816040241E-18	8.89334153355802E-18	-0.841433400697938	-0.454494258602416	-0.841433400697938	-0.454494258602417	5.61013423263423E-18	1.43444225526728E-17
55.4	-1.10054799372292E-17	-7.05115940816375E-18	-0.886233932555513	-0.366968558044862	-0.886233932555512	-0.366968558044862	-2.14444146848351E-17	-4.50936992039066E-18
55.5	9.05544255007758E-18	4.07970676186719E-18	-0.955053562787596	-0.205205840520168	-0.955053562787596	-0.205205840520169	2.325660867011E-17	2.09172527294259E-17
55.6	8.66410703642497E-20	3.16690111851903E-18	-0.944409432887316	-0.0747622618657887	-0.944409432887315	-0.0747622618657889	-2.09518180515859E-18	-6.64000775514105E-18
55.7	-5.74370277344185E-18	7.23580831745636E-18	-0.968685817708629	0.0554965983742106	-0.968685817708629	0.0554965983742103	6.80492010755247E-18	2.88075594193921E-17
55.8	4.58575653154267E-19	-5.61479649647182E-18	-0.942966903142407	0.214126914798388	-0.942966903142407	0.214126914798388	1.62781807169259E-17	-1.85851786964305E-17
55.9	1.55380714070517E-18	-5.61060524666601E-18	-0.90417959161139	0.336533870507948	-0.90417959161139	0.336533870507948	5.21902989042382E-18	-8.77772866018624E-18
56	-1.11148372280783E-17	-1.17959934488107E-17	-0.819267681815049	0.472969139661542	-0.819267681815048	0.472969139661542	-9.61879781074344E-18	-1.96898928044772E-18
56.1	-1.21516026188633E-17	1.65360087692442E-17	-0.773927868110199	0.57468447684159	-0.773927868110199	0.574684476841591	-3.30476295510526E-17	3.48833716562711E-18
56.2	8.89288134984916E-18	2.13841486197758E-17	-0.68645827451212	0.693557639554001	-0.686458274512119	0.693557639554	0	0
56.3	1.02390312904285E-18	4.1881614970195E-19	-0.525855099649633	0.790779666624898	-0.525855099649633	0.790779666624898	-7.02849843202774E-18	-2.0803156881768E-17
56.4	1.31070694432619E-17	3.21697853149843E-18	-0.465912146884158	0.847997207863481	-0.465912146884159	0.847997207863481	2.38436341805498E-17	1.17880842852355E-17
56.5	9.95958707327938E-19	-9.35854241195822E-18	-0.322773471390826	0.928174232274798	-0.322773471390826	0.928174232274798	3.06029774023566E-18	-1.46676380851096E-17
56.6	-1.72791294562544E-18	1.73788922760765E-19	-0.170994588243237	0.930683267127543	-0.170994588243237	0.930683267127543	-1.50905458600526E-17	-3.89753312328414E-17
56.7	-2.4944689932641E-17	8.85202791058507E-18	-0.0458864569022837	0.958997676423027	-0.0458864569022839	0.958997676423027	-6.9776197844295E-18	5.75623552545984E-18
56.8	-7.76136061925506E-18	1.52905975752957E-17	0.070586586029069	0.972160853022709	0.0705865860290693	0.972160853022708	-4.2139913807253E-18	-6.04719567709897E-18
56.9	1.47859867421892E-17	1.35891108028152E-18	0.220376178675681	0.926679869072491	0.220376178675681	0.92667986907249	9.15267620113134E-18	6.73641827789826E-19
57	-1.03764334251101E-17	-8.90008342089541E-18	0.378948279868625	0.85537755801722	0.378948279868625	0.855377558017221	-5.93638812438706E-18	-1.15348960748434E-17
57.1	8.00675607583023E-21	6.29071005428656E-18	0.47658223560983	0.820034260531241	0.47658223560983	0.820034260531242	1.66331294337423E-17	-1.02798835046064E-17
57.2	-2.54545390803288E-19	-8.54975699602303E-18	0.591688952711716	0.771019410844763	0.591688952711715	0.771019410844762	2.27808512961839E-17	1.62794185335123E-17
57.3	2.03481163109801E-17	-3.33190582657195E-17	0.741310355095784	0.610026963686168	0.741310355095784	0.610026963686168	1.77472969202934E-17	-5.07313950891136E-17
57.4	-5.59411457521061E-18	3.52776059677498E-18	0.743616785284462	0.523519469554	0.743616785284462	0.523519469554	3.30624394223488E-18	-2.48054703883843E-17
57.5	-9.13821743918636E-18	6.7123887457071E-19	0.865772343053419	0.436605919917025	0.865772343053419	0.436605919917025	1.37857945062295E-17	-5.57794274641742E-19
57.6	2.05701301457605E-17	-1.73867526698281E-17	0.924070862686823	0.283270377316546	0.924070862686824	0.283270377316546	7.34598813016649E-18	-2.2422000284149E-17
57.7	6.81814297976841E-18	5.25956064434076E-18	0.910054618269582	0.141402163695679	0.910054618269582	0.141402163695679	1.27867736081171E-17	-3.53048422829069E-17
57.8	2.17384579308645E-18	2.55651385612076E-18	0.954169917182068	0.0385314179943145	0.954169917182068	0.0385314179943144	-8.92892147080072E-19	1.10375058481502E-17
57.9	1.93570706359567E-18	5.96008775680484E-19	0.960187710151021	-0.0793748159718207	0.960187710151022	-0.0793748159718205	2.0717406558171E-17	-1.28353190623285E-17
58	1.72961022103612E-18	-2.37010983546671E-19	0.906398260379169	-0.280297861215608	0.90639826037917	-0.280297861215608	4.49444547720206E-18	-4.4924743385648E-18
58.1	-3.06909502488857E-18	-2.99790235668615E-18	0.836796328662568	-0.352378224413271	0.836796328662567	-0.352378224413271	-2.8966555621235E-17	-1.23014127043192E-17
58.2	1.68121473912883E-17	-1.96474846970636E-17	0.818663627664881	-0.489822578481829	0.818663627664882	-0.489822578481829	9.94972085296532E-18	-1.4370698150873E-17
58.3	-2.81595905821793E-18	2.722847322956E-18	0.723174466920982	-0.616632837922375	0.723174466920982	-0.616632837922375	2.38211204657377E-18	9.90190675671007E-18
58.4	3.10482775186715E-17	1.51261347980682E-17	0.615598873232708	-0.644592614239024	0.615598873232708	-0.644592614239023	5.38008624620582E-18	-3.00695685452454E-18
58.5	2.87482245357266E-19	1.16412192677782E-17	0.568746589432569	-0.77368902938644	0.568746589432569	-0.773689029386439	-6.15553647947809E-18	-8.96884111298398E-18
58.6	2.82402108405228E-18	1.13456041354892E-17	0.418461452689605	-0.842541587889233	0.418461452689605	-0.842541587889234	-8.22602778072255E-18	1.20187265007294E-17
58.7	1.12637952644369E-18	-2.70770254072817E-18	0.28451229090972	-0.859704118502355	0.284512290909721	-0.859704118502355	-1.46541764115653E-18	-9.95155957821878E-18
58.8	-5.87513736416173E-18	1.19107768134977E-17	0.184333449991974	-0.902979890759081	0.184333449991974	-0.902979890759081	4.7722357833395E-19	-2.99974823313813E-18
58.9	1.05025468420864E-17	1.10740408484195E-17	0.0788744128607449	-0.934660715131719	0.0788744128607449	-0.934660715131718	3.02428066945325E-18	-4.13028290879367E-18
59	-3.62098055858454E-18	4.1506596451026E-18	-0.0964169594712514	-0.915111480745562	-0.0964169594712516	-0.915111480745563	-1.20370937868829E-17	-3.63001949545941E-18
59.1	-6.96398114755952E-18	3.04748243610108E-17	-0.186973535817922	-0.889750238790022	-0.186973535817922	-0.889750238790023	-1.25354012401625E-17	3.55376316244648E-18
59.2	4.7559576772432E-18	3.64812143128661E-18	-0.303905585564915	-0.893276686062937	-0.303905585564915	-0.893276686062937	4.11957460262853E-18	-9.77648794741875E-19
59.3	-4.70930634898423E-18	4.62374072167075E-18	-0.460103414816925	-0.79021762039931	-0.460103414816925	-0.79021762039931	5.39529464144828E-18	-6.90197915112422E-19
59.4	-1.15235806955029E-17	3.97833937884565E-19	-0.522642791119756	-0.74743530965217	-0.522642791119755	-0.747435309652169	-1.16765828185308E-17	-2.73067176675672E-18
59.5	6.64180015035407E-18	5.78285853430808E-18	-0.651117565254201	-0.665360901506517	-0.651117565254201	-0.665360901506517	1.13847575721824E-19	-5.26071754115468E-18
59.6	1.11992803023767E-17	-1.28779806657888E-17	-0.725172491239019	-0.546809765331549	-0.725172491239019	-0.546809765331549	3.5351584249095E-18	-8.45297944131267E-18
59.7	-6.39980563380433E-18	-2.37477868698206E-17	-0.799375964894309	-0.469754586984081	-0.799375964894309	-0.469754586984082	-2.32564272323105E-18	-7.23976056812396E-18
59.8	-8.6307817985923E-18	-4.13366029033712E-18	-0.865848677665283	-0.35006075667513	-0.865848677665283	-0.35006075667513	5.38515209367224E-18	2.04865708427266E-18
59.9	-1.47672578421048E-18	-1.51717173488804E-17	-0.89017198358093	-0.237336749439228	-0.89017198358093	-0.237336749439228	-3.96080211632508E-18	-5.66899707411161E-18
60	1.33252930566153E-18	8.46602127826416E-18	-0.914530941943608	-0.088367717825997	-0.914530941943608	-0.0883677178259967	1.24806020331059E-17	1.25057372068872E-17
60.1	-9.56620943853871E-18	-5.19729662203121E-18	-0.906472307987244	0.0244681327392518	-0.906472307987243	0.0244681327392519	2.40588421882011E-18	4.86986786040798E-18
60.2	-1.23526806711853E-17	-1.22392186092834E-18	-0.919451950956264	0.12515461961343	-0.919451950956264	0.12515461961343	-1.10787428504417E-17	1.31485671271239E-17
60.3	-7.69942464851767E-18	1.68006582186842E-17	-0.875025313197699	0.290814604511817	-0.875025313197699	0.290814604511817	2.65514091199439E-18	-1.42792473412935E-19
60.4	-2.6520926175401E-18	-6.15622540523625E-18	-0.815330901460948	0.359328397008147	-0.815330901460948	0.359328397008147	-6.06924912507256E-18	5.15858713564328E-19
60.5	-1.73264447327399E-17	1.96326400989582E-17	-0.778579574967659	0.495628738329815	-0.778579574967659	0.495628738329815	-2.96835603285754E-18	2.44302469467712E-19
60.6	-1.14624111772581E-17	-1.03558629124245E-17	-0.697043759667624	0.589855307692253	-0.697043759667624	0.589855307692253	5.47588599880088E-18	-6.41453462690246E-18
60.7	-5.80139521312443E-18	6.5026733693637E-18	-0.607473721672816	0.682155549392063	-0.607473721672816	0.682155549392063	-7.93603702642342E-19	-6.82912046064676E-18
60.8	7.23101189434715E-18	-1.24463254602874E-17	-0.51387270120342	0.76324978577522	-0.51387270120342	0.76324978577522	1.43033458292967E-17	-2.83528399485432E-18
60.9	9.07202436826886E-18	-8.75679803204945E-18	-0.414790484041376	0.821994373141757	-0.414790484041376	0.821994373141757	-2.11076423673212E-18	7.0433712313742E-18
61	-8.69843835497245E-18	8.1317410766594E-18	-0.286132203912103	0.872614766249408	-0.286132203912103	0.872614766249408	-9.73700551424151E-19	-9.7926408941921E-18
61.1	-1.76549191349518E-17	8.77315059345145E-18	-0.162406526372658	0.887025480011923	-0.162406526372658	0.887025480011923	1.5461111730244E-17	-6.96444183751856E-18
61.2	1.51197823394845E-17	5.40655430978208E-18	-0.0592571206755679	0.905002196771511	-0.0592571206755674	0.905002196771512	2.5871934397703E-18	-3.25765534577206E-18
61.3	1.16404953361599E-17	-2.43104278069537E-18	0.0662800154790759	0.922399702463612	0.0662800154790762	0.922399702463612	1.29803586740492E-17	-9.38266926119992E-19
61.4	-2.06663681114701E-17	-2.80144752632738E-18	0.22302913335245	0.884399059179434	0.22302913335245	0.884399059179435	-2.00853313578262E-17	3.0323754685093E-18
61.5	-1.80661606796585E-17	-2.7457767676244E-17	0.289556729423461	0.838389201095216	0.289556729423461	0.838389201095216	-1.29390124399886E-17	-1.76033057616565E-17
61.6	9.05036202597099E-19	1.17813353353844E-17	0.428228663001715	0.829904666739121	0.428228663001715	0.829904666739122	-6.71683918763056E-19	-5.58241687660495E-18
61.7	6.35112615113222E-18	4.35332403255293E-18	0.543768008437678	0.744723806356616	0.543768008437678	0.744723806356616	-1.15166015920409E-18	1.18039087473238E-18
61.8	-5.53857409273787E-18	-1.00833635472231E-18	0.616524883683155	0.651877887981488	0.616524883683155	0.651877887981488	-9.56609882503924E-18	-4.03043507559531E-18
61.9	2.77251650999867E-18	5.70584150355533E-18	0.706654197602895	0.561690406119163	0.706654197602895	0.561690406119163	8.13541587438516E-18	-1.18596841800109E-17
62	9.28524656955058E-18	2.75733471435929E-18	0.770297891545229	0.486510924490945	0.770297891545229	0.486510924490945	-1.12758518436131E-18	-8.2338774105547E-18
62.1	3.19270609954235E-18	-9.19393704396586E-19	0.847532378436454	0.371778732437959	0.847532378436454	0.371778732437959	1.52865711523372E-17	-9.44565570242285E-19
