# GHZ S RI R 50
50	-1.58466065449011E-17	5.11772940879804E-18	0.803674173490862	-0.568971294063923	0.803674173490862	-0.568971294063924	-7.82866117983216E-18	-8.28015306825325E-20
50.1	3.1234385860947E-17	9.34072847226346E-18	0.675963316391593	-0.681332409495138	0.675963316391594	-0.681332409495138	-7.85663020076041E-18	1.68408815581122E-17
50.2	8.02957210814408E-18	4.22143284445392E-17	0.56779284523059	-0.778088866271111	0.56779284523059	-0.778088866271111	-7.17290696197603E-18	3.98770326836535E-18
50.3	-1.9418874350321E-17	-1.04774853424158E-17	0.442170779481667	-0.888201605707023	0.442170779481667	-0.888201605707022	-7.17582601057299E-18	-9.99650875158651E-19
50.4	1.63923021638452E-17	-2.18918983732133E-17	0.247298237335092	-0.913185126351247	0.247298237335092	-0.913185126351247	-4.7437885624253E-18	-7.26878169299477E-18
50.5	-1.15540913802439E-18	-2.04359494174342E-18	0.132058867960438	-0.969272765442901	0.132058867960438	-0.969272765442902	1.48396112608147E-17	2.39733407685172E-18
50.6	-2.74630445049288E-17	2.69750606659898E-18	-0.0473365544223545	-0.966176820846308	-0.0473365544223545	-0.966176820846308	-5.32245010085785E-18	-4.37038913617586E-18
50.7	5.28509009034442E-18	-2.04339014372147E-17	-0.189783807134065	-0.941113803503203	-0.189783807134065	-0.941113803503203	9.84846192977877E-18	2.79746292974768E-18
50.8	5.37804708112816E-18	8.15069336506679E-19	-0.360475743431786	-0.921664355937253	-0.360475743431787	-0.921664355937254	1.36377963646483E-17	4.7505697714336E-18
50.9	2.12001157172818E-18	-6.3994895365516E-19	-0.48788908029043	-0.815251347623489	-0.48788908029043	-0.815251347623489	5.62000340614803E-18	-5.3986659827381E-19
51	-4.29373617285276E-18	-2.4665425643673E-17	-0.631906658961812	-0.745907042397809	-0.631906658961812	-0.745907042397809	-1.2537012989979E-17	4.6338800585801E-18
51.1	1.10382653286011E-17	-3.45974242784442E-18	-0.739933408372208	-0.62892541875165	-0.739933408372207	-0.62892541875165	8.07275997280523E-18	-1.31799316663098E-18
51.2	-1.24113909147397E-17	-6.17553584054532E-18	-0.826208123956041	-0.496349946275644	-0.826208123956041	-0.496349946275644	-4.35912872048558E-18	-1.33199049343417E-18
51.3	-1.44083183542753E-18	1.48899071049972E-17	-0.900924689038373	-0.357916779740814	-0.900924689038373	-0.357916779740814	6.98064479546E-18	2.10339863533492E-18
51.4	7.97097982324662E-18	-3.62491446296148E-18	-0.963403659035795	-0.226423888017556	-0.963403659035795	-0.226423888017555	1.0294597501807E-17	-5.31536475367446E-18
51.5	9.45214818226965E-18	7.09582914461275E-19	-0.95362978142066	-0.035744715320117	-0.95362978142066	-0.035744715320117	9.92520345857717E-18	-5.59184920705183E-18
51.6	1.36300825231989E-17	2.58106884567304E-18	-0.970333760682353	0.0860160046279515	-0.970333760682353	0.0860160046279515	6.24874826426472E-18	-1.53306287231102E-17
51.7	1.26518472390538E-17	-7.84887598489296E-18	-0.959048569048125	0.243958431686722	-0.959048569048125	0.243958431686722	3.60982172497772E-18	-2.97010708721829E-20
51.8	-4.9574271130177E-18	1.72222138229944E-18	-0.84787091633229	0.390100582440175	-0.84787091633229	0.390100582440175	3.08153685599021E-17	1.04812920740433E-17
51.9	-1.23202930347348E-17	1.44135465620115E-18	-0.849277309200316	0.524502136112451	-0.849277309200316	0.524502136112451	9.26773653773804E-18	1.23736745844456E-17
52	3.98900884993843E-19	8.79035631909589E-18	-0.69285312100355	0.66214919093568	-0.69285312100355	0.66214919093568	-6.23142121696537E-18	-3.27309548487493E-18
52.1	-1.5195826160068E-17	-2.77233530117011E-18	-0.587858840831096	0.747345644542183	-0.587858840831096	0.747345644542184	3.46272264851763E-18	2.09467141406308E-17
52.2	-1.33062327440003E-17	-3.75914124801085E-18	-0.49027252373874	0.836058675995369	-0.490272523738739	0.836058675995368	-7.58794442382747E-18	-1.02257964118414E-17
52.3	-1.54970751126981E-18	-1.15219094067462E-17	-0.356311019253972	0.903386752060557	-0.356311019253972	0.903386752060558	-3.21206579590361E-17	-2.55282471509913E-17
52.4	-4.58385950428692E-18	-7.05333013145864E-18	-0.19475303024365	0.980332177301721	-0.19475303024365	0.980332177301721	-8.77983486992329E-17	-3.25666622918256E-17
52.5	2.41895640593135E-17	-1.16534982400192E-17	-0.0643719361743555	0.92435353802812	-0.0643719361743553	0.92435353802812	-3.51101297099033E-18	-1.25226265562896E-17
52.6	2.89706734083626E-18	-3.93071134028476E-18	0.0748725364941707	0.994782642335071	0.0748725364941707	0.994782642335072	-4.0708261086864E-17	7.90880866697126E-18
52.7	2.03252584701658E-17	-1.35860918300812E-17	0.291334363557139	0.960095744776183	0.291334363557139	0.960095744776184	-5.80721670576164E-18	3.88174052288035E-18
52.8	3.9235317078144E-18	-1.80809937836273E-17	0.322609060850569	0.797149201809362	0.322609060850569	0.797149201809362	-2.04297717424717E-17	1.02805571097519E-18
52.9	1.566336583514E-17	-6.82202317593358E-18	0.606605249118017	0.890333560142343	0.606605249118016	0.890333560142343	-2.99805186814315E-17	-1.17884568789419E-17
53	4.23827445250715E-18	1.91777825142517E-18	0.616718806516631	0.683870869715579	0.616718806516631	0.683870869715579	1.96066937941199E-18	9.63129558605714E-18
53.1	8.4343923664233E-18	1.54682989729288E-19	0.737236163711664	0.646765241736128	0.737236163711664	0.646765241736128	2.06117952678557E-17	3.18354454166825E-18
53.2	-1.72993077609273E-18	-8.36273321674609E-18	0.882797158032636	0.50842654416421	0.882797158032636	0.50842654416421	4.62062818582084E-17	-2.87253303219231E-18
53.3	-2.67801565605766E-18	4.30513369536715E-18	0.89516907543125	0.379239313247781	0.895169075431249	0.379239313247781	0	0
53.4	4.88324015042369E-18	2.32174627490653E-19	0.927981815020059	0.173307004513288	0.927981815020059	0.173307004513288	2.13005169598717E-17	4.92816048129783E-18
53.5	8.113000020634E-18	-3.40260796158354E-18	0.99949178835839	0.123754863756163	0.99949178835839	0.123754863756163	5.54832160469711E-18	-4.18964772823325E-19
53.6	-1.17103226475112E-17	7.39963499390586E-18	0.990101036637445	-0.090863976073441	0.990101036637445	-0.090863976073441	-1.2336428780996E-17	2.75715655979977E-17
53.7	-2.39983792247834E-18	-9.03766300557537E-18	0.894628940779551	-0.249205988894062	0.894628940779551	-0.249205988894062	4.40586762098009E-19	-2.88788645752208E-18
53.8	-1.07980705056539E-17	7.93517118512548E-18	0.998189477025716	-0.327329405339518	0.998189477025716	-0.327329405339518	8.12189312125684E-18	-8.34415680234383E-18
53.9	9.63394452158303E-18	7.08566533875857E-18	0.847267222893298	-0.507038902921064	0.847267222893297	-0.507038902921064	-1.52548203740574E-17	-2.88115326647282E-17
54	-1.36301013928332E-17	-3.57215733226809E-17	0.739988262837524	-0.623508121414875	0.739988262837523	-0.623508121414874	-1.45777980789909E-17	-2.06390008975909E-17
54.1	-1.77834826881096E-17	-1.87853785319059E-18	0.662159073407625	-0.697885580795892	0.662159073407626	-0.697885580795893	1.27418746855756E-17	-2.27758732384928E-18
54.2	1.26469997041681E-17	7.76896072872772E-18	0.560348904725925	-0.804447542256458	0.560348904725925	-0.804447542256458	9.58761184428956E-18	-5.32037052317543E-18
54.3	2.19811545647384E-17	1.80152651183544E-17	0.3826324395805	-0.900395959048938	0.3826324395805	-0.900395959048938	3.41424769049104E-18	5.93357120112576E-18
54.4	4.75521174167455E-17	1.03611915145055E-17	0.325053709276729	-0.881790553768949	0.325053709276729	-0.881790553768948	3.51155988964205E-17	-5.0599838545769E-17
54.5	2.19225741750875E-18	-1.38659677908109E-18	0.113610835372089	-1.02197940937632	0.113610835372089	-1.02197940937632	-2.19225741750875E-18	1.38659677908109E-18
54.6	9.34212049825667E-18	1.20996852886428E-17	-0.0262947924764089	-0.952364793132503	-0.0262947924764086	-0.952364793132503	6.72318360414648E-18	7.5134317841241E-18
54.7	1.04752901204037E-17	-8.62710604061052E-18	-0.145561298929201	-0.995348035373094	-0.145561298929201	-0.995348035373093	3.04438511988178E-18	-1.73987976009453E-17
54.8	3.49840489227803E-19	1.92928663994625E-18	-0.317732252789389	-0.953945743801986	-0.31773225278939	-0.953945743801986	-8.42095869759527E-18	6.30952228416445E-18
54.9	-5.32041787259306E-18	-4.10126240924705E-18	-0.451772671558028	-0.8692314083663	-0.451772671558028	-0.869231408366301	-8.98619813961327E-18	-1.0377978924887E-17
55	-8.39229011617934E-19	-1.46527992759674E-17	-0.564779553409297	-0.822167431471133	-0.564779553409298	-0.822167431471133	-5.51515747317366E-18	-4.89359148691447E-18
55.1	1.03813260186362E-17	4.07845574161089E-18	-0.698511838692681	-0.722644076411543	-0.69851183869268	-0.722644076411543	8.69696459461352E-18	2.04875916052282E-18
55.2	1.03156204223287E-18	-1.1089099968854E-18	-0.772240274170341	-0.610103313348743	-0.772240274170342	-0.610103313348744	9.64888360966194E-18	1.15217308735364E-17
55.3	-7.07497108901646E-18	1.09083610764522E-17	-0.875248340300527	-0.466998769830156	-0.875248340300528	-0.466998769830155	-1.08462175523553E-17	1.75468820898558E-17
55.4	4.98331505625444E-18	3.60534945013674E-18	-0.928463064284037	-0.375267114241645	-0.928463064284038	-0.375267114241646	-2.37537710711962E-18	4.96217316152578E-18
55.5	6.10690972640789E-18	-5.16736198040352E-18	-0.994727997548466	-0.20417672899686	-0.994727997548466	-0.204176728996861	2.70116211410744E-18	-1.53846801286151E-17
55.6	-6.30014663957202E-18	-1.12125070115208E-17	-0.986682881201252	-0.0715505155101536	-0.986682881201252	-0.0715505155101531	-2.62508981705176E-18	-5.52971135988046E-18
55.7	4.0307029147072E-19	6.24538644726329E-18	-1.01164466541106	0.0687745647092127	-1.01164466541106	0.0687745647092128	5.39718970545626E-19	-1.08744864297488E-17
55.8	3.54865031076885E-18	-3.7599852968386E-18	-0.982003728711754	0.232798155257994	-0.982003728711754	0.232798155257994	5.53710657746193E-18	3.15021342403319E-18
55.9	3.80294289126049E-18	-1.29491368230319E-17	-0.942492290872317	0.362033085888883	-0.942492290872317	0.362033085888884	1.16843859215081E-17	-2.00520674102935E-17
56	1.25155966065523E-17	8.93803279883182E-18	-0.853397559124764	0.500761499811239	-0.853397559124764	0.500761499811239	7.58740251459851E-18	3.48170607513802E-19
56.1	-1.21632264990565E-17	4.00754810624887E-18	-0.805155139216142	0.612764289788981	-0.805155139216143	0.61276428978898	-3.74767156386492E-17	-1.77310270178497E-17
56.2	-7.38923912237076E-19	-1.99788261937322E-17	-0.710279170575622	0.737034730650321	-0.710279170575621	0.73703473065032	6.72762849791201E-18	-1.47987550180733E-17
56.3	-3.46486956383951E-19	6.6816245918275E-18	-0.543638573759093	0.830712082900501	-0.543638573759093	0.830712082900501	1.11486680739284E-17	2.12511606035984E-17
56.4	1.00708988384295E-17	-6.80305859006308E-18	-0.477977952015476	0.899697150727145	-0.477977952015476	0.899697150727145	2.12926915258842E-17	-2.95932451970674E-17
56.5	1.18808341773412E-18	-3.14368863075633E-18	-0.324364503597286	0.97940252323591	-0.324364503597286	0.97940252323591	-1.46073306869991E-17	-5.11377777627522E-18
56.6	8.50558944699069E-18	-3.35477987069751E-18	-0.170017348530141	0.981200129423977	-0.170017348530141	0.981200129423978	2.43146965438364E-18	-1.19185506169737E-17
56.7	9.98572138817531E-18	-2.86427292322212E-18	-0.0351113575996935	1.01095569517842	-0.0351113575996933	1.01095569517842	3.84183854042589E-17	-1.51218499019818E-17
56.8	2.46497490664064E-18	3.29228851963202E-18	0.0920500528129512	1.02558057546538	0.0920500528129512	1.02558057546538	-1.71530287524834E-18	-1.46430492428124E-17
56.9	1.07782253092217E-17	1.81576634739946E-17	0.246163774380007	0.97615890753715	0.246163774380007	0.97615890753715	-1.57775210914205E-17	-1.48669900804335E-18
57	8.25058334174698E-18	-1.74545083883631E-18	0.407456065533828	0.897920026350169	0.407456065533828	0.89792002635017	3.55410176374348E-17	-4.76052488730692E-18
57.1	1.22497339228146E-17	-1.92165046808263E-17	0.516099158132956	0.860925418830376	0.516099158132956	0.860925418830376	-1.83597318705567E-18	-1.88162286520976E-17
57.2	-2.06646969655611E-17	3.74622910773882E-18	0.641390734107167	0.805230903907751	0.641390734107167	0.805230903907752	-2.13550479939498E-17	2.64472305472356E-18
57.3	1.36552233567002E-17	-2.82683855597413E-17	0.785576268791964	0.631912312791937	0.785576268791965	0.631912312791937	7.18783337932811E-18	-4.12909742340439E-17
57.4	2.59357715172538E-18	-1.48947312120135E-17	0.796784982822421	0.549439312912628	0.796784982822421	0.549439312912628	-6.52939360722722E-18	3.76887501071123E-17
57.5	4.98319238310273E-18	7.73287362833825E-18	0.925328171639561	0.446235761610728	0.925328171639561	0.446235761610728	4.43407116281984E-17	-8.96115198471078E-18
57.6	-2.01256683571224E-19	2.01476580663783E-18	0.981510981859902	0.283943144151937	0.981510981859903	0.283943144151937	-2.41947814470587E-18	-1.65206398202451E-17
57.7	-1.59043850423351E-18	-4.70712235873507E-19	0.967719591343486	0.140199254018076	0.967719591343486	0.140199254018076	-9.67101733333192E-18	-3.74573169151522E-17
57.8	9.33939261035269E-18	1.32485656372779E-18	1.01515567921425	0.0233348720717537	1.01515567921425	0.0233348720717536	1.07205550352285E-17	4.9311654566714E-19
57.9	-2.16753521623143E-17	3.5894649610467E-18	1.0214664533791	-0.10545793553576	1.0214664533791	-0.10545793553576	-6.50879221175035E-18	4.62867685284267E-18
58	-1.53233892582108E-18	-7.5250143373679E-18	0.955190595534917	-0.309313617111396	0.955190595534917	-0.309313617111396	-1.44716583198498E-17	-2.2985045112574E-17
58.1	2.07767079718843E-17	1.60247909632541E-17	0.889693428056966	-0.386865072094024	0.889693428056966	-0.386865072094024	1.00684407482968E-17	2.05506754785609E-17
58.2	1.54757078078537E-18	-7.22230234897784E-18	0.862409779734734	-0.537528744375266	0.862409779734734	-0.537528744375265	-1.56356632347734E-17	-1.68405378232979E-18
58.3	-3.03902305313296E-18	-1.82352109162438E-17	0.758069161420633	-0.667887467697933	0.758069161420633	-0.667887467697932	-1.57554894706882E-18	1.94341161710909E-17
58.4	1.35941581916266E-17	1.18126147457908E-17	0.653236655381207	-0.700646126888681	0.653236655381208	-0.700646126888681	1.20353076765203E-17	-1.04183115744494E-17
58.5	-1.50303375107671E-17	1.55262120031503E-18	0.589987916380842	-0.841556953783711	0.589987916380842	-0.84155695378371	5.64097855138115E-18	-5.94413961569458E-18
58.6	1.55568042150135E-17	-5.90636975813257E-18	0.431118978519016	-0.908444922800644	0.431118978519016	-0.908444922800643	6.84939707947506E-18	6.94122249678727E-20
58.7	-6.98662313382049E-18	7.10428055166815E-18	0.292689808149548	-0.926621857573487	0.292689808149548	-0.926621857573487	-1.02741094724139E-17	6.79847661934744E-18
58.8	1.67524716580653E-17	-8.70440813029834E-19	0.180473925249699	-0.974313148789127	0.180473925249699	-0.974313148789126	9.12347894047353E-18	-2.02156718225252E-17
58.9	-7.4021853653762E-18	-2.67882125686453E-17	0.0619729382446599	-1.00851661864668	0.0619729382446602	-1.00851661864668	-1.2315639016554E-17	-8.65726166438509E-18
59	-1.46752233675959E-17	-2.89721520572502E-18	-0.119942467244972	-0.980603141258315	-0.119942467244972	-0.980603141258315	-7.59265064282664E-18	-2.47555991641123E-18
59.1	1.12600170180364E-17	-2.68331238772333E-18	-0.220417987992585	-0.957301829808175	-0.220417987992584	-0.957301829808176	1.09559516571075E-17	-9.05056129191877E-18
59.2	6.35487612228976E-18	-3.65475436416836E-18	-0.352893402854419	-0.955960688866099	-0.352893402854419	-0.955960688866098	2.83641950874309E-17	1.1004400272535E-17
59.3	-5.81943871478229E-18	1.38434639930941E-17	-0.509710955275814	-0.841868111304087	-0.509710955275813	-0.841868111304087	1.29524442050998E-17	6.12956764041554E-19
59.4	-1.8333514976368E-19	2.61164480678997E-18	-0.584983522116921	-0.797651656691071	-0.584983522116921	-0.797651656691071	8.99253353964051E-18	8.17220308976143E-18
59.5	-1.77711259778241E-19	-7.2333353516162E-18	-0.719716758331778	-0.702251670145753	-0.719716758331778	-0.702251670145753	-7.21339538980343E-18	-7.93777720293623E-18
59.6	-2.02407233398566E-18	9.92550791866433E-18	-0.796131800725212	-0.576104240506295	-0.796131800725212	-0.576104240506295	2.21912310886959E-19	1.13908418801307E-17
59.7	-7.41310224053661E-18	-2.01495443834437E-17	-0.878712289630251	-0.487408326945471	-0.878712289630251	-0.487408326945471	-3.89919894738778E-18	3.6872145550825E-19
59.8	-1.15181514456282E-17	-2.98937359411116E-18	-0.946838892257407	-0.355085940241955	-0.946838892257408	-0.355085940241955	1.00966884703753E-17	5.7145275415461E-19
59.9	4.0392923880852E-18	7.41203478150043E-18	-0.973760061825589	-0.232904642262227	-0.973760061825589	-0.232904642262227	-1.09242046115002E-17	6.15729447103372E-18
60	8.44303657750968E-18	-1.00794784612173E-17	-0.993906017592347	-0.0724960382120433	-0.993906017592347	-0.072496038212043	9.74988661900684E-18	-1.18185584485386E-18
60.1	1.78129995831484E-17	-8.61894373891877E-18	-0.985935915398714	0.0502665521213901	-0.985935915398714	0.0502665521213903	-3.55449965203313E-18	-9.8334164089677E-18
60.2	-1.98101526493228E-17	3.12185549266132E-17	-0.998232439061464	0.166531714413871	-0.998232439061465	0.166531714413871	-3.32716102655849E-17	1.79934925710094E-17
60.3	2.37788959184214E-18	2.74126133220655E-17	-0.942218135662234	0.339710170131217	-0.942218135662234	0.339710170131217	4.69246845783472E-18	1.58880951089976E-17
60.4	-1.47106651710349E-17	-9.95647431929932E-18	-0.883152158874294	0.417121153383771	-0.883152158874294	0.417121153383771	-1.07709178342619E-19	7.94635865926887E-18
60.5	1.66149964918169E-17	-2.74805582627431E-17	-0.833501751359979	0.565435309013949	-0.833501751359979	0.56543530901395	1.21535435702292E-17	-1.03161867623561E-17
60.6	-8.59606509282726E-18	-9.38517925881284E-19	-0.743354532222644	0.666612489123322	-0.743354532222645	0.666612489123323	-8.50221330023913E-18	-1.79812443516401E-18
60.7	-3.05079468819425E-18	-7.3756349388016E-18	-0.642567254026904	0.765004901274879	-0.642567254026904	0.765004901274879	-2.34754267043592E-18	-8.3778488934104E-18
60.8	1.16958367743959E-17	-1.16911274114119E-17	-0.536442039736995	0.851701379043702	-0.536442039736996	0.851701379043702	-1.61809562572173E-17	3.85191737498187E-18
60.9	4.72512536330999E-18	-5.35795489062992E-18	-0.425301882137819	0.915148281122295	-0.425301882137819	0.915148281122296	6.47606041276173E-18	4.93756752858558E-18
61	5.90639109970004E-18	3.79783072656204E-18	-0.283532374886364	0.965189759472993	-0.283532374886364	0.965189759472993	1.20771091382028E-17	1.50431718547816E-18
61.1	6.88133864019412E-18	1.50753202965305E-17	-0.149334549279714	0.979169368123736	-0.149334549279714	0.979169368123737	-2.41349277656461E-17	1.51955670367138E-17
61.2	-1.16094633315685E-17	5.31638944294537E-18	-0.0322008570552365	0.998012015419238	-0.0322008570552362	0.998012015419238	2.50868406110561E-19	-3.88357739609878E-18
61.3	-2.8539206118803E-17	-1.30420588126086E-17	0.109006354022767	1.01080642616632	0.109006354022768	1.01080642616632	-9.20069540763952E-18	9.34867971629993E-18
61.4	1.4533335145763E-17	-1.10604736214304E-17	0.274247803383651	0.962238945380191	0.274247803383651	0.962238945380191	5.83960454927411E-18	-5.41126638803153E-18
61.5	-4.97706369506199E-18	4.47412714947129E-18	0.351578004525031	0.916993764289144	0.351578004525031	0.916993764289145	2.6489683780809E-18	-1.08179220446436E-17
61.6	3.13314913802733E-19	6.60270988128398E-18	0.506433138901473	0.894630726241726	0.506433138901473	0.894630726241727	4.79315411834752E-18	9.82618026061811E-18
61.7	-5.1570069119073E-18	6.10847968717458E-18	0.627707069859983	0.79777735163185	0.627707069859983	0.79777735163185	-1.69258213856076E-17	-2.25786080118236E-18
61.8	-1.36973034991925E-17	-2.37993434046641E-18	0.706304648563576	0.696963360632898	0.706304648563576	0.696963360632898	7.51622677575263E-19	-7.69691657406201E-18
61.9	-6.76865644608665E-18	-2.79476907517946E-17	0.802252036189996	0.593022894152441	0.802252036189995	0.593022894152441	-3.35740932841972E-18	-7.99980247864722E-18
62	1.78288484562056E-17	1.67523049187063E-17	0.874121610336109	0.504829735572369	0.874121610336109	0.504829735572369	-1.4720667213685E-18	1.86973178446311E-18
62.1	-3.08018085434002E-18	3.32993210027915E-18	0.952307035379788	0.372905650500696	0.952307035379789	0.372905650500697	2.68892080481723E-18	3.10515597893393E-18
