# GHZ S RI R 50
50	1.44929139143105E-18	1.49406312695845E-17	0.784546089854855	-0.552815513390477	0.784546089854855	-0.552815513390477	-3.41933299325448E-18	-3.73242645578464E-19
50.1	-6.81367536821037E-19	1.06128697381363E-17	0.658511967503797	-0.663266061189573	0.658511967503798	-0.663266061189573	3.75566179704463E-18	-4.57328875298264E-18
50.2	-2.37014042517563E-18	-2.43799446639623E-18	0.552784117301868	-0.755649276135253	0.552784117301867	-0.755649276135253	1.16883275287032E-17	6.6572245046125E-18
50.3	-1.74540514941515E-17	-3.85562695418262E-18	0.432895395643794	-0.861868902810482	0.432895395643794	-0.861868902810482	1.50801617274738E-19	2.9051705851543E-18
50.4	2.32049788003622E-17	-7.72668652803601E-18	0.239988537478446	-0.888335539687082	0.239988537478446	-0.888335539687082	-1.90354381463174E-18	-1.10947889916753E-18
50.5	8.51570556513687E-18	3.00203688659986E-17	0.13094079258328	-0.939742591069854	0.13094079258328	-0.939742591069853	-1.13693726012842E-17	1.60155514394893E-20
50.6	2.97167608770216E-18	-1.04811545351081E-18	-0.0441491869359748	-0.937643086261419	-0.0441491869359751	-0.937643086261419	1.95260905686384E-18	4.4216086690138E-18
50.7	5.75846442087527E-19	1.38436571908753E-18	-0.182053867400419	-0.911688606117087	-0.182053867400419	-0.911688606117086	2.76873143817506E-18	-1.15169288417505E-18
50.8	-3.85638866854567E-18	-1.3741721582298E-17	-0.345592544217836	-0.894671832067108	-0.345592544217836	-0.894671832067107	2.17255557666099E-19	-4.50815534154397E-18
50.9	-8.64037354513007E-18	3.66846067542751E-18	-0.471157392320828	-0.78936293530417	-0.471157392320828	-0.789362935304169	-9.86513172853399E-19	-1.05252411083343E-17
51	-8.04305312494913E-18	-1.71553739574277E-17	-0.608836869845675	-0.723954565248186	-0.608836869845674	-0.723954565248185	-2.66154942634243E-19	1.52922893589879E-18
51.1	2.57465802625593E-18	6.56139162685781E-18	-0.71334670497948	-0.610376266712721	-0.71334670497948	-0.610376266712721	-1.12966045947676E-18	1.25579530239772E-17
51.2	4.53993294193348E-18	8.65501479729717E-18	-0.796680707502486	-0.481736891798711	-0.796680707502486	-0.481736891798711	-5.6772781058368E-19	5.391524657809E-18
51.3	3.80229347890126E-18	-4.24824303049703E-18	-0.868562534490243	-0.348619098674129	-0.868562534490242	-0.348619098674129	5.65970153687241E-18	-1.14091240664321E-17
51.4	-1.58684083158878E-17	-2.80241389288434E-18	-0.927654724206754	-0.223721478378443	-0.927654724206753	-0.223721478378443	-2.11161094823939E-19	-9.95504419117947E-19
51.5	-2.64154522169958E-18	-3.89906684425664E-18	-0.920142911169569	-0.0364975197383694	-0.920142911169569	-0.0364975197383693	-1.19302289492118E-17	1.08574664073506E-17
51.6	-3.01211442396203E-18	-4.12936189463952E-18	-0.934008305408476	0.0779662181503183	-0.934008305408476	0.0779662181503185	-1.04127972367659E-17	-1.13840475425979E-17
51.7	7.94030234606436E-18	-6.849019907882E-18	-0.924075133864083	0.22855933221074	-0.924075133864083	0.22855933221074	-2.79710968248678E-18	-3.2285164363386E-17
51.8	1.78413664010944E-18	-3.25480881039376E-17	-0.81543743229674	0.373822479133574	-0.81543743229674	0.373822479133575	-1.69213999767483E-17	-1.457708842759E-17
51.9	-1.13819758214145E-17	4.60878380812607E-18	-0.819163827667872	0.496532160938909	-0.819163827667873	0.496532160938909	-1.7670368019624E-17	-7.42520611927277E-18
52	-7.93277250697107E-19	1.50791606170486E-17	-0.668520670966315	0.634275899516213	-0.668520670966315	0.634275899516213	-1.86417559081541E-17	-3.82297255697793E-17
52.1	7.62841905733802E-18	1.67388619907156E-17	-0.566584611101752	0.714727509856289	-0.566584611101753	0.714727509856289	-1.79352652899375E-17	5.68561172090129E-18
52.2	-1.82460167982994E-17	3.95564164759901E-18	-0.474481500313186	0.797410382173943	-0.474481500313186	0.797410382173943	-9.40552173435307E-18	2.33739456725618E-17
52.3	5.97937725461896E-18	7.81828485677478E-18	-0.346790052205669	0.861682986338594	-0.346790052205669	0.861682986338594	5.09583380952298E-17	7.44093735416692E-18
52.4	-7.65144843768484E-18	-6.36064390177338E-18	-0.194892499825361	0.937945743718341	-0.194892499825362	0.937945743718342	-4.44407898181393E-17	-1.75660810722954E-17
52.5	-1.03632347977703E-18	1.62420988077073E-17	-0.0647570645152183	0.880304980000637	-0.0647570645152186	0.880304980000637	3.60603603558321E-17	5.17878392642287E-17
52.6	1.19366501627378E-17	1.27054172268793E-17	0.0611942844886802	0.949455596251859	0.06119428448868	0.949455596251858	-3.02368837605567E-19	-2.33594703163947E-18
52.7	2.86472520474754E-17	1.49422247433759E-17	0.270678777574318	0.922395530997448	0.270678777574318	0.922395530997447	1.12855045212384E-17	-3.58245064453036E-17
52.8	1.55459583578641E-17	-8.71301389532571E-18	0.306056370357499	0.753713549153067	0.306056370357498	0.753713549153067	-1.73354339661648E-17	-3.7585134336442E-17
52.9	-6.45683486646627E-18	1.73593514343633E-17	0.567958557911842	0.862421041649806	0.567958557911842	0.862421041649806	1.74702151161837E-17	1.5565453169314E-17
53	-1.43840197021604E-17	-2.93711002363625E-18	0.583739398623938	0.652261500945506	0.583739398623938	0.652261500945506	7.62956395756095E-18	2.75952463886124E-17
53.1	1.6848637301276E-17	1.94705569508998E-18	0.693010457287259	0.621668313532974	0.693010457287258	0.621668313532974	2.98943260592158E-18	-3.25406374965819E-19
53.2	-1.28186502775922E-17	-2.0035845013914E-17	0.83543601710294	0.495401403144251	0.835436017102939	0.495401403144251	-3.80045079416708E-17	2.12611708611203E-18
53.3	1.39500063250258E-17	-3.39460629095786E-18	0.845067965099672	0.368550776877818	0.845067965099673	0.368550776877818	5.09576900893053E-18	-2.48505240136574E-17
53.4	1.35145595265918E-17	-1.11747689149298E-17	0.882000280015918	0.169872451001974	0.882000280015918	0.169872451001974	3.48239748421836E-17	3.35267319719932E-17
53.5	1.50870544448871E-18	-5.30154553167847E-18	0.943671192874609	0.131660489086386	0.943671192874609	0.131660489086386	-1.18782016078033E-17	1.87245836856299E-17
53.6	2.22255677902987E-17	-1.7660611891511E-17	0.941172511744589	-0.0750072761792943	0.941172511744589	-0.0750072761792942	-6.20136554704883E-19	-2.33928731018654E-17
53.7	5.84013460112882E-18	5.92744841191529E-18	0.849592687031043	-0.231933335971092	0.849592687031043	-0.231933335971093	1.2747027872027E-17	-7.52015646739607E-18
53.8	-2.0277805396574E-17	6.56955369414032E-18	0.948962992358165	-0.289547313638035	0.948962992358166	-0.289547313638035	-2.17409117395476E-17	1.05127104191259E-17
53.9	-8.29499282520238E-18	-2.21608400624316E-17	0.807941556394957	-0.4695432726836	0.807941556394957	-0.4695432726836	-4.89741507037642E-18	-9.7642384143029E-18
54	1.25870012726866E-17	1.13297145635836E-17	0.706128063584025	-0.581807566648744	0.706128063584025	-0.581807566648744	-2.39167158362702E-17	1.25728670910301E-18
54.1	-2.29726179777644E-19	-8.53188201664238E-18	0.631641349375135	-0.648877606828522	0.631641349375135	-0.648877606828522	-2.13679927382356E-17	-8.47664886662954E-19
54.2	1.29494182976093E-17	-6.69279307659068E-18	0.538666603441393	-0.749435455691294	0.538666603441393	-0.749435455691294	3.06740481844033E-18	1.14402923227518E-17
54.3	-3.79544235083069E-18	-2.16793211691882E-17	0.372016325673518	-0.846462943233746	0.372016325673518	-0.846462943233747	-3.28579184069384E-18	-9.0622558533324E-18
54.4	-2.04187431280901E-17	-1.34273471412479E-18	0.31554175263984	-0.819238791060677	0.31554175263984	-0.819238791060677	-2.31189064244564E-18	1.05282649708247E-17
54.5	1.58285510326869E-19	-1.35095807808926E-17	0.124390529480176	-0.963843548854018	0.124390529480176	-0.963843548854017	-6.6167535402493E-18	-4.57779684996626E-17
54.6	-1.00807509002789E-17	1.14476010763059E-17	-0.0139501935722385	-0.895355643279956	-0.0139501935722387	-0.895355643279955	-1.04364601581734E-18	1.11659253535998E-17
54.7	1.00312359723477E-17	-1.37897021299195E-17	-0.119186126505473	-0.937287899930266	-0.119186126505473	-0.937287899930265	1.30426364051565E-17	-1.29686362152548E-17
54.8	2.14894217377508E-17	-1.71405098714272E-18	-0.282963558516999	-0.902473036552563	-0.282963558516999	-0.902473036552562	-1.10022197636703E-19	-5.59385098367341E-18
54.9	-8.82926969926372E-18	5.20174375254177E-18	-0.411779233486487	-0.822954826164508	-0.411779233486488	-0.822954826164509	-1.23385044244278E-17	1.77003106179695E-18
55	-3.28812810799976E-18	-3.88199376025203E-18	-0.514945426119884	-0.780506094210674	-0.514945426119885	-0.780506094210674	-4.48752182349752E-18	-1.26445041760881E-17
55.1	-3.67331193519882E-18	-2.72943303388835E-18	-0.642743886007783	-0.690422823000678	-0.642743886007784	-0.690422823000679	8.96205098002604E-18	4.51064371676427E-18
55.2	4.75906512358149E-18	1.29898775564259E-18	-0.712023112173905	-0.583842843959931	-0.712023112173905	-0.583842843959931	-3.17426607456419E-18	6.63356544641483E-18
55.3	7.47532056560467E-19	2.62825696741343E-18	-0.812963298932755	-0.452282625154449	-0.812963298932755	-0.452282625154449	-2.06731871619043E-18	-4.84037458718714E-19
55.4	-7.37887317548201E-18	-5.55425490313178E-18	-0.859797229068182	-0.368793593769398	-0.859797229068182	-0.368793593769398	-9.91453081622882E-18	-1.15244194058813E-17
55.5	2.77237601652104E-18	-2.15495882218141E-18	-0.927840260316546	-0.210605513476977	-0.927840260316547	-0.210605513476977	1.51815252850259E-17	4.65489832345621E-18
55.6	-2.76242990111465E-19	-4.56647405803102E-18	-0.919554270793869	-0.0850974991267016	-0.919554270793869	-0.0850974991267017	1.69084444291495E-17	6.16645518552886E-18
55.7	-3.73064474335727E-18	1.89823969140729E-18	-0.945689695836891	0.042667741178576	-0.945689695836891	0.0426677411785758	-5.35305921217051E-18	9.84950720544091E-18
55.8	4.03982883851835E-18	2.41087047753763E-18	-0.921795532771231	0.197449809505546	-0.921795532771231	0.197449809505546	1.34322918498692E-17	-7.72105925018001E-18
55.9	4.26426946232664E-18	-4.49721156903733E-18	-0.886316902075414	0.31732952209746	-0.886316902075414	0.317329522097461	-1.12863996628517E-17	9.27007751860721E-18
56	-4.6316138101582E-18	7.54380770134308E-18	-0.804822501033311	0.45027620553655	-0.804822501033311	0.45027620553655	-1.56607553756773E-17	-2.69015121603495E-18
56.1	-6.68785739747509E-18	-5.87194563480495E-19	-0.762929106663923	0.551677975663721	-0.762929106663924	0.551677975663721	9.93503558426676E-19	6.80454641771483E-18
56.2	1.02847288487778E-17	2.53542351722818E-17	-0.678545356300958	0.669204926940744	-0.678545356300958	0.669204926940743	-1.61036721680478E-17	2.49884540068727E-17
56.3	-5.53812073371255E-18	2.15119511190341E-18	-0.522591671612185	0.763624216076362	-0.522591671612185	0.763624216076363	2.18435503073738E-17	-5.29792130278151E-18
56.4	1.07177074920081E-17	8.04834065089897E-18	-0.46589653494168	0.823238844511984	-0.465896534941681	0.823238844511983	-2.60451972720152E-19	1.46410992194864E-17
56.5	7.05428291634381E-18	-3.49123081271088E-18	-0.325987518929164	0.902837201998349	-0.325987518929164	0.902837201998348	4.60366717727154E-19	2.94684206530275E-17
56.6	8.44061420280644E-18	-4.93240791858109E-18	-0.179444324914574	0.906447343282609	-0.179444324914575	0.906447343282609	7.73520264210603E-18	-3.22056865362337E-18
56.7	1.64728266662375E-17	-2.60044217904638E-18	-0.057072052744005	0.936530604083059	-0.0570720527440049	0.936530604083059	6.77286427691911E-18	-1.76339670191649E-17
56.8	6.32023562063132E-18	-1.34825083585697E-17	0.057314129782798	0.952148906873891	0.0573141297827979	0.952148906873892	-1.64271356969476E-17	-4.37458889448176E-18
56.9	3.61379246819936E-17	9.61218585545962E-18	0.203263251316736	0.909127599972844	0.203263251316737	0.909127599972844	9.09318650434476E-18	-1.42633035018217E-17
57	8.14341629806178E-18	-2.20832224871362E-18	0.35786191179473	0.840290235960042	0.35786191179473	0.840290235960042	1.41190910942801E-17	-1.0514061534256E-17
57.1	3.39831276118164E-18	1.16677008606825E-17	0.455066915261823	0.808453485440337	0.455066915261823	0.808453485440337	6.38205519251651E-18	3.87286679076197E-18
57.2	-1.20510955469513E-17	-3.55580649110594E-18	0.569720104263371	0.762104886361062	0.569720104263371	0.762104886361062	8.96391894398916E-18	-1.37304419995244E-17
57.3	-8.0243510055059E-18	-1.09796129075832E-17	0.715048195165677	0.604307351855755	0.715048195165676	0.604307351855755	2.17057713599951E-17	-1.75478808520454E-17
57.4	-3.43738726456043E-18	-2.63274420895422E-17	0.719516183857307	0.523948653532994	0.719516183857307	0.523948653532994	-8.10199929051107E-18	2.86052422264881E-17
57.5	3.96660621594803E-18	-1.82470405801227E-18	0.841749548782401	0.438111888687456	0.841749548782401	0.438111888687456	7.42836345417022E-18	2.14971351011769E-17
57.6	-1.11174168242069E-17	1.56811613429034E-18	0.899671716840972	0.288629481004957	0.899671716840972	0.288629481004957	-7.17338200524242E-19	-4.32100807284844E-18
57.7	-3.58862640633899E-18	1.71690689327245E-18	0.887525151791618	0.15196369877874	0.887525151791618	0.15196369877874	-9.59605452335038E-18	1.83476236756021E-18
57.8	-1.06885316407584E-17	-3.44712500582528E-18	0.933757931775279	0.0504520162715869	0.933757931775279	0.0504520162715867	2.68930200494926E-18	3.34308417734393E-18
57.9	8.89883101409274E-18	5.69169552219107E-18	0.942197769648553	-0.0654007344255168	0.942197769648554	-0.0654007344255167	3.17200985658996E-18	3.38701265120108E-19
58	-2.35264725281933E-18	-4.68822617735037E-18	0.889206469614442	-0.261403602021336	0.889206469614443	-0.261403602021336	7.44564885026011E-18	6.06227786050995E-18
58.1	1.14999510198056E-18	-8.70534426322419E-18	0.824914508688094	-0.331737825960393	0.824914508688094	-0.331737825960393	5.96712140687311E-19	-1.12627878930473E-17
58.2	-3.20022694170744E-18	8.63730341651248E-18	0.808288132433668	-0.468617901133407	0.808288132433668	-0.468617901133407	-2.77230047758454E-17	2.25159568971527E-17
58.3	-1.14116531331548E-17	-8.2605213976458E-18	0.715874511092575	-0.59329254836407	0.715874511092575	-0.593292548364071	-1.54723166100305E-17	-2.92308332178341E-18
58.4	1.32194023393273E-17	-2.80583090140354E-18	0.614376927352001	-0.621639562964427	0.614376927352001	-0.621639562964427	1.44198797481065E-17	-1.34218403812499E-17
58.5	5.25755101701505E-18	1.29096977129623E-17	0.568099111693476	-0.75141665825798	0.568099111693477	-0.75141665825798	-4.45549276456215E-18	6.8620725887629E-18
58.6	6.41965308381307E-18	8.99669077140219E-18	0.421941108752486	-0.819425432087342	0.421941108752486	-0.819425432087342	4.53900190031161E-18	1.28698943478391E-18
58.7	-2.19673133175532E-17	3.47249302788139E-18	0.292632281032826	-0.837809864153107	0.292632281032827	-0.837809864153108	-1.10812231824234E-17	5.15034549662462E-18
58.8	-2.18589847846222E-17	1.1760674181169E-17	0.194547979639649	-0.88306342738252	0.194547979639649	-0.88306342738252	-4.05122958871754E-18	-8.1285507118752E-18
58.9	5.77897906629494E-19	-1.7906332325387E-17	0.0907969805291844	-0.916888938878067	0.0907969805291843	-0.916888938878067	1.29981068017975E-18	-1.0252804489222E-17
59	-2.27241951066351E-17	1.23321252884044E-18	-0.080428071330439	-0.898404063354274	-0.0804280713304387	-0.898404063354274	-1.33150791904968E-17	-2.25778518475041E-18
59.1	3.41628216797061E-18	7.5736872320458E-18	-0.169585297269683	-0.876815831528731	-0.169585297269683	-0.876815831528731	-7.76808286512302E-19	-3.78833050728989E-18
59.2	2.77152383647335E-18	-6.27173185126459E-19	-0.286240511916361	-0.882283028982218	-0.286240511916361	-0.882283028982218	-1.30471680947913E-17	-7.82226694590766E-18
59.3	9.76304199329782E-18	2.74605214837043E-18	-0.438686274464894	-0.78202306667672	-0.438686274464895	-0.78202306667672	-2.65902386845414E-18	1.1041964653995E-17
59.4	-3.98939913393695E-18	-7.61830936278018E-18	-0.50229808926918	-0.743085472550859	-0.50229808926918	-0.74308547255086	-9.58500367859927E-18	-2.34640036077381E-18
59.5	2.1261160790943E-18	1.01786026808219E-18	-0.629678129079093	-0.66310772256426	-0.629678129079093	-0.66310772256426	-8.56069187217061E-18	-2.98495488453434E-18
59.6	-2.59291684919939E-18	1.00694970346097E-18	-0.70332408522898	-0.548524253603927	-0.70332408522898	-0.548524253603927	-3.51737051940512E-18	-2.67386767296391E-18
59.7	7.65933800135552E-18	1.71374908510363E-17	-0.778846067324065	-0.473700501767779	-0.778846067324065	-0.47370050176778	1.00604971571653E-18	2.72579068581723E-18
59.8	2.05915525020975E-17	6.46494361313756E-18	-0.845823567572057	-0.356689907434064	-0.845823567572057	-0.356689907434064	3.19291063282911E-18	-7.19517502361224E-18
59.9	-1.54965623308564E-17	-2.01081562394618E-18	-0.872057314178322	-0.246940524029611	-0.872057314178323	-0.246940524029611	-2.84683335401194E-18	-2.17119297356333E-18
60	5.04479038154216E-18	3.32580523550265E-18	-0.897311250627219	-0.100959127177633	-0.897311250627218	-0.100959127177633	-3.53035498200276E-20	6.52007931929311E-18
60.1	-5.25246287479846E-18	1.25392972012826E-17	-0.891980472413659	0.00961085305263981	-0.891980472413659	0.00961085305263977	1.06179551929694E-17	1.21972584000727E-17
60.2	1.72647646034261E-17	-1.02082727049145E-17	-0.907369790337646	0.109775788772336	-0.907369790337646	0.109775788772336	2.41907411150352E-18	9.85129423924502E-18
60.3	3.26873703450365E-18	4.67116373602695E-18	-0.864530042798474	0.272445507488176	-0.864530042798474	0.272445507488176	-9.80621110351096E-18	-1.40134912080808E-17
60.4	-1.98221381310113E-17	8.67656981079871E-18	-0.809302873229912	0.340589688384133	-0.809302873229912	0.340589688384133	2.4014755080665E-18	3.28305026871868E-18
60.5	4.16547999331174E-18	-3.03778890147788E-19	-0.773966064109526	0.476215152097222	-0.773966064109526	0.476215152097222	9.92939650405011E-18	1.99614685086504E-19
60.6	-1.40064994040361E-19	7.84242673609508E-18	-0.695600908153693	0.57007262472738	-0.695600908153693	0.57007262472738	1.13022339364377E-21	-3.57726711161168E-18
60.7	-9.21990124494305E-18	-9.08495094457697E-18	-0.608812773617942	0.662323689747741	-0.608812773617942	0.662323689747742	-1.57598198414596E-18	-1.98048815382831E-18
60.8	-2.01553568075531E-17	4.04856378869805E-18	-0.517715750936166	0.743930284738363	-0.517715750936165	0.743930284738362	7.67073323981242E-18	-4.93166940907552E-18
60.9	8.53643287515064E-18	7.93708032610888E-18	-0.421167334919193	0.803869693932891	-0.421167334919193	0.803869693932891	3.11724545358099E-18	-3.02715723855556E-18
61	-7.12845090229954E-18	7.94433061963448E-18	-0.295212104249488	0.855234612157323	-0.295212104249488	0.855234612157323	-2.46160240705407E-18	8.89572162361103E-18
61.1	-1.08048156132279E-18	4.37417344477129E-18	-0.174309745885706	0.871493353879525	-0.174309745885705	0.871493353879526	3.95271322345784E-18	-5.03286828864258E-18
61.2	4.44655723556822E-18	-2.28426166281929E-17	-0.0725786512488251	0.891781030140365	-0.0725786512488251	0.891781030140365	2.83006462362209E-18	-8.68331242743263E-18
61.3	2.28877696453067E-18	2.00787003961139E-17	0.0517397771693175	0.910732075985353	0.0517397771693174	0.910732075985353	9.28888821189327E-19	1.13351399900378E-17
61.4	1.51729066204113E-19	3.05266359611171E-18	0.205718204811506	0.874514052500218	0.205718204811505	0.874514052500217	-1.01016315952457E-17	3.27132454837259E-18
61.5	4.60775712554892E-18	-2.97680503812581E-17	0.272166228515648	0.832666770957804	0.272166228515648	0.832666770957804	-1.29593169156063E-18	8.37226416972884E-18
61.6	-7.679426660078E-18	5.27576231363364E-18	0.410637017844309	0.824980287806097	0.410637017844309	0.824980287806098	3.82646508345238E-18	1.0449790282761E-18
61.7	1.37659141935938E-17	4.1075990007254E-18	0.525031800710446	0.742585659271756	0.525031800710446	0.742585659271756	7.68722074838301E-18	-1.09780619866339E-17
61.8	2.17155174297917E-17	1.58277223136468E-18	0.597967576247031	0.653298131465499	0.597967576247031	0.653298131465499	-4.63283144364263E-19	1.29358113070383E-17
61.9	4.38070734203261E-18	-1.3320981257751E-17	0.688326511601466	0.565476198590457	0.688326511601466	0.565476198590457	7.8425359527668E-18	-6.46326945833811E-18
62	-6.3686609870459E-18	-1.10193729283859E-17	0.753557515094468	0.492310384644049	0.753557515094468	0.49231038464405	1.99743032035591E-17	1.57945168519826E-17
