# GHZ S RI R 50
50	9.37962305339359E-18	8.25510364946278E-18	0.779403977874432	-0.557259012678568	0.779403977874432	-0.557259012678568	-1.04040262088847E-17	-1.87343669235197E-18
50.1	2.9280327543283E-18	9.80351224569135E-18	0.657131724164251	-0.663338045541659	0.657131724164251	-0.663338045541659	-1.06574175331775E-17	-7.462152280441E-18
50.2	6.88101116410296E-19	1.59063324720241E-17	0.55391176011912	-0.760345220537549	0.553911760119119	-0.760345220537549	-6.63826823227401E-18	-1.56026318437101E-17
50.3	2.96719791933113E-17	3.07573088246117E-17	0.428001675163234	-0.870986332507952	0.428001675163234	-0.870986332507952	-1.83781277199693E-17	2.53802345336961E-19
50.4	-1.16936486756925E-17	2.13074205091601E-17	0.242279763290548	-0.888856304382982	0.242279763290548	-0.888856304382982	-1.04457225703576E-17	-1.12776733072475E-17
50.5	-2.29600384153028E-18	1.75915574060448E-17	0.126947965981061	-0.951353058265461	0.126947965981061	-0.95135305826546	-1.35937942452842E-17	1.27417728345145E-18
50.6	-1.54127842312023E-17	2.33422876214151E-18	-0.0475125694184015	-0.946170949059178	-0.0475125694184016	-0.946170949059176	1.16233832855933E-17	6.65360114638174E-18
50.7	4.20065968792149E-18	-5.95055292376627E-18	-0.186286534588057	-0.924907448432096	-0.186286534588057	-0.924907448432096	2.53245034405164E-18	1.40095422247388E-17
50.8	8.79993764444374E-18	-2.17888267375422E-17	-0.358321913041588	-0.904271584310364	-0.358321913041588	-0.904271584310365	1.23765609889153E-17	-6.00395414274896E-18
50.9	-1.14809807281475E-17	-1.04941913068143E-18	-0.478180906700792	-0.802493439300626	-0.478180906700793	-0.802493439300625	2.44342976591557E-18	8.20741267615177E-18
51	1.98617646328706E-18	-1.22986691494825E-17	-0.624065982401706	-0.732935326440032	-0.624065982401706	-0.732935326440032	-9.0089886413317E-18	-4.71153510692739E-18
51.1	-1.11073969763481E-17	1.04019583951278E-18	-0.730277527781168	-0.618929330762445	-0.730277527781168	-0.618929330762445	-7.90817006020075E-19	1.46346247098812E-17
51.2	-6.15611976061019E-18	-7.38831488417247E-18	-0.815372608981014	-0.489600165185968	-0.815372608981014	-0.489600165185968	-7.10496950019766E-18	-3.32768535501773E-18
51.3	-1.73025699951094E-18	7.65137615325381E-18	-0.890387094096346	-0.352600228825095	-0.890387094096345	-0.352600228825095	8.4155311900526E-18	-8.26065209316581E-19
51.4	-1.29618885285008E-18	1.88682205484356E-17	-0.955977921764313	-0.220407002720536	-0.955977921764313	-0.220407002720536	-5.23840280623903E-18	1.23056313507085E-17
51.5	-4.24827607237033E-18	-4.96512463742198E-18	-0.941558080535343	-0.0365736920217701	-0.941558080535342	-0.0365736920217702	-9.5208901648871E-18	1.31629898800578E-17
51.6	-4.5149908755519E-18	-6.61745515546875E-18	-0.964447316258765	0.0872848885520053	-0.964447316258765	0.0872848885520053	-5.23514582846858E-18	-2.30225604697809E-17
51.7	-1.99867931132305E-18	-1.13988016617042E-17	-0.953370886898311	0.246902045869037	-0.953370886898311	0.246902045869037	-5.02901274064879E-18	1.433833445971E-17
51.8	4.34289354422095E-18	-6.09873344336677E-18	-0.843881154313544	0.383110783708052	-0.843881154313544	0.383110783708052	-7.85170467774509E-18	-6.86522142968384E-18
51.9	-3.14709125571439E-17	1.50757239975786E-18	-0.846011021937788	0.52935942191719	-0.846011021937788	0.529359421917191	-6.75667500651917E-18	1.78469724638614E-17
52	2.59411876925078E-18	-4.9932605863247E-18	-0.688670620506296	0.657213752010462	-0.688670620506296	0.657213752010463	5.47326079308238E-18	1.7566907795985E-17
52.1	2.3668285676889E-17	1.52050978322975E-17	-0.587674966888376	0.744200351201204	-0.587674966888376	0.744200351201204	2.76228728678929E-17	8.24926884362994E-18
52.2	1.38584056212409E-17	6.27382108980431E-18	-0.489984614043788	0.838331564837958	-0.489984614043789	0.838331564837958	-1.75848561314535E-17	2.21063491067451E-17
52.3	1.90041096514444E-18	4.00860867110912E-18	-0.355862496399442	0.907266660444026	-0.355862496399442	0.907266660444026	1.01942401241121E-17	2.29314988249129E-17
52.4	2.57783067599215E-18	-1.7752166954318E-18	-0.188804645684514	0.982443691034331	-0.188804645684515	0.982443691034332	4.31977777365396E-17	-5.19206880659592E-18
52.5	-2.71545856704549E-17	2.26904731251707E-17	-0.069926006472766	0.931511170381422	-0.0699260064727661	0.931511170381422	1.92171429299649E-17	1.9741198924801E-17
52.6	5.48482118549922E-18	1.15842404960792E-17	0.0824666029976574	1.00403927124437	0.0824666029976572	1.00403927124437	2.3312115589388E-17	-1.01011581649272E-17
52.7	3.537116032259E-19	-8.74377866107481E-18	0.298307063296212	0.959127959570435	0.298307063296212	0.959127959570435	9.6413594517673E-18	-4.51450751871792E-18
52.8	2.76191591255528E-17	2.86492460718652E-17	0.313587797584904	0.816028560477117	0.313587797584904	0.816028560477117	1.56392755177622E-17	-3.01687919380764E-17
52.9	-3.72359237476728E-17	3.84947383637008E-17	0.624707423998607	0.882700126192723	0.624707423998607	0.882700126192723	-4.04780529076131E-18	1.14789286825241E-17
53	1.9918427049259E-17	-2.22159376009051E-18	0.618859660144057	0.694964670692809	0.618859660144057	0.694964670692809	1.66638566580335E-17	-3.927371670761E-17
53.1	-8.84969330662265E-18	1.12669180670471E-17	0.752771838824427	0.653559366726793	0.752771838824426	0.653559366726792	2.42038325997504E-19	1.70690228018472E-18
53.2	-4.35448390098269E-18	-1.77700533958315E-17	0.896817413570639	0.504358085723405	0.896817413570639	0.504358085723405	-2.27090006573151E-17	-5.53822352438879E-18
53.3	1.19995275327617E-17	9.95231083356018E-20	0.912214343136708	0.382291063893025	0.912214343136709	0.382291063893025	-9.32095732286969E-18	-3.36782955784013E-17
53.4	1.60014200168678E-17	-1.06283425974638E-17	0.935876175951874	0.176965667048596	0.935876175951873	0.176965667048597	-7.6411314938484E-18	-6.37772848391957E-18
53.5	4.87494930621444E-20	2.45820756156283E-17	1.02409443492463	0.115603578024891	1.02409443492463	0.115603578024891	7.12086368734576E-17	-2.62425114032237E-17
53.6	3.13647870098622E-17	-9.87737153777504E-18	1.00439940610746	-0.0994560662040464	1.00439940610746	-0.0994560662040466	-1.28233298704761E-17	-8.21376428259474E-17
53.7	-1.73364299244283E-17	-4.02769022325192E-18	0.907822791986902	-0.248427823161636	0.907822791986902	-0.248427823161637	-2.20425180931597E-17	-4.81454619689105E-18
53.8	2.26944146724678E-17	1.23288262841973E-17	1.01960499656938	-0.355418348902389	1.01960499656938	-0.355418348902389	2.79136522565987E-17	-2.98984264696982E-17
53.9	2.32732418991002E-17	-2.8093926287055E-18	0.860869589234743	-0.523377698566601	0.860869589234744	-0.523377698566601	1.7717369431531E-17	2.70353787062815E-17
54	-1.22042168981953E-18	-1.86359296578882E-17	0.752941421315874	-0.639161385374383	0.752941421315874	-0.639161385374383	-2.41044967014676E-17	-2.02582164154878E-17
54.1	-2.97501485057453E-18	6.99196383712818E-18	0.678010483672021	-0.720944955982689	0.678010483672021	-0.720944955982689	-1.07073377089562E-18	1.02795589284964E-17
54.2	-6.80149169018193E-18	-7.7827312112953E-18	0.570289795368929	-0.83238512895054	0.570289795368928	-0.832385128950539	-1.56460159971865E-17	6.05857073861008E-18
54.3	-5.60928065543888E-18	1.40435873188735E-17	0.385598738542651	-0.921755963547641	0.385598738542652	-0.921755963547641	3.06222033607581E-17	-1.00969443967937E-18
54.4	-1.32333454938898E-17	1.05845428778384E-17	0.335027524044743	-0.919584260442063	0.335027524044743	-0.919584260442062	7.01802646497161E-18	5.36424182235858E-17
54.5	-1.04006335013952E-17	3.32046582045794E-17	0.101341133678909	-1.04750132839868	0.101341133678909	-1.04750132839868	-1.46284434989479E-17	1.47608338794855E-17
54.6	-1.47655139915248E-17	-9.13176980531808E-18	-0.029803843288117	-0.980317055559526	-0.0298038432881169	-0.980317055559527	-1.01367580636906E-19	-1.66556570678863E-18
54.7	4.15174221249986E-18	-1.51724450240403E-17	-0.163973201146435	-1.0266049663305	-0.163973201146436	-1.0266049663305	6.849199414802E-18	-6.19137105504149E-18
54.8	7.31062485568318E-18	-5.76242825002396E-18	-0.339378614880218	-0.978792881595009	-0.339378614880218	-0.978792881595009	4.91958192115101E-18	3.23388926340511E-18
54.9	1.0450786210723E-17	6.56197648892417E-19	-0.473040372811824	-0.892556960161306	-0.473040372811824	-0.892556960161306	1.57457742262137E-17	-4.29113738246347E-18
55	7.02413196807717E-18	2.16676358923732E-17	-0.595499458767381	-0.844285841874048	-0.595499458767381	-0.844285841874047	-1.17164140013492E-18	1.43253020262188E-17
55.1	-1.03016268317445E-17	5.04387599527139E-19	-0.731717741641724	-0.737472803536866	-0.731717741641724	-0.737472803536866	7.33378854455835E-20	-9.3609483762765E-18
55.2	-3.27822256898013E-18	1.25521343323265E-17	-0.808511162196813	-0.624754162443179	-0.808511162196813	-0.624754162443179	-7.81117828401507E-18	9.52278995103488E-18
55.3	8.12923269873681E-18	1.15740562291446E-17	-0.91013824494676	-0.472951132431117	-0.91013824494676	-0.472951132431117	-3.20909989980556E-18	3.36904643373088E-18
55.4	5.27448860974095E-18	-8.59373263582449E-18	-0.972556195141328	-0.376490077023873	-0.972556195141328	-0.376490077023874	-8.55640651928526E-18	-1.16201276278246E-17
55.5	1.10455978677633E-17	-1.85756574897046E-18	-1.03396939919151	-0.195534177696835	-1.03396939919151	-0.195534177696835	1.88837745880502E-17	-1.65798291884842E-17
55.6	4.80907738940699E-18	2.43244139209991E-18	-1.02854437034504	-0.0615326330042887	-1.02854437034504	-0.0615326330042885	-1.68965735234403E-17	1.68100209940185E-18
55.7	3.0438856347115E-18	3.40975098602088E-18	-1.05314122569142	0.0898223852189021	-1.05314122569142	0.0898223852189018	5.9652953111027E-19	7.76306148549409E-18
55.8	1.33362497404507E-18	1.45398403926638E-18	-1.01811949780341	0.258488678510691	-1.0181194978034	0.258488678510691	1.47307485559039E-17	5.07165401732638E-18
55.9	-1.00834637996487E-17	-7.67734894293758E-18	-0.977350394511714	0.394566805407997	-0.977350394511714	0.394566805407996	-2.3732423834437E-17	-6.56011500138979E-18
56	-1.55625015294564E-18	-4.99182549945234E-18	-0.883401465817949	0.53411568278671	-0.883401465817948	0.534115682786709	-2.1523552150755E-17	1.23317511233021E-18
56.1	5.68702743121922E-18	1.3477150461814E-18	-0.831269233133833	0.657297696241299	-0.831269233133833	0.657297696241299	1.40694849548012E-17	-8.67862477007563E-18
56.2	1.47986938866173E-18	1.5857770122315E-17	-0.727577389520661	0.786211646809657	-0.727577389520661	0.786211646809656	6.43283621472535E-18	3.14460859633197E-17
56.3	1.28762084686164E-18	-1.63058925009422E-18	-0.555062697616834	0.873593732867889	-0.555062697616834	0.87359373286789	9.99050801029643E-18	-5.82450551599578E-19
56.4	7.12542876316804E-18	4.62630956496524E-18	-0.482337836460471	0.955894471812861	-0.482337836460471	0.955894471812861	-7.49012503520692E-18	4.50888350197265E-17
56.5	2.11747877749517E-18	1.67338180674124E-17	-0.3171914131673	1.03310071968204	-0.3171914131673	1.03310071968204	-6.42352388790381E-18	3.1136977268646E-17
56.6	-1.61568866907126E-17	3.79098627627595E-18	-0.161433042716052	1.03331004094625	-0.161433042716052	1.03331004094625	-1.64878672192488E-17	2.65971639559847E-17
56.7	-8.70601976187238E-20	2.94305120445339E-18	-0.0157283258180872	1.06361790812812	-0.0157283258180872	1.06361790812812	-1.97364216265142E-17	3.34366695514636E-18
56.8	-5.37201046840361E-18	-5.0555165270075E-18	0.123395347831654	1.07897281378681	0.123395347831654	1.07897281378681	-4.04846827358991E-17	-4.10215359036749E-17
56.9	2.12993210976469E-17	3.30657920557926E-18	0.280733296762057	1.02449802903416	0.280733296762057	1.02449802903416	2.54465498011191E-17	1.2225722142184E-17
57	3.10878058406538E-17	-1.42960381257616E-17	0.442925655077532	0.937817745882738	0.442925655077532	0.937817745882739	3.5155477641294E-17	-1.33664502984632E-17
57.1	8.45115842325928E-18	2.73778611391049E-17	0.563823505249027	0.898380624182679	0.563823505249027	0.898380624182678	4.24776924068473E-17	4.21834363893025E-17
57.2	1.81101888086562E-17	1.57242001809388E-17	0.699869186204591	0.834107746458076	0.699869186204591	0.834107746458076	-1.51311331360677E-17	-8.93373690570731E-18
57.3	-4.30310320781274E-19	6.10180115942539E-18	0.83438759401199	0.647205432406699	0.83438759401199	0.647205432406698	-2.3546583996139E-18	-1.39248436019759E-18
57.4	-8.48026976818648E-18	-2.43057332506706E-18	0.856451301625493	0.570461985422855	0.856451301625494	0.570461985422855	1.14759407191291E-17	3.70124523531719E-17
57.5	1.0557670096281E-17	-1.20331986457668E-17	0.990368055557553	0.447328547112075	0.990368055557554	0.447328547112076	7.7387592989093E-18	-1.91057476059686E-17
57.6	3.27681336303598E-17	-3.00730845651123E-17	1.04225687585944	0.275734544199395	1.04225687585944	0.275734544199395	7.58350803934925E-18	-2.35231441963264E-17
57.7	-4.20472616183888E-18	1.43183596222228E-17	1.02834523326	0.131510423535393	1.02834523326	0.131510423535393	-1.27572806363271E-17	-1.39127287673468E-17
57.8	1.97077524408401E-17	1.15337465456747E-17	1.07838366659074	-0.00180560846752324	1.07838366659074	-0.00180560846752298	1.20904326102316E-17	-4.07518083245779E-18
57.9	-9.52418337278011E-18	9.53042115162554E-18	1.08407561109662	-0.142725006684226	1.08407561109662	-0.142725006684226	-2.14999808508262E-17	7.90824502675128E-18
58	4.43302798706513E-18	-1.09311749955421E-17	1.00213100180347	-0.346828977969231	1.00213100180348	-0.346828977969232	7.4120655767534E-18	6.26972060412583E-18
58.1	-7.64119459080103E-18	-5.39220513763383E-18	0.942240181475515	-0.430195469610031	0.942240181475515	-0.430195469610031	-1.40499334369928E-17	1.36269185153474E-19
58.2	1.58418538494689E-17	6.79168125298199E-18	0.902649978309523	-0.595123978572285	0.902649978309523	-0.595123978572285	1.63713568452975E-17	3.12880105011077E-17
58.3	1.07589819762974E-17	-3.14334314125401E-18	0.787946041178052	-0.727500483721984	0.787946041178052	-0.727500483721984	-7.71931671560204E-18	-2.86376505510662E-17
58.4	-2.23197596749451E-17	-1.297310599442E-18	0.687810721946521	-0.765714285781735	0.68781072194652	-0.765714285781735	-1.5266587045571E-17	1.27313280621529E-17
58.5	1.60208851287497E-17	1.59075794926131E-17	0.603507391646962	-0.918785695520117	0.603507391646963	-0.918785695520118	1.06091569687429E-17	3.40296155841187E-18
58.6	1.09599993837996E-17	-2.06893711930907E-17	0.435866058941743	-0.981388226759728	0.435866058941744	-0.981388226759728	-1.24993499818633E-17	-4.88084387736169E-18
58.7	1.17771366240191E-17	1.65280017662537E-17	0.293622868682966	-1.00001041734742	0.293622868682966	-1.00001041734742	8.15094146711886E-18	-4.84128767024904E-18
58.8	-8.95858677137939E-19	5.91720845579012E-18	0.167265874438412	-1.05182965188184	0.167265874438412	-1.05182965188184	-7.72866393173491E-18	7.82735454007944E-18
58.9	-5.32892439765995E-19	-2.47371335742036E-17	0.0335171121219765	-1.08783214879692	0.0335171121219768	-1.08783214879692	1.2431816526057E-17	-1.29188930722855E-18
59	-7.84340843755542E-18	4.38381199797678E-18	-0.153685977754376	-1.04881747328263	-0.153685977754377	-1.04881747328263	-9.80543698440032E-18	8.02354579941086E-18
59.1	8.55182680677471E-18	-4.73356555494732E-18	-0.265482462240239	-1.02783239911842	-0.265482462240239	-1.02783239911842	-1.47826360512318E-17	1.26511835548572E-17
59.2	7.74149518119598E-18	5.65510623069967E-18	-0.415776493477298	-1.01908798577599	-0.415776493477298	-1.01908798577599	9.027788217211E-18	6.96909239267155E-18
59.3	2.05355593506597E-17	-1.60077918461612E-17	-0.570127901773649	-0.89217213232471	-0.570127901773649	-0.89217213232471	6.1844905820983E-18	-4.1015609124667E-18
59.4	2.66556810936846E-18	-4.48395003005553E-18	-0.660596976924318	-0.845995929565704	-0.660596976924318	-0.845995929565704	1.3409569001986E-21	1.44205554736433E-17
59.5	2.34471905210643E-17	-2.02576316768045E-18	-0.800394201952077	-0.734224355199485	-0.800394201952077	-0.734224355199484	1.37217238042129E-17	-7.60459239583383E-18
59.6	3.83360148956879E-18	-9.68803713048295E-19	-0.878019076058996	-0.599983076914318	-0.878019076058996	-0.599983076914317	5.32762965669688E-18	-5.23656132209822E-18
59.7	-5.0709683754297E-18	-2.42437989835134E-17	-0.969390673036299	-0.496958938072308	-0.9693906730363	-0.496958938072308	1.61957907252818E-18	1.37096444646192E-18
59.8	1.70993965959799E-17	-5.28285964219941E-18	-1.03764294439715	-0.350151111980665	-1.03764294439715	-0.350151111980665	5.91070418779098E-18	2.54036058819074E-18
59.9	1.02997737654294E-17	-3.47246253564886E-17	-1.06682220987006	-0.217443416385687	-1.06682220987006	-0.217443416385686	-8.86260376140864E-19	-3.17017578361839E-18
60	-8.33628580414669E-18	2.3566460181065E-18	-1.08025595248901	-0.044998382704616	-1.08025595248901	-0.0449983827046164	-3.07488444958681E-18	1.24615264049108E-17
60.1	3.29890481954096E-18	-4.61809795756795E-18	-1.07183290104264	0.088687223078429	-1.07183290104264	0.0886872230784291	-4.57733415924135E-18	9.1538039674138E-18
60.2	1.56385630810286E-17	1.7117518405447E-19	-1.08194432027993	0.223423591413865	-1.08194432027993	0.223423591413866	-1.22556712229378E-17	-9.70114955586125E-18
60.3	-1.62238480901372E-17	3.51657508677961E-17	-1.01109497818373	0.402692493463028	-1.01109497818373	0.402692493463028	-6.51580423418051E-18	-9.0507132165797E-19
60.4	1.6338714156827E-17	1.65759096266578E-17	-0.953334522602238	0.490504058895618	-0.953334522602238	0.490504058895618	-2.78159680330082E-18	4.63130272762683E-19
60.5	-1.107666080137E-17	-6.77410737513462E-18	-0.886665347583244	0.651174075951439	-0.886665347583244	0.65117407595144	5.64061621318267E-18	-4.83157589925112E-18
60.6	-7.86645073437934E-18	1.73482683696072E-17	-0.786278687465428	0.75914871536458	-0.786278687465427	0.75914871536458	-1.23164297556099E-17	-3.54277680188851E-18
60.7	-9.60899313174682E-18	-1.68397583531489E-17	-0.672055164986317	0.863068361111329	-0.672055164986318	0.863068361111329	-4.0470656414797E-18	-7.54085604272757E-18
60.8	6.10116179028548E-18	1.10807629518098E-17	-0.550888083156399	0.954763350658451	-0.550888083156399	0.954763350658451	-1.16688269208678E-17	6.13677896940671E-18
60.9	6.93797040192154E-18	6.22836157063472E-18	-0.425465700807988	1.02248096001393	-0.425465700807988	1.02248096001393	-1.43287570709356E-17	1.12370737321062E-17
61	-7.01895699726829E-19	-1.65518206133573E-17	-0.268977693196795	1.06995822353256	-0.268977693196795	1.06995822353255	-2.4733788638752E-17	-3.48414341507666E-17
61.1	1.26558215093581E-17	-4.47252293180935E-18	-0.123405291803663	1.08244559392103	-0.123405291803662	1.08244559392103	2.50624754839021E-17	-1.58705092657877E-17
61.2	-1.29618544600861E-17	-1.81692573716349E-17	0.0102332203848272	1.10116831668016	0.0102332203848274	1.10116831668016	4.8086394270068E-18	-2.42856296413687E-17
61.3	-2.53947563057569E-17	2.61809489655539E-17	0.16931132927089	1.10651163341202	0.16931132927089	1.10651163341202	-2.0554530441112E-17	8.00710235305393E-18
61.4	-9.59807004618392E-18	1.61331510856802E-17	0.34195678652446	1.04431466593265	0.34195678652446	1.04431466593265	2.90287100052737E-18	2.25503948048987E-17
61.5	2.64429942503503E-18	-8.8256178859803E-18	0.432413489560647	1.00030526627512	0.432413489560647	1.00030526627512	1.12467374082965E-17	-1.34616067316892E-17
61.6	-1.05206793502955E-18	-2.971323073349E-18	0.604839233752076	0.958654332454988	0.604839233752076	0.958654332454988	-4.04650109984601E-18	-3.16500978270402E-18
61.7	8.66057516236402E-18	1.55738821766567E-17	0.730653062842573	0.847819884763937	0.730653062842572	0.847819884763937	6.51138393619169E-18	1.52530543353494E-17
61.8	2.29801425486017E-17	-2.32326768167622E-17	0.815103430247901	0.738001459964636	0.815103430247901	0.738001459964636	1.24800412520583E-17	-2.28462324081812E-17
61.9	1.07548827004114E-17	-1.29191363770314E-17	0.916036785159929	0.61735357077864	0.91603678515993	0.61735357077864	2.55431956653037E-18	-2.33009819905623E-17
62	-2.34229735119824E-18	1.17179612146368E-17	0.996675703811842	0.512840179639002	0.996675703811842	0.512840179639002	-2.03310536230767E-17	7.15946568417926E-18
62.1	2.06832486296419E-17	3.17196005888779E-19	1.07338137489294	0.360528483281237	1.07338137489294	0.360528483281237	1.44099207577397E-17	2.24188559774786E-17
