# GHZ S RI R 50
50	1.1045423431295E-17	9.35609971100393E-18	0.750313978694099	-0.529867727033652	0.7503139786941	-0.529867727033652	-9.83091320181691E-18	1.17006616240896E-18
50.1	2.5655726034508E-17	1.11143842481143E-17	0.63252917290138	-0.632113681006538	0.63252917290138	-0.632113681006538	3.646033861417E-21	-5.54876067075261E-18
50.2	-8.25426504980739E-18	1.13777417334328E-17	0.534365684837366	-0.724401007347295	0.534365684837366	-0.724401007347295	-8.99732743622679E-18	-5.31171421551718E-18
50.3	-7.27470655355219E-18	-3.96985423302381E-17	0.415849659594082	-0.830982175326661	0.415849659594082	-0.830982175326661	1.3101175134206E-17	7.49838709761748E-18
50.4	-1.57520200831448E-17	2.74836286896705E-17	0.235826351392147	-0.849277088124701	0.235826351392148	-0.849277088124702	-5.07879101272342E-18	-4.62906913241515E-18
50.5	3.21162536519422E-18	-5.95657359396879E-19	0.128170823919872	-0.908654371948732	0.128170823919872	-0.908654371948732	-7.72079889876385E-18	-2.22234171104051E-18
50.6	9.92344316956181E-18	-8.65091439016158E-19	-0.0393663620115478	-0.904853854669521	-0.0393663620115475	-0.904853854669521	1.66480372108487E-18	2.71168498572964E-18
50.7	5.76968371297356E-18	6.78225798701241E-18	-0.171534912455562	-0.884409332890701	-0.171534912455563	-0.884409332890703	-1.53891393163427E-18	1.12461188162854E-17
50.8	-1.12935010956374E-17	1.43228298480666E-17	-0.335298555506739	-0.867098057625124	-0.335298555506739	-0.867098057625124	-9.07501903018088E-18	1.23054385509649E-17
50.9	-6.48030238887402E-18	2.00617237410173E-17	-0.450969400738038	-0.768832961275693	-0.450969400738037	-0.768832961275692	-2.84568078322111E-19	6.15691970045672E-18
51	5.31860996443791E-18	3.55402478536903E-18	-0.589975911403965	-0.704633481634429	-0.589975911403965	-0.704633481634429	5.09941218662671E-18	-3.55443171595085E-18
51.1	6.40750463698437E-19	4.29355247843281E-18	-0.691838322511912	-0.596253105972601	-0.691838322511912	-0.596253105972601	6.08800335789063E-18	-8.22383823688541E-18
51.2	1.74985653521543E-17	-4.94608191906167E-18	-0.773571010721366	-0.473179757575267	-0.773571010721366	-0.473179757575267	1.21114361131198E-18	-7.02882929552657E-18
51.3	2.85010169500335E-18	2.77189728439535E-18	-0.84582706167159	-0.343480915421192	-0.84582706167159	-0.343480915421192	4.3288640570098E-19	-5.62910847127215E-18
51.4	1.92133865736724E-17	-5.48447596149065E-18	-0.908817286548025	-0.219417860178342	-0.908817286548024	-0.219417860178342	-6.68786078440915E-18	-8.73186920564332E-19
51.5	-1.13049529334646E-18	-2.91369845214495E-18	-0.896633317362909	-0.0419636946192741	-0.896633317362909	-0.041963694619274	4.87052453834545E-18	4.56895505816419E-19
51.6	8.0498048524563E-18	1.93721132679662E-19	-0.918475281570661	0.0735810005200466	-0.918475281570661	0.0735810005200469	3.4580035620745E-17	-1.45273054328672E-17
51.7	3.13291182363277E-17	-9.88959334093435E-19	-0.909822746534803	0.224739963781829	-0.909822746534803	0.224739963781828	5.3672693493554E-18	2.47215661990315E-17
51.8	5.15164220125006E-18	-1.68849184508563E-18	-0.804702603572478	0.357367057625665	-0.804702603572477	0.357367057625664	-1.44669898445752E-17	-1.30756663511358E-17
51.9	7.7757766583202E-18	5.34722264871825E-18	-0.810419867019134	0.492836077758171	-0.810419867019134	0.492836077758171	-5.85869052332247E-18	-2.94015506278217E-17
52	3.20779403295666E-18	-5.48407767799048E-18	-0.660548304115106	0.618567816952432	-0.660548304115106	0.618567816952432	-8.3410761141318E-18	-1.38954343042789E-17
52.1	-1.73118287880827E-18	-4.65760957450748E-18	-0.564863826637841	0.700787052953771	-0.564863826637841	0.700787052953771	7.3449875068285E-18	-5.91069492655938E-18
52.2	5.15454214207952E-18	-4.40998773911928E-18	-0.474229799986989	0.789562381419356	-0.474229799986989	0.789562381419355	1.07440218852664E-17	-1.11351372150411E-17
52.3	1.05098339981517E-17	3.00566186503732E-18	-0.34804106255275	0.855824712102437	-0.34804106255275	0.855824712102436	1.92501134009338E-17	3.11646593312422E-17
52.4	6.92741399436016E-18	7.66440106388592E-18	-0.191555633439281	0.930390819512417	-0.191555633439281	0.930390819512418	2.87594086160561E-18	1.2366607930594E-18
52.5	-8.16277147333623E-18	-8.2818308510871E-18	-0.0759936702890958	0.879471022766156	-0.0759936702890958	0.879471022766155	-3.89415518452836E-17	6.94073222212644E-18
52.6	-3.16819442116803E-18	1.79385770283983E-17	0.0634946110332649	0.951661475544974	0.0634946110332651	0.951661475544974	5.53962953381908E-17	3.31753547288968E-17
52.7	3.99880441948185E-17	2.10319167715314E-17	0.270853797040258	0.914128790951023	0.270853797040258	0.914128790951023	-1.33387073400217E-17	-5.52673441332077E-17
52.8	1.7917131341105E-17	-1.8667447550493E-17	0.287636892716297	0.769719289931065	0.287636892716297	0.769719289931064	-6.52023324286836E-18	-2.53662531278531E-17
52.9	4.38200145084557E-18	-6.12878517626071E-17	0.578902682333207	0.849334205115316	0.578902682333207	0.849334205115316	-7.65213159239622E-17	-4.58078763431583E-17
53	-7.17457317904654E-18	3.04851342092359E-18	0.576269519082661	0.662255079029039	0.576269519082661	0.662255079029039	-1.47186259129473E-17	8.74516838055326E-18
53.1	-1.36113500056229E-17	2.63877601188037E-18	0.700245701503879	0.6282068187417	0.700245701503879	0.6282068187417	3.96548730033921E-18	8.06210983137998E-18
53.2	-6.80448668484595E-18	1.13864543274454E-17	0.840812521958249	0.491402078361683	0.840812521958248	0.491402078361683	-1.98874445300012E-17	1.49794300230526E-17
53.3	3.2405965406663E-18	-9.36613483969319E-19	0.854168372412606	0.374192328952015	0.854168372412605	0.374192328952015	1.58694277436239E-17	-2.28454283088684E-17
53.4	1.30613302518407E-17	-2.10947640511531E-18	0.881351841256043	0.177960012483239	0.881351841256042	0.177960012483239	-1.36068254427773E-17	-2.55099747507464E-17
53.5	-2.72981396226829E-18	-2.43145141520336E-18	0.962344085698049	0.127775712651177	0.962344085698049	0.127775712651177	3.1052645925081E-17	4.16019802905606E-18
53.6	1.57067562760214E-18	-1.46163518770879E-17	0.949291714297448	-0.0779678710177823	0.949291714297448	-0.0779678710177823	-8.82663221870676E-18	2.37922335339089E-17
53.7	1.39324965030764E-17	7.83174354208895E-18	0.857821254425107	-0.223216229614901	0.857821254425107	-0.223216229614901	6.44970115654616E-18	1.43501966820945E-17
53.8	1.95511570322701E-17	-9.66112297344225E-18	0.967451599482771	-0.312090645904243	0.967451599482771	-0.312090645904243	1.72228078981585E-17	-1.90295673767766E-17
53.9	1.26061908427861E-17	-1.43939527176595E-17	0.819196113819546	-0.478282370877686	0.819196113819547	-0.478282370877686	-1.39771966811876E-17	-6.99349503050518E-18
54	7.78702255046101E-18	6.89414652064266E-18	0.718225436899421	-0.589293438902136	0.718225436899421	-0.589293438902135	-9.10922976344327E-18	-7.92080194571521E-18
54.1	8.30238698602561E-18	3.16398310483921E-18	0.648469878474513	-0.664367014417984	0.648469878474513	-0.664367014417985	3.55835033113249E-17	-1.28266152404627E-17
54.2	3.6766484374056E-18	-1.68725289079667E-17	0.550538199521041	-0.770289002358555	0.550538199521041	-0.770289002358555	-9.56665982964951E-18	-2.79547110769351E-17
54.3	1.12760135566396E-17	-1.03622298109203E-17	0.37779679102738	-0.860274546028762	0.377796791027381	-0.860274546028762	-9.41738520440016E-18	-7.98458786421964E-18
54.4	-9.40964603362801E-18	-1.54557402953682E-17	0.330388818714743	-0.851656050771827	0.330388818714743	-0.851656050771826	-8.78602305177911E-18	9.61982458198991E-18
54.5	-1.25787352655896E-17	-2.0510159770056E-17	0.116224037347088	-0.983478771054121	0.116224037347088	-0.983478771054121	-3.29525753338677E-17	6.09727596023851E-18
54.6	8.49696854744069E-18	-1.19235494153362E-17	-0.0111872315728872	-0.91863591716576	-0.0111872315728872	-0.91863591716576	6.89064455686769E-18	-1.77427021985046E-17
54.7	-6.16729917422975E-18	8.55019793462521E-18	-0.131687248773869	-0.965280782281326	-0.131687248773869	-0.965280782281326	-1.76059156446558E-18	9.03392488996989E-18
54.8	-1.67033130484898E-18	-1.49368224063906E-17	-0.298119386623449	-0.924693908967571	-0.29811938662345	-0.924693908967571	2.43461524619057E-17	-5.41517373851474E-18
54.9	-2.1936420716567E-18	-1.35933849890508E-18	-0.425820553170418	-0.844890278751171	-0.425820553170418	-0.844890278751172	2.48650711153949E-17	2.9470936470795E-18
55	-2.38216291505054E-19	1.12875051862008E-17	-0.538852639651631	-0.802601050801089	-0.538852639651631	-0.802601050801089	-9.37757527129356E-18	5.79761156613083E-18
55.1	-4.4200099347312E-18	5.77317670834642E-18	-0.669153582488419	-0.706069318735213	-0.669153582488419	-0.706069318735212	-1.76134682887829E-19	3.27841097406151E-18
55.2	1.04477224610133E-17	-7.8736149901392E-18	-0.74176067612642	-0.600821109246964	-0.74176067612642	-0.600821109246964	-5.95163573750731E-18	-5.20010266065483E-18
55.3	7.80718137790707E-19	-2.61265670321136E-19	-0.841463204563516	-0.461270473337491	-0.841463204563516	-0.461270473337491	-6.40098179824917E-19	-2.32769139546285E-17
55.4	7.85447406721093E-18	-2.00693993671065E-18	-0.898776171542972	-0.374135210432573	-0.898776171542972	-0.374135210432573	-6.99173283777467E-18	4.62577828488918E-18
55.5	-6.6654865280631E-18	2.52863315937661E-18	-0.96228410540195	-0.206516764963594	-0.962284105401949	-0.206516764963594	9.01143327996673E-18	-1.18375959277991E-17
55.6	-8.53148432518359E-18	-9.57566982457429E-18	-0.95768613777984	-0.0807609737397421	-0.95768613777984	-0.080760973739742	7.69086503055909E-18	-1.65717829209747E-17
55.7	5.9168130340757E-18	6.94757882923779E-18	-0.984546396507433	0.0578795356352313	-0.984546396507433	0.0578795356352312	1.12875343333653E-17	2.06632798601767E-18
55.8	1.63474566494585E-18	1.30776201332198E-17	-0.956022431529491	0.216853382221772	-0.956022431529491	0.216853382221772	-2.31147030780906E-17	-3.2618972302577E-20
55.9	7.80348578514913E-18	-1.22383635369733E-18	-0.920529562691482	0.343426714226732	-0.920529562691482	0.343426714226732	9.07007057941985E-18	1.42988589833719E-17
56	1.60703808028977E-17	-3.55469450143624E-18	-0.835143833054744	0.476818155038736	-0.835143833054743	0.476818155038736	2.81303823563914E-17	9.15288696763961E-18
56.1	-4.27350464382548E-18	4.0144373370311E-18	-0.790612341199011	0.590013462065585	-0.790612341199011	0.590013462065585	-9.71039758149036E-18	-2.88261069844826E-18
56.2	1.11804885148258E-17	8.40700329187155E-18	-0.698226807268173	0.712592388542063	-0.698226807268172	0.712592388542063	6.67464007521057E-18	3.0949035986253E-17
56.3	-9.56278076014598E-18	2.17265226815908E-18	-0.53724687521404	0.800451324370416	-0.53724687521404	0.800451324370416	-1.1936006982209E-17	4.88620418791362E-18
56.4	-2.90136721488064E-19	-5.96064991266942E-18	-0.474559856401271	0.874815567098095	-0.474559856401271	0.874815567098095	-6.48157074730103E-18	4.21612135149103E-18
56.5	1.4419567326518E-18	-3.31899787057147E-18	-0.323501015195585	0.952483211686897	-0.323501015195585	0.952483211686898	1.41212632244666E-17	-6.86176221086562E-18
56.6	1.17724328502021E-17	1.5021754570575E-17	-0.176592451336945	0.955099749113575	-0.176592451336945	0.955099749113576	8.45405307441203E-18	-3.77270315649803E-18
56.7	-1.38659114097368E-18	-3.52190710893334E-18	-0.0437361897923763	0.986849744071275	-0.0437361897923763	0.986849744071275	-7.87611279384888E-19	-1.02662313960056E-17
56.8	-1.27730721292183E-17	1.99732942757095E-17	0.0824801845790871	1.00451498671426	0.0824801845790871	1.00451498671426	-9.82901458327219E-18	-1.62364100024519E-17
56.9	-1.3596164174488E-18	1.39338366938612E-17	0.231249634941573	0.957255062637283	0.231249634941573	0.957255062637283	3.22886468535183E-18	2.10339547960652E-17
57	1.66954764873446E-17	5.54929482721941E-18	0.386448866386071	0.880640764456225	0.386448866386072	0.880640764456224	3.30130620579086E-17	2.030630216062E-18
57.1	2.25610350908305E-17	-9.41568072435252E-18	0.496372284812298	0.847741920662884	0.496372284812297	0.847741920662883	3.20565694790256E-17	-4.3440588532799E-17
57.2	3.48008292442345E-17	2.85437325449523E-17	0.622478708783332	0.793858400412877	0.622478708783332	0.793858400412877	1.88892533230048E-17	1.19107096071006E-17
57.3	-8.69835387444499E-18	1.19277945965611E-17	0.757863421779261	0.622635898431122	0.757863421779261	0.622635898431122	-4.22776222291438E-17	2.70760627611913E-17
57.4	3.1428258171818E-18	2.20851799582511E-17	0.773919820951439	0.549872970159302	0.773919820951438	0.549872970159302	-5.13404131008637E-18	4.27269191491723E-18
57.5	1.69206837738161E-17	4.7054043339504E-18	0.902774572782784	0.444321929211466	0.902774572782785	0.444321929211467	3.11630414429616E-17	5.9316252350383E-18
57.6	-1.62312319196768E-17	1.21153715965256E-17	0.956942846805673	0.285989838567254	0.956942846805673	0.285989838567254	-1.1349218543607E-17	2.3599082905606E-17
57.7	-1.11825029294833E-17	-1.70063144125866E-17	0.945376781599694	0.149845196372319	0.945376781599694	0.149845196372319	-9.27736978897945E-18	2.83261465020941E-18
57.8	-1.61979665246297E-18	5.07109200295354E-18	0.995673892239926	0.0319701209493889	0.995673892239927	0.0319701209493886	-6.54057841854223E-18	-5.5956762682686E-18
57.9	7.40771789274538E-18	-5.92635216986235E-18	1.00479369460722	-0.0958843634694661	1.00479369460722	-0.0958843634694662	-6.52395883963757E-18	3.50634925184994E-18
58	-2.17926163525856E-18	-1.26928271706399E-17	0.936298107643206	-0.292045988174849	0.936298107643205	-0.292045988174849	1.48732320121569E-18	1.97633211295228E-17
58.1	-1.6150764375801E-17	6.73295112065514E-19	0.879183067716667	-0.367880567544307	0.879183067716667	-0.367880567544307	-1.67198497007804E-17	-9.9388017553162E-19
58.2	7.67680155840744E-18	3.94136626972899E-18	0.851269071339334	-0.519856171290357	0.851269071339334	-0.519856171290358	-2.67114894556613E-17	7.62675269463323E-18
58.3	-5.59293233689804E-18	1.46372535695622E-17	0.749194054260039	-0.646878911261092	0.749194054260039	-0.646878911261092	7.80538688601958E-18	2.86373121888047E-17
58.4	-1.03136757883722E-17	1.27923856265184E-17	0.653910966251465	-0.68080816508395	0.653910966251464	-0.680808165083951	1.29544817005441E-18	-6.24050048851027E-18
58.5	3.02590633750906E-18	1.96347650215647E-17	0.587250136681692	-0.824294422600417	0.587250136681693	-0.824294422600417	1.66707218576956E-17	-1.70419008995353E-17
58.6	3.88842019596929E-18	7.71500995817946E-18	0.432787121117112	-0.888493335740726	0.432787121117113	-0.888493335740726	-3.53894842052849E-17	-6.72255847640327E-18
58.7	3.31115501426997E-17	2.46109365624787E-17	0.300482413061636	-0.907978329115678	0.300482413061637	-0.907978329115678	-1.4634056542378E-19	2.85685622217416E-18
58.8	-1.20486877064318E-17	-1.20940643763938E-17	0.188732593028551	-0.958699098549888	0.18873259302855	-0.958699098549888	4.459254941569E-18	3.67845756080592E-20
58.9	6.88738315205864E-19	-2.95801430396197E-17	0.0700118093485867	-0.995763344339165	0.0700118093485864	-0.995763344339164	1.84170962543163E-18	5.49746799073713E-18
59	2.98089268029033E-17	-5.81146086947338E-18	-0.106561004462787	-0.966764708613064	-0.106561004462787	-0.966764708613065	-4.1929312823288E-18	-1.12544212329952E-17
59.1	-4.23666510790374E-18	-1.5156145394062E-17	-0.206815284057907	-0.948932962613448	-0.206815284057908	-0.948932962613448	1.75897471959393E-18	1.26910657756692E-17
59.2	1.06468569159751E-19	2.2017361311444E-18	-0.341848469955782	-0.948523936590192	-0.341848469955781	-0.948523936590191	4.86149496495217E-18	2.41317593367982E-18
59.3	2.20355469844637E-17	-1.02855683913451E-17	-0.492104756111224	-0.835786048100694	-0.492104756111224	-0.835786048100694	9.34860136386943E-18	-5.07742786658093E-18
59.4	6.68845152114408E-19	-9.45201887728543E-18	-0.571351978280026	-0.796513047217323	-0.571351978280026	-0.796513047217323	-4.27022557711418E-18	-1.72822688704233E-17
59.5	2.40651399245202E-17	1.27179456070065E-17	-0.704805774005394	-0.700843243551707	-0.704805774005395	-0.700843243551707	-8.55914943129175E-18	1.76207375886971E-18
59.6	2.89673119221011E-18	-1.73296002842085E-18	-0.780236401038604	-0.578888715130828	-0.780236401038604	-0.578888715130828	-4.29667777596854E-18	-8.53579160738577E-18
59.7	1.17432185978298E-18	5.30446220008271E-18	-0.865807362679052	-0.490668751201587	-0.865807362679052	-0.490668751201587	-6.62457360078559E-18	-6.04541820331782E-18
59.8	-2.37510415581715E-17	-7.41366184841855E-18	-0.934056201759042	-0.359583433568923	-0.934056201759042	-0.359583433568922	-1.10819075790042E-17	-1.23594057378594E-17
59.9	-2.64253971838273E-17	2.05919983341661E-17	-0.963629193035509	-0.239915587267691	-0.963629193035509	-0.239915587267691	-1.34075285691E-17	6.29750539783515E-19
60	-2.58177377805377E-17	8.07413193520205E-19	-0.983209579061678	-0.0818597315229859	-0.983209579061678	-0.0818597315229862	-5.13562361788583E-18	-5.05082552186778E-21
60.1	7.57008240332659E-18	1.10767941785053E-17	-0.978644305916685	0.0393451613803952	-0.978644305916685	0.0393451613803949	4.57543794247284E-18	-5.37698256794346E-18
60.2	-2.60003103338731E-17	6.63815409420506E-18	-0.99358468205661	0.158026036293122	-0.993584682056609	0.158026036293122	-1.2993915134617E-17	-8.6884203071716E-18
60.3	1.38559631656072E-17	6.4297695660825E-18	-0.93661847063723	0.327463329094945	-0.936618470637231	0.327463329094945	9.27122835092654E-18	-1.38113066577515E-18
60.4	-1.41228857439507E-17	8.47166842834232E-19	-0.884075418271853	0.405827554777563	-0.884075418271853	0.405827554777562	-1.09354463661559E-17	-9.94244816927916E-18
60.5	5.75185241039618E-18	-7.01497173139613E-18	-0.832935942738426	0.554969715432989	-0.832935942738426	0.554969715432989	4.00941626353898E-19	1.67310132613639E-19
60.6	-9.24303969729158E-18	4.85793265295142E-18	-0.745317165376106	0.656315776961695	-0.745317165376106	0.656315776961695	-3.50245405050893E-18	4.15759195553479E-19
60.7	-1.40497241651269E-17	-1.77362296077938E-17	-0.645946736550295	0.755085489348338	-0.645946736550295	0.755085489348338	4.56207758290979E-18	1.45212877268162E-18
60.8	-7.81240988732971E-18	-1.07686486099853E-17	-0.540603440325771	0.842886770899696	-0.540603440325771	0.842886770899695	3.97798414883355E-18	3.27584817976583E-19
60.9	3.34098365262223E-18	2.00846115904571E-18	-0.430531215926655	0.908321984735067	-0.430531215926655	0.908321984735066	-1.04683962463575E-18	-8.20128166505802E-18
61	3.62036608294772E-18	1.49531620701083E-17	-0.290080855680285	0.958362919223462	-0.290080855680285	0.958362919223462	-3.13335615088303E-18	1.25424007171081E-17
61.1	7.61436858335742E-18	6.54648467920765E-18	-0.158125095634748	0.974224761272128	-0.158125095634748	0.974224761272128	-2.05738020487426E-17	9.61740697880952E-18
61.2	-1.30410139757408E-17	8.90294309717327E-19	-0.0402225284806944	0.995967261328235	-0.0402225284806944	0.995967261328235	-6.98574838587789E-18	1.15392214640112E-17
61.3	2.2414117768188E-17	2.69726743239544E-18	0.102266862843379	1.00915542454169	0.102266862843379	1.00915542454169	-1.337492210975E-18	-5.41927563422807E-18
61.4	-2.38726307924381E-17	3.20931382266894E-18	0.264362050403417	0.960150936348349	0.264362050403418	0.960150936348349	-1.86367159360037E-18	-5.64869285644103E-18
61.5	-2.48716040629742E-17	7.13667072091075E-18	0.343583786029618	0.921036303678006	0.343583786029619	0.921036303678007	-5.51033318618502E-18	2.30771151800152E-17
61.6	-1.92888142073458E-17	-1.39936432413406E-17	0.501064117244762	0.895840280919785	0.501064117244762	0.895840280919785	-8.44860895712816E-18	-8.94349976726468E-18
61.7	1.41003936989683E-17	-1.20008026882389E-17	0.620921021452426	0.800218332308937	0.620921021452425	0.800218332308936	5.62468751463619E-18	-1.11885944730596E-17
61.8	-1.02734176325646E-17	7.32709475058517E-18	0.700301915252014	0.702871910074401	0.700301915252015	0.702871910074401	1.11222049028266E-17	-5.9364281582233E-18
61.9	-9.38134789675118E-18	-7.6104081426032E-18	0.796964550577967	0.59918751294109	0.796964550577967	0.59918751294109	-1.44516627127756E-17	-3.09893571061013E-19
62	-1.14460385923941E-17	1.33775579306915E-18	0.872340513645258	0.510918814899327	0.872340513645258	0.510918814899328	2.27242385812451E-18	-2.29085859656322E-18
