# GHZ S RI R 50
50	1.41687211756183E-17	1.12363175147634E-17	0.743545863024494	-0.520822463558027	0.743545863024494	-0.520822463558027	-1.3129020749437E-18	2.56499760602671E-18
50.1	-1.61741977867582E-17	-1.22730632244881E-17	0.62636137815836	-0.62285639691116	0.62636137815836	-0.62285639691116	2.69949736137755E-18	1.3687373319447E-18
50.2	6.07681160618427E-18	2.24561031060587E-17	0.529273778861584	-0.713015394739527	0.529273778861583	-0.713015394739527	-5.63317281541153E-18	2.74572336846125E-19
50.3	-3.52741416755164E-17	-3.70935051580221E-18	0.414076380646291	-0.817788373269702	0.414076380646291	-0.817788373269702	1.66126024679779E-17	4.59543386538668E-19
50.4	-7.0899051084382E-18	-1.23629551921734E-17	0.234254158487321	-0.837869919607303	0.234254158487322	-0.837869919607303	-3.21129804851688E-18	-1.11620341731624E-17
50.5	-1.1025595967488E-18	-6.2414693093117E-18	0.130066408831128	-0.89446516023334	0.130066408831128	-0.89446516023334	-2.86474442986744E-18	-5.28655449935589E-18
50.6	4.95724440570186E-18	-7.32793055438834E-18	-0.0356761578103025	-0.891752638191498	-0.0356761578103027	-0.891752638191498	-1.04136320508915E-17	-8.86833930341305E-18
50.7	1.28305735871906E-18	-4.17108780451741E-18	-0.165808130837519	-0.870785006166326	-0.165808130837519	-0.870785006166326	-7.07448446476833E-18	-3.0670446893637E-18
50.8	-9.65559294477207E-18	-2.10081952709225E-18	-0.325725487198923	-0.855279212459228	-0.325725487198922	-0.855279212459229	-2.17961979544339E-18	-6.81515508058779E-18
50.9	-7.30588436368173E-18	-8.73699394486748E-18	-0.441330531812879	-0.757392866203894	-0.441330531812879	-0.757392866203894	6.19098092697703E-19	-1.19065431208771E-17
51	3.43997948140995E-18	-2.95741866529283E-18	-0.576980340787678	-0.695641555935627	-0.576980340787678	-0.695641555935627	1.62692481490831E-17	1.31532670468852E-17
51.1	-8.35438407797897E-18	8.19042136872477E-19	-0.677403943946147	-0.589012085120335	-0.677403943946147	-0.589012085120335	-1.38430624426082E-18	1.9418644965628E-19
51.2	-6.56210199531768E-21	-6.15559024446596E-18	-0.757978084152187	-0.467898064630312	-0.757978084152187	-0.467898064630312	-6.15887129546361E-18	-3.07123302023766E-18
51.3	2.18082123303664E-18	-7.64987430813388E-18	-0.829021046421676	-0.341042499513424	-0.829021046421676	-0.341042499513424	-3.92368651209844E-18	3.96187186485296E-18
51.4	4.99699246257625E-18	1.00667833521187E-17	-0.890237838549959	-0.220699423628721	-0.890237838549958	-0.220699423628721	1.55856325751874E-17	-1.84065624967431E-20
51.5	1.00143028786403E-17	4.7349199015859E-18	-0.880083119426758	-0.0443433621389823	-0.880083119426758	-0.0443433621389828	1.4349912674831E-17	-8.02750722456878E-18
51.6	-2.5176697080213E-18	1.18101233868001E-17	-0.900128765065021	0.0670643444142432	-0.900128765065021	0.067064344414243	-5.25800008300987E-19	1.0797102607984E-17
51.7	-3.14426004409875E-17	3.48771507041731E-17	-0.892550974874744	0.21420902745881	-0.892550974874745	0.21420902745881	1.89802890665873E-17	3.62589009006117E-17
51.8	-6.0467008384578E-18	-2.29977873627533E-17	-0.788869828959875	0.347601224434399	-0.788869828959875	0.347601224434399	-5.49649526359851E-17	-4.8426465918618E-18
51.9	2.86218350109923E-18	-1.47683471989908E-17	-0.796138377528021	0.47572540246055	-0.79613837752802	0.47572540246055	-1.12191743025091E-17	-4.34146947712522E-18
52	-4.02556634912524E-18	-9.84342199504292E-19	-0.649645174374296	0.602862178227444	-0.649645174374297	0.602862178227444	2.08774852863433E-17	-5.09941520086427E-18
52.1	-7.96851084291595E-18	-8.6352626059421E-18	-0.555381853490362	0.682626099882142	-0.555381853490363	0.682626099882142	-1.22651757802968E-17	7.00752278495146E-18
52.2	3.75957140654334E-18	-3.61405776867474E-19	-0.467886021460552	0.767911328593465	-0.467886021460552	0.767911328593465	-1.71730725030814E-17	3.0958637403562E-17
52.3	-7.8006989132497E-21	1.49508395806898E-17	-0.345177633627114	0.832718016170918	-0.345177633627114	0.832718016170918	2.19476598222586E-17	-3.78640192460081E-17
52.4	1.65400383472938E-17	-3.50720583130097E-19	-0.19449935584059	0.907529646479433	-0.19449935584059	0.907529646479434	1.84119428796496E-17	2.46544141654932E-17
52.5	-8.44519367552311E-18	-1.7814314065972E-17	-0.0777743890480215	0.855443504019443	-0.0777743890480213	0.855443504019444	-1.15613695502168E-17	-8.18501504501684E-19
52.6	1.45473784951841E-17	2.09064993231019E-18	0.0531784828798176	0.927153829065916	0.0531784828798173	0.927153829065915	1.8027479120715E-17	2.57857161770759E-17
52.7	-7.25368378447075E-18	5.42898185545374E-18	0.257109286456317	0.89519629152989	0.257109286456318	0.89519629152989	2.80825354886182E-17	1.08254043383994E-17
52.8	-1.12414956871587E-17	1.55497569622472E-17	0.278022225986009	0.745688076250459	0.278022225986009	0.745688076250458	6.11386566452892E-18	7.05930447052732E-18
52.9	1.07209523780231E-17	8.33460337323359E-18	0.554785987370304	0.837087103282564	0.554785987370305	0.837087103282564	-1.22691646436133E-17	2.90020629455524E-17
53	3.01538600943529E-17	3.2005566887365E-18	0.55715402699311	0.645978220928354	0.55715402699311	0.645978220928354	1.23531520754978E-17	-1.44376712757337E-17
53.1	6.05344252226328E-18	2.72443563707156E-18	0.673916966877593	0.616158856445283	0.673916966877592	0.616158856445282	3.8777492607328E-19	4.32195849578124E-18
53.2	-2.82594123745224E-18	1.12420459665309E-17	0.81341884819955	0.487173519161333	0.813418848199549	0.487173519161333	-1.90745329164074E-17	4.02076524540946E-18
53.3	1.15551583987655E-17	8.72024520942934E-18	0.825262911309773	0.370458758753955	0.825262911309774	0.370458758753955	1.08416446111952E-17	-1.34419101981655E-17
53.4	6.13295500068271E-18	-7.45748470805355E-18	0.856078939347697	0.177972042969545	0.856078939347697	0.177972042969544	3.07309830759108E-17	3.57690866921221E-17
53.5	-5.3763429601445E-19	-8.95587699188627E-18	0.930294295100654	0.135281502529642	0.930294295100654	0.135281502529642	-2.1224009912899E-17	2.56798930051001E-17
53.6	2.08880812642573E-17	4.47524780348242E-18	0.922491063922753	-0.0663709562959175	0.922491063922753	-0.0663709562959173	-1.69307144892194E-17	3.84325041285953E-17
53.7	4.30331151048274E-18	1.22675208114639E-17	0.833494541884446	-0.212146793311412	0.833494541884446	-0.212146793311412	3.07635412546182E-18	1.0013397224237E-17
53.8	-1.51691412743496E-17	-1.35420682326165E-17	0.940402453066852	-0.28679914304602	0.940402453066852	-0.286799143046021	-5.01400591548213E-17	2.15948879931083E-17
53.9	-1.21796780850537E-17	-2.25489538606628E-17	0.798508887147655	-0.454899922363805	0.798508887147655	-0.454899922363805	-1.43758557748915E-17	-1.02256281625989E-17
54	-1.52364386504015E-17	-2.56029659723597E-17	0.700723830663502	-0.564063406879443	0.700723830663501	-0.564063406879442	-7.62816777575671E-18	-4.54166018005048E-18
54.1	1.73830866763351E-17	-8.76292990515616E-18	0.63259024940213	-0.63466851434566	0.63259024940213	-0.63466851434566	1.38927631202063E-17	-1.11891378368763E-17
54.2	3.34596553130787E-18	5.78091860429371E-18	0.540203418601363	-0.737192664790276	0.540203418601362	-0.737192664790276	1.88724849410601E-17	9.23311842339213E-18
54.3	4.90631056067886E-18	-5.28397762360991E-18	0.374187583842839	-0.828963175056902	0.374187583842839	-0.828963175056902	-4.4273777612332E-17	7.82074827017914E-19
54.4	1.50954666487006E-17	-3.37908982751851E-19	0.326570955098779	-0.814060530094141	0.326570955098778	-0.814060530094141	-5.87199310748263E-18	-9.30795078690593E-18
54.5	-1.22003347380365E-17	3.30285804906351E-17	0.125771559944371	-0.950257101709007	0.125771559944371	-0.950257101709007	6.26760231778434E-18	3.80044051608531E-17
54.6	-2.65779378178976E-17	-5.32676587918678E-18	-0.00200308630162888	-0.885988324906578	-0.00200308630162892	-0.885988324906579	-2.04133075867037E-17	2.81577527152863E-18
54.7	1.83314900135185E-18	7.4238205674754E-18	-0.113374940918411	-0.932074093131416	-0.113374940918411	-0.932074093131417	1.05883834788051E-18	1.86420864125493E-17
54.8	-5.76481067130749E-18	-7.14108991196922E-18	-0.275235784519268	-0.896076522977703	-0.275235784519268	-0.896076522977702	7.20717546785789E-18	2.47891922798056E-18
54.9	-6.03227777117575E-18	8.4706665314325E-19	-0.400499752425176	-0.819448820742105	-0.400499752425176	-0.819448820742104	8.86610781533276E-19	-1.13863449860528E-18
55	-5.81189661041628E-18	-1.65425535886652E-17	-0.507450168876097	-0.780008956320221	-0.507450168876097	-0.780008956320221	2.14503722703582E-18	9.98785366026824E-18
55.1	7.08929800464713E-20	-8.54089280722409E-19	-0.634682831813265	-0.689546791801726	-0.634682831813265	-0.689546791801726	2.28057009985065E-18	9.36234959009315E-18
55.2	5.93545337998365E-18	-8.14091731730737E-18	-0.704899526147707	-0.587577184811276	-0.704899526147707	-0.587577184811277	1.68590296526648E-17	2.85442277594225E-18
55.3	6.2546174884015E-18	-1.26059483459822E-17	-0.804103289741214	-0.455250970962263	-0.804103289741214	-0.455250970962263	2.23530707310353E-17	-1.16858771120926E-17
55.4	2.72592391480193E-18	-8.75423990642969E-18	-0.857262113720835	-0.373109352582282	-0.857262113720836	-0.373109352582282	1.5497779625413E-17	-1.33954167434592E-17
55.5	-1.04381668352824E-17	9.41392269575462E-20	-0.922750516670728	-0.213443693992446	-0.922750516670727	-0.213443693992445	-1.45834346915754E-17	2.27493920479684E-17
55.6	-8.23299951235848E-18	-1.52128857527424E-17	-0.918027580918401	-0.0915014193195012	-0.918027580918401	-0.091501419319501	6.6544119892034E-18	4.35209598474643E-18
55.7	4.13420604341765E-18	-1.59466965236437E-17	-0.945936753562508	0.0392826853662769	-0.945936753562507	0.0392826853662769	3.54938204516491E-18	1.21868819851626E-17
55.8	8.91057216105162E-19	1.63966126606216E-17	-0.921440705207269	0.193058525828215	-0.921440705207269	0.193058525828215	7.1284577288413E-19	1.31172901284973E-17
55.9	-4.26598869305054E-18	-1.14082608132138E-17	-0.888514996624947	0.314095762430681	-0.888514996624946	0.314095762430682	1.18445469720426E-17	-1.35315678702154E-17
56	4.36273718684237E-18	2.76285571717787E-18	-0.807953190096266	0.444676886104119	-0.807953190096266	0.444676886104118	7.47897803458693E-18	4.73632408659064E-18
56.1	-1.56052467137021E-17	1.59874070962786E-17	-0.767486278973723	0.551188798050807	-0.767486278973724	0.551188798050807	-3.51357574856308E-18	2.49672386238525E-17
56.2	2.55131192768406E-18	1.27297676215535E-17	-0.681891660289223	0.670023281092777	-0.681891660289222	0.670023281092776	9.34379174020911E-18	9.67779621357281E-18
56.3	2.78951824460423E-18	-7.37182071756605E-18	-0.527281661196539	0.759494954666988	-0.527281661196539	0.759494954666987	1.00356597138286E-17	1.84149293841833E-17
56.4	1.25992328573998E-17	-2.03120998868017E-17	-0.47030725992959	0.827585032067034	-0.47030725992959	0.827585032067034	4.64878387672008E-17	-3.86696534424042E-17
56.5	-7.42062380817407E-18	6.39336884759536E-18	-0.327868642533593	0.905960383461328	-0.327868642533593	0.905960383461327	-6.39336884759536E-18	-7.42062380817407E-18
56.6	2.75465432999048E-18	1.16885879445292E-18	-0.185095110105801	0.910074312068073	-0.185095110105801	0.910074312068073	2.60872647061086E-17	-1.16849981459894E-17
56.7	-5.89177061904337E-19	4.60219315952755E-18	-0.0600721742548557	0.942303866302521	-0.0600721742548554	0.942303866302521	-1.31322333984173E-17	2.9502933606375E-17
56.8	-3.04418206418927E-18	1.49390235768379E-17	0.0580657877174271	0.960751144735481	0.0580657877174272	0.960751144735481	2.40480792073966E-18	-3.52946136706261E-18
56.9	2.52786700498344E-18	7.27272632320719E-18	0.202433341843549	0.917774420436224	0.202433341843548	0.917774420436223	-1.18662013796189E-17	7.19132601157352E-18
57	1.32033934431317E-17	1.20446081416391E-18	0.354368728212027	0.847414910397511	0.354368728212027	0.847414910397511	-1.34463828484747E-17	1.12575540545837E-18
57.1	-2.01034138249252E-19	-2.87236432208408E-17	0.456996258821886	0.817771952216371	0.456996258821887	0.817771952216373	2.55298773929366E-17	-4.14911130710962E-17
57.2	-5.0731508119279E-18	1.83387600426244E-19	0.576485419556258	0.770109048180044	0.576485419556258	0.770109048180044	-3.04389048715674E-17	1.10032560255747E-18
57.3	-2.96035883141488E-18	-8.80958775367973E-18	0.71422668687433	0.608800962430985	0.71422668687433	0.608800962430985	-1.24958302527819E-17	-1.03750034103859E-17
57.4	1.04411776659964E-18	-6.23001113725506E-18	0.725606262687798	0.536420861258357	0.725606262687798	0.536420861258357	1.03544390101395E-18	3.37603501027744E-18
57.5	-4.31446512668309E-18	1.01284430235813E-19	0.850921303965327	0.442632540434798	0.850921303965328	0.442632540434798	-1.70552916462607E-17	9.03406797430944E-18
57.6	-1.5987552024284E-18	-1.14895378721463E-18	0.906983287132292	0.292100978677905	0.906983287132293	0.292100978677905	1.43742514269007E-18	-2.22417726666004E-17
57.7	6.25567529922265E-18	3.83184056508807E-18	0.89660581681045	0.1595413641276	0.89660581681045	0.1595413641276	3.00098698413767E-18	2.10291351722747E-17
57.8	4.24600175141859E-17	2.30552167401842E-18	0.946312903015486	0.0517370591033515	0.946312903015486	0.0517370591033513	1.39393401060735E-17	1.52875982478077E-18
57.9	1.83906099776891E-17	-2.22812664233855E-17	0.956958139600039	-0.0679578354866292	0.95695813960004	-0.0679578354866294	1.44521764167215E-17	-1.17398447866316E-17
58	8.68632319679926E-18	1.67480251163865E-18	0.89774851288462	-0.260404370492027	0.897748512884621	-0.260404370492027	9.08710859355609E-18	1.1513465625084E-17
58.1	1.10347159103516E-17	1.49052990431473E-17	0.840680786669185	-0.331960809844072	0.840680786669185	-0.331960809844072	-1.00519545954758E-17	1.20734302378007E-17
58.2	1.94466256201528E-17	-1.04125520172422E-17	0.820232517879843	-0.475203256732867	0.820232517879843	-0.475203256732867	-1.44564019848738E-17	2.4925242703249E-18
58.3	-1.52184088330541E-17	2.2117692743378E-17	0.72587077097593	-0.599414415986446	0.72587077097593	-0.599414415986445	-5.28341577061965E-18	-1.0175325325845E-18
58.4	-9.69336168079202E-18	1.10400172271108E-17	0.631692159556026	-0.630614036767788	0.631692159556026	-0.630614036767788	1.10612646227661E-17	-2.745249170906E-18
58.5	1.94434501221611E-18	-1.05421145087571E-17	0.576847618474665	-0.767104326139383	0.576847618474665	-0.767104326139383	8.58054205218057E-18	6.6695639484145E-18
58.6	2.2856047849809E-17	5.94610166891157E-19	0.43007438307471	-0.832891061634516	0.43007438307471	-0.832891061634515	2.40452681835913E-18	-4.51174855327268E-18
58.7	-3.77616662255309E-17	-8.72637893034603E-18	0.302882278080324	-0.852768959737639	0.302882278080324	-0.852768959737639	-1.21989822493836E-17	6.56095053258686E-18
58.8	-2.14519179954615E-18	-5.90607669705081E-18	0.200289482400444	-0.902028783271961	0.200289482400444	-0.902028783271961	-3.58438533030878E-18	1.46724091268298E-17
58.9	2.05161151410409E-18	2.16423525679431E-17	0.0911531595892265	-0.939006170385167	0.0911531595892263	-0.939006170385166	2.63036482497081E-18	1.46757031194079E-17
59	7.6699761040848E-18	-7.30465802294037E-18	-0.079497810028837	-0.916731974724951	-0.0794978100288366	-0.916731974724951	1.15154284642394E-17	1.90174432635456E-18
59.1	1.12901979805161E-17	-2.14591551009956E-18	-0.172570459055978	-0.899703786454888	-0.172570459055978	-0.899703786454888	-9.20137146357953E-18	6.40700257897022E-18
59.2	-5.74233249625753E-18	8.16911545139891E-19	-0.297242464944881	-0.904137299333743	-0.297242464944881	-0.904137299333743	-2.92785845603093E-18	7.28284589771529E-18
59.3	-1.13496661690664E-17	1.76536742685467E-17	-0.446044826198937	-0.800447984957183	-0.446044826198937	-0.800447984957183	1.10906888791775E-17	1.11432890743094E-17
59.4	-2.24702224715509E-18	3.87617501700775E-18	-0.517439090600309	-0.764308423527281	-0.517439090600308	-0.764308423527281	4.32253105908156E-18	-7.82096358500945E-18
59.5	-6.96360423076332E-20	1.71791764304043E-17	-0.646841953279067	-0.678978650471971	-0.646841953279068	-0.678978650471971	-9.64142500416536E-18	9.84185885771562E-18
59.6	5.11977266020948E-18	-3.51676225718261E-18	-0.721075556934753	-0.564085249627285	-0.721075556934753	-0.564085249627285	-2.46117282969098E-18	-3.88357874199558E-18
59.7	7.95512514113292E-18	2.33682324755188E-17	-0.802157993958091	-0.485034232036281	-0.802157993958091	-0.485034232036281	2.96515864276245E-18	1.22152008424694E-17
59.8	2.71732408551478E-18	1.65451210072817E-18	-0.870210361758464	-0.363771125601038	-0.870210361758464	-0.363771125601038	5.42046131842998E-18	5.49139558142791E-18
59.9	6.05741796168895E-19	1.91758446053485E-18	-0.899447288594114	-0.25183579286948	-0.899447288594114	-0.25183579286948	1.06869606261313E-17	-8.11631086952005E-18
60	-4.7269378068201E-18	7.36976969695849E-18	-0.922972275533416	-0.102653939760053	-0.922972275533416	-0.102653939760053	-9.47682834759994E-18	-5.58488904921772E-18
60.1	1.44737739069256E-17	-9.16072607001009E-18	-0.920105494609073	0.0109746640682237	-0.920105494609072	0.010974664068224	7.15806056499421E-18	-7.88425799714448E-18
60.2	1.07368028000095E-17	-2.03610132890414E-17	-0.937245290195737	0.118983640792635	-0.937245290195738	0.118983640792635	-1.03013441352638E-17	-2.13283787620919E-17
60.3	1.80851914133312E-18	-1.05281797313221E-17	-0.889390632796054	0.282583485713874	-0.889390632796053	0.282583485713874	3.00989551693098E-18	-4.90238603739441E-18
60.4	7.84948698058348E-18	-2.41021485998681E-18	-0.838739478113596	0.354988503958106	-0.838739478113596	0.354988503958106	-5.16501550810574E-18	-5.00872845112532E-18
60.5	-8.9028401907208E-19	2.25963788837759E-17	-0.797575040465871	0.49626577086996	-0.797575040465871	0.496265770869961	1.19124003031538E-18	-1.11963571812826E-18
60.6	-1.39996155054788E-18	-8.68791983151141E-18	-0.717517559469822	0.593274062601662	-0.717517559469822	0.593274062601662	5.32860993294554E-19	-6.7872611781706E-18
60.7	-2.65407343620994E-17	-1.71722871369152E-17	-0.627264509134654	0.688512929873828	-0.627264509134653	0.688512929873828	6.2731354490981E-18	2.43756705658088E-18
60.8	-4.63444843821797E-18	-8.82505346573365E-19	-0.531755924022796	0.773393359708616	-0.531755924022796	0.773393359708616	-5.69255030874573E-18	1.15979768692399E-18
60.9	2.07588693904637E-19	-1.03284261117671E-18	-0.431131065363755	0.836792574936964	-0.431131065363754	0.836792574936964	2.14391415486954E-18	3.59411685646039E-19
61	-5.45342086594731E-18	-4.17048291351897E-18	-0.300723013636959	0.888273929746174	-0.300723013636958	0.888273929746174	-2.08069075825607E-17	-1.01501490535006E-17
61.1	-1.16643103566469E-17	1.3005941403013E-17	-0.176988121707673	0.905835253158495	-0.176988121707673	0.905835253158496	-7.20910210066542E-18	1.05869149612988E-18
61.2	2.34649596727405E-17	-9.41480760428106E-18	-0.069148754442302	0.928637156358645	-0.0691487544423022	0.928637156358644	-2.93579180568689E-18	9.44709069853486E-18
61.3	-8.84355147226104E-18	1.5646302445605E-18	0.0623902651539952	0.94637659688074	0.0623902651539957	0.94637659688074	1.81452153030623E-17	1.07305200128675E-17
61.4	-3.03180547700757E-17	-5.64731901540873E-18	0.218073582034052	0.905890019214999	0.218073582034052	0.905890019214999	-1.23678728891845E-17	1.05493147362284E-17
61.5	-1.62672090515541E-18	-2.15213358712037E-17	0.290085348439807	0.868439104222229	0.290085348439808	0.86843910422223	-3.23062683085702E-18	-2.48641720892017E-17
61.6	6.26240832795493E-18	1.04166135383077E-17	0.437033868440014	0.853806923329042	0.437033868440014	0.853806923329043	-8.542912148262E-18	-8.61769650035221E-18
61.7	-1.59656094797105E-17	1.84131535637925E-17	0.553155979511919	0.767652170245198	0.553155979511918	0.767652170245197	-9.08859331311151E-18	1.25213579514184E-17
61.8	-6.87393632604939E-18	-7.57190991990034E-18	0.629161596985816	0.677473171514509	0.629161596985816	0.677473171514509	-1.04054864682252E-18	4.01199520181853E-18
61.9	-5.41457294515128E-18	-3.82197098933571E-18	0.722661907154949	0.584432103107775	0.722661907154949	0.584432103107775	1.02336926856803E-17	-9.46765160108125E-18
62	-2.46362230435437E-18	1.99372183082619E-18	0.793718336101102	0.506182575300149	0.793718336101102	0.506182575300149	1.23240453011817E-18	1.72295618920424E-17
