# GHZ S RI R 50
50	3.83571081133227E-19	-1.32459812230894E-17	0.755550441576335	-0.533114522371117	0.755550441576335	-0.533114522371117	8.66488657302052E-19	5.03153690308956E-18
50.1	9.49753729881598E-18	1.82704110260395E-17	0.636389446133061	-0.636690619114452	0.636389446133061	-0.636690619114452	-2.81119060871132E-18	7.0421103860387E-19
50.2	3.73666673892757E-19	3.60552674868527E-18	0.537062069059748	-0.728809840134928	0.537062069059748	-0.728809840134928	4.28452548212887E-18	-5.84199755360029E-19
50.3	1.10748535610829E-17	8.499755743862E-18	0.418592169620216	-0.835224426665812	0.418592169620216	-0.835224426665813	8.31617148290305E-18	6.07201508959941E-18
50.4	-2.3865272005812E-17	1.19620161374712E-17	0.236360809243378	-0.854973110037985	0.236360809243378	-0.854973110037985	-1.65682346001947E-18	-1.84913761956651E-17
50.5	-2.18926629026955E-17	-3.85209916330406E-17	0.128803027249732	-0.912831530379121	0.128803027249732	-0.91283153037912	1.03248125503088E-17	1.43875418474903E-18
50.6	-1.94947445024179E-17	-8.38680906008742E-18	-0.0398872715896916	-0.909387627083991	-0.0398872715896916	-0.909387627083991	-6.60825790806741E-18	-9.51943403083099E-18
50.7	6.625526943912E-18	8.80509614489991E-18	-0.172835926895217	-0.887973669971367	-0.172835926895218	-0.887973669971367	3.69694721208676E-18	1.56707104348658E-18
50.8	2.04527587958403E-17	-1.3458748883079E-17	-0.336287396326628	-0.870893492471782	-0.336287396326627	-0.870893492471782	-1.73101467108509E-18	2.59196336511192E-18
50.9	2.42803184033508E-18	1.35085420567256E-18	-0.453594098738067	-0.771430374199203	-0.453594098738067	-0.771430374199203	-8.21029713030091E-19	1.86207536590282E-17
51	9.61291927378897E-18	1.33364985950618E-17	-0.59214061070671	-0.707256055787627	-0.59214061070671	-0.707256055787627	3.95418171234086E-17	2.20548211610331E-17
51.1	1.8722576140743E-18	2.66610157028403E-18	-0.69433577577496	-0.598138395206022	-0.69433577577496	-0.598138395206022	-4.39156342286735E-18	-9.65487959335349E-18
51.2	1.27080452695834E-17	1.84882573931332E-17	-0.776247443467724	-0.474282856371581	-0.776247443467724	-0.474282856371581	7.66388733181736E-18	-3.93035464218487E-18
51.3	-1.88021750934793E-17	-3.80322496582528E-17	-0.848362807675931	-0.344239958695108	-0.848362807675932	-0.344239958695108	-1.64790577516852E-17	-1.8183348433087E-18
51.4	1.15580931711958E-17	1.66176085859871E-18	-0.910592850404625	-0.220356326645824	-0.910592850404626	-0.220356326645824	8.31333431186596E-18	2.56174447421887E-18
51.5	-1.7634046965161E-17	3.67172176037954E-18	-0.899327194642542	-0.0412989354151866	-0.899327194642542	-0.0412989354151865	-2.45395232517471E-17	-2.48494081787279E-17
51.6	-1.74428864848959E-17	4.3093289426197E-18	-0.919728994110104	0.0736966880386494	-0.919728994110104	0.0736966880386492	-3.60850897154038E-17	5.82027229809764E-18
51.7	-9.29410117103402E-18	-3.74617320793213E-18	-0.910984656227034	0.22445551461782	-0.910984656227034	0.22445551461782	8.45149434202543E-20	-4.43385627307091E-20
51.8	-6.06861401619054E-18	-1.8221584493267E-18	-0.805328350424259	0.35927970252877	-0.805328350424259	0.35927970252877	-2.23578779835029E-17	1.68300942588792E-18
51.9	-1.13448705098349E-18	-7.95945518476428E-18	-0.81094470543125	0.492029669759426	-0.810944705431251	0.492029669759426	-2.02162993485787E-17	-1.72842448002691E-18
52	-7.84637337786214E-18	-2.22810088413088E-17	-0.661146509394199	0.619933998974574	-0.661146509394199	0.619933998974574	-7.386028613716E-18	-7.25829012505765E-18
52.1	2.72005182624288E-18	9.12595953016179E-18	-0.564543545091923	0.70165685605826	-0.564543545091922	0.70165685605826	1.05236317463175E-17	2.01471580443614E-18
52.2	-1.16054144389144E-17	-3.81474799679093E-18	-0.473956583131973	0.789154425322544	-0.473956583131974	0.789154425322544	-8.29854218210662E-18	-3.07688762950242E-18
52.3	-1.2497947430301E-18	4.45778797796131E-18	-0.347802518065391	0.854994035628702	-0.34780251806539	0.854994035628702	-1.26991794036363E-17	-1.23804749170239E-17
52.4	1.25331216139364E-17	1.43714100036544E-17	-0.192537469507588	0.929938091590489	-0.192537469507588	0.929938091590488	-3.74954969638484E-17	3.15071840181146E-17
52.5	1.09014547724923E-17	4.00982436879395E-17	-0.0744412460666063	0.877728528602391	-0.0744412460666061	0.877728528602391	5.74404761233761E-18	2.34693986328976E-18
52.6	1.39198900366054E-18	4.56939720814383E-18	0.0620673098159161	0.949485335237103	0.062067309815916	0.949485335237102	1.2866597386369E-17	1.47872702672929E-18
52.7	2.3070960115895E-17	6.67103516654612E-18	0.269611811742173	0.914190696103872	0.269611811742173	0.914190696103872	1.90234089598193E-17	-4.60599570793833E-17
52.8	-8.15959160209955E-18	-1.44876930925052E-17	0.289769530436361	0.765169407503848	0.289769530436361	0.765169407503848	-3.01475990085928E-17	2.20061892153892E-17
52.9	4.06234047675701E-18	9.51964808936492E-18	0.575105753835819	0.850874305984415	0.575105753835819	0.850874305984415	-2.1706669519636E-17	-2.44966037913377E-17
53	-1.18579883036609E-17	-1.61158765616126E-18	0.57588044131464	0.659440973423898	0.57588044131464	0.659440973423898	-6.9041878419017E-18	1.13064214051401E-17
53.1	-8.44010154711426E-18	7.02766500864444E-18	0.69683602611795	0.626416764406493	0.696836026117949	0.626416764406492	6.86601916511733E-18	6.92565406024382E-18
53.2	-4.67606357503172E-19	5.88520667349442E-18	0.837744706068593	0.492020896058315	0.837744706068592	0.492020896058316	-8.66359983444685E-19	5.17017464520636E-18
53.3	-5.24689415625822E-17	1.51017997859548E-18	0.850318789231891	0.373226973146929	0.850318789231891	0.373226973146929	1.14090313539795E-18	2.33391821291618E-17
53.4	-2.36651996857881E-18	2.03559451698587E-18	0.879475915981443	0.176806594467613	0.879475915981443	0.176806594467613	1.52057779678183E-17	2.15072433496507E-17
53.5	-1.94062060223889E-17	-8.70026103531969E-18	0.956740865309123	0.129370547643496	0.956740865309124	0.129370547643497	-8.6395812244584E-17	1.22586255940157E-17
53.6	-3.75714145218794E-17	1.71801336943487E-17	0.94593703860372	-0.0762983393347982	0.94593703860372	-0.0762983393347983	1.19735195287221E-17	5.42446896015324E-17
53.7	7.96116790447462E-18	4.84366098911289E-18	0.854602182374579	-0.223606631621863	0.854602182374578	-0.223606631621863	2.49925770315423E-17	9.24999525601621E-18
53.8	-1.21474208656699E-17	1.3467281407949E-17	0.962485839734188	-0.305959385309925	0.962485839734188	-0.305959385309925	-6.62435518557087E-18	9.01937310114992E-18
53.9	7.63791209343728E-18	-1.3438992272229E-17	0.815897768799486	-0.474756267984902	0.815897768799486	-0.474756267984902	-1.16768743859774E-17	8.03200378721405E-18
54	-8.21033758781721E-18	-4.29252992928555E-18	0.715040367299496	-0.585865988636494	0.715040367299496	-0.585865988636494	1.04654018334491E-17	5.87153118107636E-19
54.1	2.058699828974E-19	9.2150784073711E-18	0.644656841690977	-0.659219688703108	0.644656841690977	-0.659219688703108	3.83017869774002E-17	-2.33083167403256E-18
54.2	7.47651803391549E-18	-9.00606659960728E-18	0.548051130472114	-0.76401897724447	0.548051130472113	-0.76401897724447	-1.01032805035662E-17	1.79901855826227E-17
54.3	-6.42443244270617E-18	-2.86042732977931E-19	0.376839206269398	-0.855432393032127	0.376839206269398	-0.855432393032128	-2.98672647852033E-18	6.84061734085755E-18
54.4	-5.62478367399872E-18	-2.26741506739911E-18	0.327952490908287	-0.84308935102518	0.327952490908287	-0.843089351025181	-7.67422938327431E-18	8.37173132926958E-18
54.5	4.02666567045978E-19	-1.63358643606347E-18	0.1187144861552	-0.977645945682234	0.1187144861552	-0.977645945682234	-1.47251980924508E-17	-1.05610114147137E-17
54.6	-9.96830048930366E-18	6.00781749093279E-18	-0.0106048620443611	-0.912180245837806	-0.0106048620443611	-0.912180245837806	2.30915380649494E-17	-5.36989656446738E-19
54.7	-2.73710578392413E-17	7.4311270225395E-18	-0.127746659233398	-0.958091160288212	-0.127746659233398	-0.958091160288211	-1.42994555542478E-17	1.22789784533069E-17
54.8	-5.23291913368763E-18	-1.01432994995513E-17	-0.293429006261911	-0.918901028486704	-0.293429006261911	-0.918901028486704	-5.43723110064875E-18	-2.07526130437571E-18
54.9	-7.45449023514755E-18	8.39752054707252E-18	-0.42116522450755	-0.839405789763873	-0.42116522450755	-0.839405789763873	-1.70514896603433E-18	-7.95125671816377E-18
55	5.69749910175974E-18	-5.39970762430604E-18	-0.532046519520859	-0.797388109812915	-0.532046519520859	-0.797388109812915	9.17896744905573E-18	-2.20785665028227E-17
55.1	2.509558530451E-18	-1.36746782730805E-18	-0.661752159415474	-0.702470745220057	-0.661752159415474	-0.702470745220058	6.30670588583711E-18	2.80466883627774E-18
55.2	-1.5605546508447E-18	-5.62208152489234E-18	-0.733622078535338	-0.597269720608086	-0.733622078535337	-0.597269720608085	8.70682908545959E-18	2.67341507780634E-17
55.3	2.80758163544317E-19	-2.50059581931479E-18	-0.833588185581526	-0.459656167280603	-0.833588185581526	-0.459656167280603	4.684915276966E-18	4.47858093106998E-18
55.4	-6.1936794908037E-18	-7.47660896316848E-18	-0.888814886231764	-0.373602842803634	-0.888814886231764	-0.373602842803634	-6.26505322381357E-18	-6.35516925098234E-19
55.5	-2.90711028581186E-18	-9.51125267686836E-18	-0.953360638816296	-0.208195600470301	-0.953360638816295	-0.208195600470301	-5.46990313132965E-18	-1.9773251259794E-17
55.6	-6.06826396905524E-18	-7.44979240677462E-18	-0.948140768065305	-0.0827841657912366	-0.948140768065304	-0.0827841657912358	2.17856406628381E-18	-1.23806201119086E-17
55.7	7.31882021943435E-19	-9.12432073699119E-19	-0.9750543810745	0.053371391731407	-0.975054381074501	0.0533713917314073	-1.29989519235844E-17	4.75559736180004E-18
55.8	-8.3155096396038E-19	4.00314403434552E-18	-0.947697726571202	0.211271596309957	-0.947697726571202	0.211271596309958	3.18931115165674E-18	-1.05288537806955E-17
55.9	1.98247326927609E-18	-1.03155072741675E-17	-0.912467174926396	0.336278762928684	-0.912467174926395	0.336278762928683	-1.32523179194921E-17	-1.63376425714075E-18
56	-1.88738387271487E-17	-2.13792936006537E-18	-0.828146741401262	0.469434615454602	-0.828146741401262	0.469434615454603	-1.67359093670833E-17	-2.10117680872141E-17
56.1	4.9147374483469E-18	-1.94827531433939E-18	-0.784476223226782	0.580103802661049	-0.784476223226782	0.580103802661049	1.93513623837867E-18	-6.31547092665211E-18
56.2	-3.16767771137689E-18	3.42785103607127E-20	-0.694048715588902	0.701599886978425	-0.694048715588902	0.701599886978426	1.35154249018747E-17	-1.46254977539041E-19
56.3	-4.693204808946E-18	1.03525330380537E-18	-0.534387032419461	0.790797801833982	-0.534387032419461	0.790797801833982	-1.23038301065726E-17	1.17590891090413E-17
56.4	2.59974833144307E-17	-1.85330113608582E-17	-0.473282038213619	0.862169149155382	-0.473282038213619	0.862169149155382	1.0038696820456E-17	9.52381792706239E-18
56.5	-5.03346463268652E-18	6.41672926180597E-18	-0.324809647407329	0.940338548896671	-0.324809647407329	0.94033854889667	5.29838382388055E-18	-6.7544518545326E-18
56.6	-4.17342111352186E-18	-2.49427147671389E-18	-0.178255035786936	0.943271057589384	-0.178255035786936	0.943271057589384	-2.20038697136948E-17	-5.19034119670109E-18
56.7	-1.1849459638203E-17	-6.14715103528248E-18	-0.0478283097008425	0.974861416751365	-0.0478283097008425	0.974861416751364	5.2304650878905E-18	-1.94120811802057E-17
56.8	7.18824758605976E-18	-9.79448948801573E-18	0.0757004358254237	0.992329932519139	0.0757004358254237	0.992329932519139	-6.90664066771419E-18	4.2778406451797E-17
56.9	1.39362850566489E-17	4.02399296147321E-18	0.223698600577388	0.946174042590004	0.223698600577388	0.946174042590003	1.68798157687283E-17	1.90555927820394E-17
57	1.73634282958214E-17	-2.53614065375485E-18	0.378630752727661	0.871419219361889	0.378630752727661	0.871419219361889	1.61813569078364E-17	-1.274428231566E-17
57.1	-1.03457899874547E-18	1.16277010393481E-17	0.485796520955345	0.839049554058653	0.485796520955345	0.839049554058653	7.64683443348569E-18	1.94319848619533E-17
57.2	6.17005484692934E-18	1.04722158157187E-17	0.609465291245241	0.78705186366117	0.609465291245241	0.78705186366117	4.59078376254095E-17	-5.88686824067462E-18
57.3	-1.72079385698361E-17	2.31882936737108E-17	0.746910325073305	0.618868555121047	0.746910325073305	0.618868555121046	-2.04596085367052E-17	5.8686480781895E-17
57.4	-1.12471590842721E-18	1.32111291218941E-17	0.760542867888986	0.544863784762745	0.760542867888985	0.544863784762745	-1.59936714774154E-18	1.41741898649358E-17
57.5	-4.96614597455507E-18	-1.23079684472665E-17	0.888130900421418	0.443725281654214	0.888130900421418	0.443725281654214	-1.7811267632819E-19	-1.16269580007373E-17
57.6	6.40843234415016E-18	6.33906660061703E-18	0.943195004540427	0.287499208338429	0.943195004540427	0.287499208338429	-3.93598883166293E-18	-1.07738298758726E-17
57.7	-1.12469035932716E-17	9.27784587244635E-18	0.931632765126635	0.151513732189059	0.931632765126635	0.151513732189059	-9.30487627297611E-18	2.78504316176702E-17
57.8	6.45419023474269E-18	8.87998193759134E-18	0.981302396500646	0.0373029651505937	0.981302396500647	0.037302965150594	-3.7785029974999E-17	4.78573352629489E-19
57.9	1.37499832008503E-17	-2.89338127227822E-18	0.99051884117009	-0.0878292015966964	0.990518841170091	-0.0878292015966964	3.2112005506668E-17	-1.53239122654747E-17
58	4.12230188789958E-18	-2.79103283894962E-18	0.925478477771444	-0.283832598973504	0.925478477771444	-0.283832598973504	-8.5439780784172E-18	-1.26192914935702E-17
58.1	-8.62820101797965E-18	-6.4932264408041E-18	0.867134746405605	-0.358348511333563	0.867134746405605	-0.358348511333564	-6.61032635066124E-18	-2.30549762614555E-18
58.2	2.08538381497123E-17	-2.68818817171928E-17	0.841900608318087	-0.507099989359585	0.841900608318086	-0.507099989359585	-1.83591389851592E-17	-2.32926346283654E-19
58.3	-1.64683581956799E-17	-2.26847031770173E-17	0.742130753982646	-0.633598007403125	0.742130753982645	-0.633598007403124	-1.99514820283631E-17	-1.6547714509568E-17
58.4	-2.08091584255866E-17	3.63811593641993E-18	0.645847461046893	-0.666309601619149	0.645847461046893	-0.66630960161915	1.75436547395149E-17	-1.25030963687644E-17
58.5	9.34473944641171E-18	-2.66347807468298E-17	0.583799776408259	-0.807011195394179	0.58379977640826	-0.807011195394179	-1.43470557596035E-17	-2.15471323860496E-17
58.6	-1.18404402612962E-17	-2.09169843359383E-17	0.431336705283349	-0.872094557357535	0.431336705283349	-0.872094557357534	3.6778827069071E-18	7.52204113980508E-18
58.7	-1.09596544964352E-17	-1.60216781432025E-17	0.299928583002474	-0.891453684434453	0.299928583002474	-0.891453684434454	6.77757556306875E-18	-4.48921983198721E-18
58.8	-1.36325245750447E-17	3.41970293773027E-17	0.191318775189258	-0.941207382171481	0.191318775189258	-0.941207382171482	-1.65048178778074E-18	7.99097524207251E-18
58.9	-1.77747873516182E-18	5.66505442502973E-19	0.0759880085726808	-0.977813285844652	0.0759880085726808	-0.977813285844651	-8.80943126815618E-18	-3.06641443547356E-18
59	1.25844869194691E-17	-1.84569379154687E-18	-0.0993089449228689	-0.951242218639927	-0.0993089449228694	-0.951242218639927	-9.02445523952124E-18	1.10274778853253E-17
59.1	4.3269541050541E-18	-1.91322747260054E-18	-0.197042201629833	-0.932880147044851	-0.197042201629834	-0.932880147044851	7.00304885848474E-18	1.21426074679441E-18
59.2	-1.18857362825368E-17	-4.63640189093463E-18	-0.328086594653729	-0.93403115263865	-0.328086594653728	-0.934031152638649	-1.28102389453405E-17	1.00657656682402E-18
59.3	-5.30551928279803E-18	-3.81924988821033E-18	-0.47876654433259	-0.824166644779161	-0.47876654433259	-0.824166644779161	-1.0456986466326E-17	8.3994048590387E-19
59.4	5.74036520393671E-18	-1.75291297997801E-17	-0.554648578208674	-0.785294300782395	-0.554648578208673	-0.785294300782395	1.00780724596792E-17	-3.23001252166676E-18
59.5	1.63487741788088E-18	1.87377781658347E-18	-0.686870357279682	-0.693238310101739	-0.686870357279682	-0.693238310101739	9.8816809164309E-18	3.39553070427781E-18
59.6	-9.49644052214463E-18	1.25897954953537E-17	-0.761973457575338	-0.573115369099016	-0.761973457575339	-0.573115369099017	-3.67051449787914E-18	4.34239756788444E-18
59.7	5.02442817749492E-18	2.19198865938318E-17	-0.845531374596701	-0.488040654192231	-0.845531374596701	-0.488040654192231	6.12259409358304E-18	1.55573178330945E-17
59.8	-1.08469070174684E-17	1.16191618684451E-17	-0.913668225399799	-0.360191565432158	-0.913668225399799	-0.360191565432158	-4.48954866554653E-19	4.15880886979925E-18
59.9	-5.71925456536094E-19	7.84065287782215E-18	-0.942700681063124	-0.242875966394187	-0.942700681063124	-0.242875966394187	-3.9088964783078E-18	1.12862849626129E-18
60	-8.16009795110956E-18	1.74959803450131E-17	-0.963698636882025	-0.0875626740451936	-0.963698636882024	-0.087562674045194	-1.68683800800845E-17	1.0946094922859E-17
60.1	-2.35336923121186E-17	-4.87227583535569E-18	-0.9592019637358	0.0311935203258146	-0.959201963735801	0.0311935203258146	-1.03448248551226E-17	-1.13349688229333E-17
60.2	1.1538470727922E-17	-1.40998220800762E-17	-0.974537284187892	0.145776363373966	-0.974537284187891	0.145776363373966	1.4381326325483E-17	-1.05661011550657E-17
60.3	-5.79653505040296E-18	8.61410643982389E-18	-0.920831632523341	0.313727490241453	-0.920831632523341	0.313727490241452	-8.09900984340803E-18	8.31621007372569E-18
60.4	1.70533387314306E-17	-7.95658603394397E-18	-0.86800048702013	0.389803001008751	-0.86800048702013	0.389803001008751	2.99971067786038E-18	-5.73893714427666E-18
60.5	-1.98144511840261E-17	1.40563882300424E-17	-0.820551868951872	0.536092152313133	-0.820551868951872	0.536092152313133	-1.07908566755198E-17	8.00546703524726E-18
60.6	1.00268011048823E-17	-6.09927507319125E-19	-0.735194794538359	0.635866077354495	-0.735194794538359	0.635866077354495	4.72489122778734E-19	-3.24383180104852E-18
60.7	3.45039843780478E-18	6.97606764793086E-18	-0.638793695339003	0.733325276224113	-0.638793695339003	0.733325276224113	-4.43945409187279E-19	8.75751899459131E-18
60.8	7.1494413213841E-19	5.96874639537521E-19	-0.536771738968951	0.819929038632445	-0.536771738968951	0.819929038632445	2.38749855815008E-18	-2.85977652855364E-18
60.9	-9.59010769820625E-18	-1.15284341615631E-17	-0.429856239885583	0.884343344049086	-0.429856239885583	0.884343344049087	3.31119793636303E-19	-2.26552944540147E-17
61	1.22963363053388E-17	-3.11584200353722E-18	-0.292713986393974	0.934860841468917	-0.292713986393975	0.934860841468917	3.85524204887763E-18	6.50028243638193E-19
61.1	-1.09827670384862E-17	-1.73794466048257E-17	-0.163320000792194	0.951006455452802	-0.163320000792194	0.951006455452803	3.06013758239704E-18	-3.20036236271631E-18
61.2	2.76350269500205E-17	1.29253498272955E-17	-0.0490721221229655	0.972694907274499	-0.0490721221229657	0.972694907274499	2.5527751329148E-17	-2.34659573583838E-17
61.3	1.12275539314064E-17	2.35176811990476E-17	0.0894043348296421	0.987417595640328	0.089404334829642	0.987417595640329	2.50449572488449E-17	1.73113685253796E-17
61.4	-2.07232055278569E-17	3.26676875770086E-17	0.249719807069063	0.941402937692142	0.249719807069063	0.941402937692141	-3.01832940130476E-18	1.38009949127176E-17
61.5	9.01319391719889E-18	-2.41012241699693E-17	0.326077293537257	0.901990701239155	0.326077293537257	0.901990701239155	-6.48091876766019E-18	-6.54447164858504E-18
61.6	6.11260144279824E-18	-1.26718627941403E-17	0.479527334156045	0.880915173970533	0.479527334156044	0.880915173970534	2.28769277194703E-18	7.71217327552024E-18
61.7	-2.09378476330829E-18	1.17907820992246E-18	0.59826493583257	0.788395298944371	0.59826493583257	0.788395298944371	-9.80436804289852E-18	9.83016123536286E-18
61.8	1.34171419392234E-17	-1.63501344803634E-17	0.676306100506389	0.693050677203632	0.676306100506389	0.693050677203631	4.40354532574582E-18	-1.37230878869265E-17
61.9	5.92586411110651E-18	9.4752750055359E-18	0.771749456488976	0.593048694305276	0.771749456488977	0.593048694305277	7.30020511684478E-18	1.7824874770213E-17
62	1.28959963507587E-17	2.70805925838696E-18	0.84510000561298	0.508327306179008	0.845100005612979	0.508327306179008	7.2159470557213E-18	1.90157439390456E-18
