# GHZ S RI R 50
50	-2.31119746606071E-19	-9.40281396290458E-18	0.863672082372677	-0.622359593890676	0.863672082372676	-0.622359593890675	-1.56267266640332E-18	-5.70221659195774E-18
50.1	-1.16961581969087E-17	1.15120591960857E-17	0.726799995760687	-0.743236745615013	0.726799995760688	-0.743236745615013	4.89493072600189E-19	9.26591801573967E-19
50.2	9.01507790803706E-18	5.92811387728203E-18	0.608059612316922	-0.849281546384634	0.608059612316922	-0.849281546384635	3.78175668043111E-20	5.9848402274885E-18
50.3	1.15520431369926E-18	-3.88879468328696E-17	0.468106029630249	-0.967031809389382	0.468106029630249	-0.967031809389381	1.96526705142986E-17	8.70945445727896E-18
50.4	-1.94736807055908E-17	4.73005754608907E-18	0.261319663952865	-0.992564133684633	0.261319663952865	-0.992564133684633	2.83578701307443E-18	5.54559490766156E-19
50.5	1.5610725749209E-17	1.80567145872577E-17	0.130891963357061	-1.05361439664	0.130891963357061	-1.05361439664	-1.51948327596476E-17	8.26595389956121E-18
50.6	-4.5404974255408E-19	-3.79898213815387E-18	-0.0624220942267728	-1.04827409036062	-0.0624220942267731	-1.04827409036062	1.07158718006305E-17	-7.06062243489305E-18
50.7	4.39133090538338E-18	-8.70336968991787E-18	-0.218284747070296	-1.02113416394535	-0.218284747070296	-1.02113416394535	6.9046626053672E-18	-3.09333132305702E-18
50.8	2.13281509881606E-18	-6.7972356137265E-19	-0.40455317086437	-0.995247227048438	-0.40455317086437	-0.995247227048438	-1.78358887665992E-17	1.0383142249986E-17
50.9	2.52079272537453E-18	-4.96705552098354E-18	-0.541265050593865	-0.88167296201663	-0.541265050593865	-0.88167296201663	-1.63084186373934E-18	-4.99189883090538E-18
51	1.63460913999214E-17	-3.66608053162066E-18	-0.698076102594143	-0.801842706475194	-0.698076102594144	-0.801842706475194	7.22806344223746E-18	4.96400637500906E-18
51.1	-3.4851936107024E-18	7.5749942707148E-18	-0.814718267283361	-0.673623591099232	-0.814718267283361	-0.673623591099232	3.36122681792282E-18	7.25202961392987E-18
51.2	-1.13052214453571E-17	2.9516597193441E-17	-0.907611726333006	-0.528559909134306	-0.907611726333006	-0.528559909134306	-8.77058304893944E-18	-3.82448754627211E-18
51.3	-1.03894397843194E-17	-4.71205196308007E-18	-0.98745468678293	-0.375866275445346	-0.98745468678293	-0.375866275445346	2.57537682355029E-18	-2.89279468932014E-18
51.4	1.44604679099093E-17	-1.22688473223677E-17	-1.05421377737558	-0.228759811308504	-1.05421377737558	-0.228759811308504	-2.04672776065807E-19	-5.63870730459326E-18
51.5	-2.68791410821926E-18	-2.83677144858699E-18	-1.04100587520448	-0.0250987803541952	-1.04100587520448	-0.0250987803541952	-1.20887385191961E-17	1.63654399358638E-17
51.6	-3.8047761067601E-18	6.84905169275588E-18	-1.05846806881536	0.112491106099945	-1.05846806881536	0.112491106099945	-3.50973144142376E-17	1.55867713555367E-17
51.7	9.91050779959684E-18	-1.17316813721233E-18	-1.04225961953515	0.28624013294839	-1.04225961953515	0.28624013294839	-3.32979140137771E-18	-3.33800469225963E-17
51.8	-1.13701808184357E-17	-6.85616913609969E-18	-0.922806673010526	0.440718741972946	-0.922806673010527	0.440718741972946	3.1993913963303E-18	1.1915730333603E-17
51.9	3.98036156513146E-17	-3.02283723009922E-19	-0.91652567192749	0.593698232202254	-0.916525671927489	0.593698232202254	-1.0722614895891E-18	7.45327309370733E-18
52	-9.35223027182703E-19	-1.44306980365929E-18	-0.746329190694457	0.736704825149372	-0.746329190694456	0.736704825149372	-8.02031773607934E-18	2.99454435310999E-17
52.1	1.95249780854079E-17	6.78654701375364E-18	-0.63040981033585	0.830703707550828	-0.63040981033585	0.830703707550829	6.75990168877467E-18	-3.84757506502612E-18
52.2	1.49537510007753E-17	-1.03469147591996E-17	-0.519080012714786	0.928525073407095	-0.519080012714786	0.928525073407095	1.58319949489067E-17	-3.7963784128804E-17
52.3	1.55196501052905E-17	-2.94726770768528E-18	-0.369948973846057	1.00043880584506	-0.369948973846057	1.00043880584506	2.39724540795768E-17	-1.58472668614906E-17
52.4	-1.79398240277651E-18	-1.33660744673971E-17	-0.189254581779339	1.07836093885253	-0.189254581779339	1.07836093885253	-2.94957439358279E-17	-4.04752256807325E-18
52.5	-1.80238377926824E-17	-2.24242606199146E-18	-0.0505110953563852	1.02182951929611	-0.0505110953563849	1.02182951929611	-7.23551704316531E-18	-9.84012269815823E-18
52.6	2.20976951377151E-17	-4.29301687729172E-17	0.111055755370678	1.09172471048616	0.111055755370678	1.09172471048616	-8.52685095562665E-17	-1.01949397696083E-17
52.7	3.19696197554417E-18	1.84804016344537E-17	0.343206301964749	1.04449367319271	0.343206301964749	1.04449367319271	2.9233451961646E-17	-3.455900218816E-17
52.8	2.88652089580203E-17	-2.0823740624834E-17	0.375144569348307	0.88138864161016	0.375144569348307	0.88138864161016	-1.03738355819585E-17	1.65246932827678E-17
52.9	-1.06332150066895E-17	1.57983425613135E-18	0.690960217524962	0.953019750927195	0.690960217524962	0.953019750927195	3.65540228312166E-17	1.19576743910829E-17
53	1.47251146178358E-17	-4.50277735891236E-18	0.698042488472766	0.742728942683993	0.698042488472766	0.742728942683993	4.46308515960225E-18	-1.37169921909057E-17
53.1	-1.46050040410178E-17	1.05409864687861E-17	0.834701817360986	0.6916969282656	0.834701817360986	0.6916969282656	1.06631072860806E-17	1.25072168418478E-17
53.2	-1.07558302966728E-17	-2.03038523936239E-17	0.986451924861726	0.531677878103186	0.986451924861725	0.531677878103186	-2.84227939400838E-17	4.36395898430719E-18
53.3	-6.03293724827338E-19	2.95204333610043E-17	1.00215786209746	0.391968524720267	1.00215786209746	0.391968524720267	5.56424192945402E-18	-3.06424068600081E-18
53.4	-5.71655025493695E-18	1.10258740026443E-17	1.02958156769827	0.169145553532477	1.02958156769827	0.169145553532476	4.51717305807881E-17	5.51192857892432E-17
53.5	3.92448112985615E-19	9.94641684057414E-18	1.11122264800485	0.0998514296911075	1.11122264800485	0.0998514296911075	7.01023738548788E-17	-1.1438689531998E-17
53.6	-1.4781953708017E-18	-1.04178075671825E-17	1.09073995451336	-0.131863189150789	1.09073995451336	-0.131863189150789	-3.16206868218328E-17	-2.7816846936675E-17
53.7	-1.28926474387766E-17	-2.53721990427051E-19	0.985952973935586	-0.298588383699716	0.985952973935586	-0.298588383699715	-3.56109457905856E-17	2.70660862700263E-17
53.8	1.7158945351899E-17	-1.25001629753526E-17	1.09093448509411	-0.406112648640329	1.09093448509411	-0.406112648640329	3.20122231030237E-17	-2.76680112092905E-17
53.9	4.75223712167401E-18	-2.52737576251505E-17	0.921692917484214	-0.590748403064766	0.921692917484213	-0.590748403064766	6.9875324285827E-18	-3.5115149285185E-17
54	-1.52384591927146E-17	-1.68354176046912E-17	0.801254335922874	-0.716067716771716	0.801254335922874	-0.716067716771716	1.4494780236958E-17	-3.40695017954504E-18
54.1	8.92093642358361E-18	-1.05122997985651E-18	0.712753537904876	-0.801674920416779	0.712753537904875	-0.801674920416779	1.85426928337382E-17	3.84483098934272E-18
54.2	4.25505724146991E-18	-3.59622434326577E-17	0.593244353948874	-0.91729494847501	0.593244353948874	-0.917294948475011	1.03887200781446E-18	-2.73713561743453E-18
54.3	2.00160630861216E-17	-6.65388958224201E-18	0.394383464006757	-1.01265945048263	0.394383464006757	-1.01265945048263	2.63748200785214E-17	-1.05501490726558E-17
54.4	-2.14391143385981E-17	2.26423738093656E-17	0.328996338555682	-1.00326138745593	0.328996338555682	-1.00326138745593	-6.55206024865618E-18	2.3845633280133E-18
54.5	-1.15855677524676E-17	-2.91213080890301E-17	0.0851268594939828	-1.13720970243643	0.0851268594939828	-1.13720970243643	-1.1034049859371E-17	-1.76311749270002E-17
54.6	2.20711568376005E-17	-2.24391335510142E-17	-0.0632679186667881	-1.0627492540119	-0.0632679186667883	-1.0627492540119	2.74185019770102E-17	-1.91176990556733E-17
54.7	7.55197916252855E-18	1.34911551680821E-17	-0.205642919245027	-1.10370032440546	-0.205642919245027	-1.10370032440546	1.05779585158136E-18	3.00609598954324E-17
54.8	-1.39314723459523E-17	-1.09816152020119E-17	-0.393756775458905	-1.04943379675804	-0.393756775458906	-1.04943379675804	-1.6185878701154E-17	-1.19063012722417E-17
54.9	8.98719385606741E-19	-2.37673400392501E-18	-0.538786212767703	-0.952651696986508	-0.538786212767703	-0.952651696986507	2.79175002998279E-19	-1.25614064586146E-17
55	-4.94661987137955E-18	5.29183996715323E-18	-0.667571187856156	-0.894047803174764	-0.667571187856157	-0.894047803174764	3.83465329647588E-18	2.26239326054063E-18
55.1	-3.39483499305175E-18	-2.48358841401498E-18	-0.811474153357238	-0.776219013918161	-0.811474153357238	-0.77621901391816	4.3221320560004E-18	-1.2868705322476E-18
55.2	1.72763998453985E-18	2.77207733939108E-18	-0.892197183130886	-0.64945564165988	-0.892197183130886	-0.649455641659879	-2.01034499483987E-18	6.49173740983268E-19
55.3	1.51763537715844E-19	1.22880653446359E-17	-0.998449165883679	-0.484818196699739	-0.998449165883679	-0.484818196699739	-6.84181136486063E-18	-5.48782614728872E-20
55.4	7.38824002626458E-18	-3.8789780360235E-18	-1.05914826301192	-0.376115117157401	-1.05914826301192	-0.376115117157402	-1.158572910557E-17	-6.5919624180597E-18
55.5	-9.91450969973841E-18	8.50276291656545E-18	-1.12168642180261	-0.181870338648052	-1.12168642180261	-0.181870338648052	2.48479902534431E-18	2.08954253027454E-17
55.6	2.82814363741854E-19	1.29061122830749E-17	-1.1112304742215	-0.0340318031264941	-1.11123047422149	-0.0340318031264942	1.76863086458992E-17	2.68618620743619E-17
55.7	-1.33123697915293E-17	-2.71524890749584E-18	-1.13135855212586	0.128059851644115	-1.13135855212586	0.128059851644115	-1.1279069415588E-17	4.89374190049259E-18
55.8	-8.92335848934055E-18	1.20444070652869E-17	-1.09001398323	0.309109706084338	-1.09001398323	0.309109706084338	-5.05042018494005E-19	5.54411560486024E-18
55.9	7.41115110890483E-18	-1.2945873030032E-17	-1.0403497043169	0.45468465873507	-1.0403497043169	0.45468465873507	-4.80121770374451E-18	-1.39665472975299E-18
56	5.79091411407596E-18	2.51219647287567E-19	-0.935772093197408	0.604388873622964	-0.935772093197407	0.604388873622963	2.13929079784294E-17	4.92931048926126E-18
56.1	7.81603177558611E-19	1.50209196336426E-17	-0.87345675577116	0.732709999822136	-0.87345675577116	0.732709999822136	2.2855918450558E-17	1.31953725011173E-17
56.2	-1.10631718290845E-17	-6.64880941425575E-18	-0.758662138707011	0.867445441321411	-0.758662138707011	0.867445441321411	-1.28152772167385E-17	-2.6171389565132E-17
56.3	-4.63922396686797E-18	6.22040482981116E-18	-0.571500471398745	0.960777859860606	-0.571500471398745	0.960777859860606	-9.1000358831867E-18	-3.94640336546029E-17
56.4	1.02863559226879E-17	3.37952524638213E-18	-0.487894651286677	1.04170838991434	-0.487894651286677	1.04170838991434	1.49893570990089E-17	3.23279237835015E-17
56.5	-3.01916636193781E-18	-8.6409219440539E-18	-0.30999959276752	1.12029547618141	-0.30999959276752	1.12029547618141	-1.28753403210216E-17	-2.4111955603204E-17
56.6	1.03589256165467E-18	9.33997015938734E-18	-0.139450969621986	1.11741217576083	-0.139450969621987	1.11741217576083	1.55269075250585E-17	-1.64872082387929E-17
56.7	1.91096059262254E-17	-6.26086137946199E-18	0.0174751115559256	1.14370220065328	0.017475111555926	1.14370220065328	1.38682978595247E-19	4.53716697634575E-18
56.8	-1.73326722466515E-17	1.61600472686789E-17	0.166485569838841	1.15320781750406	0.166485569838841	1.15320781750406	-2.35157539911283E-17	1.1844996832077E-17
56.9	1.38252227019083E-17	4.26034816995892E-18	0.335693564870736	1.09074496385284	0.335693564870736	1.09074496385284	8.85378628058524E-18	4.31581164891827E-17
57	-2.649297330849E-17	2.56495558096877E-17	0.509391393480341	0.994847665644457	0.509391393480341	0.994847665644458	-1.00685712415765E-17	2.88027827098193E-17
57.1	6.50750282757928E-18	-4.03898124764417E-18	0.635987169799345	0.94548933808605	0.635987169799344	0.94548933808605	-1.56717776064912E-17	3.25308190355309E-17
57.2	-2.85353844560011E-17	-2.11248050259932E-17	0.777359729702832	0.871432183041391	0.777359729702832	0.871432183041391	-8.79645458116897E-17	-2.19758015138519E-17
57.3	1.76931706642135E-17	1.08763181080661E-17	0.920860538653786	0.671270481132193	0.920860538653786	0.671270481132193	1.60846941751241E-17	-3.82969052046775E-17
57.4	9.01642615386781E-19	-1.825329682198E-17	0.941124520829034	0.579992989042853	0.941124520829034	0.579992989042853	-1.00057058330583E-17	-1.98847155787056E-17
57.5	-4.00653208962737E-18	2.3983200831642E-17	1.07723582151367	0.447335018620848	1.07723582151367	0.447335018620848	-1.75815636443129E-17	3.25120029865165E-17
57.6	-2.07516082374708E-17	1.31897996163438E-17	1.12924087965029	0.262058037329683	1.12924087965029	0.262058037329683	1.97792780156852E-19	2.60631307844366E-17
57.7	7.56967429575352E-18	-3.15205181539243E-17	1.11065013262859	0.10343751947521	1.11065013262859	0.10343751947521	2.68505929697586E-17	-2.64157778113413E-18
57.8	7.42246567928973E-18	6.47822301355944E-18	1.156318469186	-0.0392278635420004	1.156318469186	-0.0392278635419999	-4.89153617180773E-18	-2.06149723728412E-17
57.9	2.65811292435511E-17	2.47654718053232E-18	1.15566141097105	-0.189993007614107	1.15566141097105	-0.189993007614107	-8.57362286875898E-18	1.92229474476684E-17
58	3.8450866983226E-18	1.02249398707574E-17	1.06668181795961	-0.407958434369202	1.06668181795961	-0.407958434369202	5.12142086131424E-18	5.99641939821016E-17
58.1	5.60242543242007E-18	1.22271160711525E-17	0.994577061716164	-0.498346306024164	0.994577061716165	-0.498346306024164	-8.24595377339557E-18	1.12577857064299E-17
58.2	7.83575447677196E-18	-4.6605289711927E-18	0.947095932901751	-0.669946100050914	0.947095932901752	-0.669946100050915	7.15446967822302E-18	2.52667595131711E-18
58.3	-6.08737369890381E-18	2.29634169555286E-17	0.820787567242808	-0.809253836764506	0.820787567242808	-0.809253836764507	-2.17948626101039E-17	-7.22331444809124E-18
58.4	4.0726064903211E-17	2.25431638524379E-17	0.705787180481725	-0.84871545726126	0.705787180481725	-0.848715457261261	1.14642944243154E-17	-1.93239114234728E-17
58.5	-5.31091663464461E-18	5.42968190769125E-18	0.613069149712806	-1.00434049885961	0.613069149712806	-1.00434049885961	4.03495581623173E-18	-2.36768229023575E-17
58.6	-1.1307169675551E-17	5.08899133278083E-18	0.431281340134184	-1.06832776470057	0.431281340134184	-1.06832776470057	-3.79102269726338E-18	1.5538217451128E-17
58.7	1.24097294037402E-17	-8.08591816316365E-18	0.27506118299458	-1.08425945264568	0.27506118299458	-1.08425945264568	-1.82746957142651E-18	-3.46020602693963E-18
58.8	1.47780875714068E-17	-3.31699902396244E-18	0.138188915290425	-1.1324468304051	0.138188915290425	-1.1324468304051	-7.65061956739116E-18	7.40883152389327E-18
58.9	-2.29212867518522E-19	-2.46589871441088E-17	-0.00540762931558027	-1.16354324723313	-0.0054076293155805	-1.16354324723312	1.64174949658327E-17	-2.50128354445128E-18
59	-2.27579941586045E-17	-9.33966602773827E-18	-0.205669883042342	-1.11842978128358	-0.205669883042342	-1.11842978128358	-1.51223891266289E-17	-5.04515230207049E-18
59.1	6.70277577500025E-19	-7.13300866104694E-18	-0.325349304118266	-1.08818537785037	-0.325349304118266	-1.08818537785037	-3.94996715799658E-18	-1.2130478781406E-17
59.2	-5.49241046672718E-18	3.94096616256534E-18	-0.482472693039747	-1.07192835467527	-0.482472693039747	-1.07192835467527	7.79891072680307E-18	6.10786633831141E-18
59.3	8.73296478506864E-18	-5.75710284917785E-18	-0.646663608879132	-0.933521966311864	-0.646663608879133	-0.933521966311864	7.52704347732053E-18	2.22855708371949E-18
59.4	-1.21815310418502E-18	1.94578707891714E-17	-0.739576174673751	-0.876225280961243	-0.739576174673752	-0.876225280961243	-1.40769338914273E-17	4.54258949168756E-18
59.5	-8.71968855570574E-19	9.33093584605002E-18	-0.884354467647191	-0.753555971986912	-0.884354467647192	-0.753555971986912	5.83198434296816E-18	6.77096641750595E-18
59.6	-5.36293921643195E-18	-1.11448212257531E-17	-0.963950566746915	-0.605892256842967	-0.963950566746915	-0.605892256842967	-9.41560148034218E-18	-9.19466151068695E-18
59.7	4.4006105962381E-18	1.16471819722339E-17	-1.05488748651321	-0.492037446393999	-1.05488748651321	-0.492037446393999	-7.26160845533527E-18	-1.2315177526561E-17
59.8	-6.76332100455856E-18	-1.57498834811804E-17	-1.12216179332458	-0.33314801785141	-1.12216179332458	-0.333148017851409	-1.4267648536187E-17	-8.58129332872917E-18
59.9	-5.50714318406992E-18	8.96673322794009E-18	-1.14719277370297	-0.18870514096086	-1.14719277370297	-0.188705140960859	-7.75068219852067E-19	7.78224196541938E-18
60	6.99166654103649E-18	-4.59035298764273E-18	-1.15638016365413	-0.00406998501620197	-1.15638016365413	-0.00406998501620224	-6.89369387066198E-18	-9.32766498084724E-18
60.1	3.33460689837903E-18	-8.28876591239521E-19	-1.14061894649256	0.139636123241662	-1.14061894649256	0.139636123241663	9.24401715316752E-18	-5.54335276389934E-18
60.2	-2.25274622594641E-17	3.08550723735579E-17	-1.14351478880478	0.2819858729672	-1.14351478880478	0.2819858729672	-1.0729802645802E-17	2.87367016304302E-17
60.3	-2.94040060821348E-17	-6.03826299544261E-18	-1.06389632666218	0.471633047060581	-1.06389632666218	0.47163304706058	3.7673841257433E-18	8.96259033581611E-18
60.4	-1.46552976220431E-17	1.23759430451464E-17	-0.994333136520494	0.564291381156604	-0.994333136520494	0.564291381156603	-1.7203119378741E-17	2.27031525296557E-18
60.5	2.02297711030481E-17	-3.45820475093442E-17	-0.91843848484465	0.730916111869743	-0.91843848484465	0.730916111869743	3.9073997314135E-18	-3.26187816451681E-19
60.6	-1.65703195971926E-17	-1.0399828266181E-18	-0.806108111552715	0.842428023616193	-0.806108111552716	0.842428023616193	-9.83970414824752E-18	-9.00877594057958E-18
60.7	-3.75523946883715E-18	-3.71664416400326E-18	-0.679959596799055	0.948548587489431	-0.679959596799055	0.94854858748943	-2.04801382068518E-18	1.31819334457639E-18
60.8	6.24326078291602E-18	1.17134816771097E-17	-0.547061342294368	1.04068710062572	-0.547061342294367	1.04068710062572	-4.1611388512656E-20	8.39796154642597E-18
60.9	-2.07590997031843E-17	2.27825427490789E-17	-0.409989824378456	1.10672524941916	-0.409989824378457	1.10672524941916	-8.90691802903291E-18	-4.46382445511931E-18
61	-1.82898663574468E-17	-1.50249750976992E-19	-0.24131258654506	1.15162055175342	-0.241312586545061	1.15162055175342	1.20337671989342E-17	-1.28086023375572E-18
61.1	2.07963975278955E-17	-4.65548730766289E-18	-0.0841468747032042	1.15883623054815	-0.0841468747032041	1.15883623054815	-5.67496203029666E-18	1.45548456816883E-17
61.2	-6.6914035317243E-18	-1.88076312636813E-17	0.0588811075902509	1.17123923711052	0.058881107590251	1.17123923711052	-1.9549654314596E-18	4.39320952372274E-18
61.3	-7.94747427082799E-19	-1.76150651192961E-17	0.227088072349676	1.1700217750714	0.227088072349676	1.1700217750714	6.72620014847635E-18	-8.02743088041246E-18
61.4	-2.76512913985119E-17	8.17231065105621E-18	0.409871586262369	1.0989125186251	0.409871586262369	1.0989125186251	1.93393392739515E-17	1.04759711205886E-17
61.5	-1.12602632490373E-17	3.86741795155717E-17	0.505188539887681	1.04370152007405	0.505188539887681	1.04370152007405	3.60822086516582E-18	1.84663744050427E-17
61.6	4.86235164254545E-18	-1.97583010377013E-17	0.683623834257727	0.993755307343548	0.683623834257727	0.993755307343548	-1.73064394819181E-18	-6.06759668592658E-18
61.7	1.96361334624732E-18	7.54713168300155E-18	0.814282937769087	0.870939386794644	0.814282937769086	0.870939386794644	-7.79557542964048E-18	5.65436460553511E-18
61.8	9.21594445949041E-18	-2.47029237538319E-18	0.900438759895818	0.748382160109157	0.900438759895818	0.748382160109157	-1.17441860136371E-17	1.88235267255452E-18
61.9	-6.31330294172803E-18	2.47331953609374E-17	1.00245339405758	0.61591074584775	1.00245339405758	0.61591074584775	5.02604683268036E-18	1.12496215825762E-17
62	-8.65478814102044E-18	-6.38644797815018E-18	1.08151417954915	0.500468370919608	1.08151417954915	0.500468370919608	7.67954091232955E-18	-1.37926343257955E-17
62.1	4.33976714768021E-18	-9.17370466932418E-18	1.15672007568807	0.336520805748959	1.15672007568807	0.336520805748958	-1.60292746526191E-17	-6.46023368412393E-18
