# GHZ S RI R 50
50	-1.81685982827812E-17	-3.23851760762915E-17	0.755366915659964	-0.5352344021793	0.755366915659963	-0.5352344021793	2.08413634266942E-17	-2.13243153410266E-18
50.1	8.98186739408986E-18	-3.53883734186153E-18	0.636946060648731	-0.637962603959565	0.636946060648731	-0.637962603959565	-7.73367731467833E-18	1.27005833161335E-17
50.2	3.59864983648981E-17	2.17259992894987E-17	0.537954248090876	-0.731357639191053	0.537954248090876	-0.731357639191052	-1.52280228131566E-17	4.00191079602619E-18
50.3	-1.5783944012692E-17	6.90729604109864E-18	0.417736904162116	-0.838890924629975	0.417736904162116	-0.838890924629975	2.9774365827305E-19	-2.13389246879613E-18
50.4	3.17044665485902E-18	-5.29014990763092E-18	0.237048534188617	-0.85666379112036	0.237048534188617	-0.85666379112036	-8.69611914613127E-18	1.1796369680508E-18
50.5	7.05822628991935E-18	5.09538638671426E-18	0.127615239327122	-0.917163374185109	0.127615239327122	-0.917163374185109	5.91724795014055E-18	-4.50568034542104E-18
50.6	1.36376151931677E-17	6.04087713503776E-18	-0.0411631965383199	-0.912932241598494	-0.0411631965383195	-0.912932241598494	3.0160945903575E-18	1.18209961238397E-18
50.7	2.65368833689651E-17	-1.85411278752718E-17	-0.174607927466438	-0.892562475901611	-0.174607927466438	-0.892562475901611	1.9193570256169E-17	1.48616440869883E-18
50.8	7.41324698529693E-18	3.56225239786973E-18	-0.340331551046636	-0.874412644809123	-0.340331551046636	-0.874412644809123	1.71189354129972E-17	-8.45064192100494E-18
50.9	-1.0510056584901E-17	-4.22974350206156E-18	-0.456480518042264	-0.775680586656882	-0.456480518042264	-0.775680586656882	-4.22974350206156E-18	1.0510056584901E-17
51	-3.00404856668111E-18	-8.86267099134044E-18	-0.597168311499928	-0.71024261801704	-0.597168311499928	-0.71024261801704	-6.91185549143347E-18	4.86023850141559E-18
51.1	-1.18437941210494E-18	1.17537211767707E-17	-0.699911533298261	-0.60078481555039	-0.699911533298261	-0.60078481555039	1.11832210027146E-18	7.29444666881425E-18
51.2	1.06034705251129E-18	-1.85683530424666E-17	-0.782343339255668	-0.476505810137274	-0.782343339255668	-0.476505810137275	-1.05165107186591E-17	-7.67553571622671E-18
51.3	-3.18885558621714E-18	1.84510594618779E-17	-0.855250403065897	-0.345240937182619	-0.855250403065897	-0.345240937182619	-2.50450126711465E-18	5.7850428284424E-18
51.4	1.81108804918446E-17	1.43706268342751E-17	-0.919030921686422	-0.219275729336418	-0.919030921686421	-0.219275729336418	5.87959858614945E-19	3.76859196458906E-18
51.5	-4.52273382609671E-18	-1.48308182649389E-18	-0.906063575846989	-0.0408318250650759	-0.906063575846989	-0.040831825065076	8.92176625622761E-18	1.22683442160185E-17
51.6	8.97368927481531E-18	2.32263503705801E-18	-0.928536231208205	0.0767575239138894	-0.928536231208204	0.0767575239138891	1.81973130866441E-17	-7.60902290107848E-18
51.7	-6.41009594871913E-19	2.10788918183747E-18	-0.919342964587368	0.229946424460928	-0.919342964587368	0.229946424460928	-1.26603893147022E-17	-1.09024146838011E-17
51.8	1.08547842760479E-18	1.11464540630155E-17	-0.813371955814751	0.362753829275955	-0.813371955814751	0.362753829275956	1.05872959322644E-17	2.11108726458029E-18
51.9	-1.24132160179795E-17	-2.73104289416464E-19	-0.818286661810188	0.501436155557889	-0.818286661810188	0.501436155557888	-4.89454175304677E-17	4.678777092886E-17
52	4.334490038412E-18	-3.50367404598421E-17	-0.666689602577548	0.62701833478765	-0.666689602577548	0.62701833478765	-1.63448257086198E-17	-6.46256385992645E-18
52.1	-1.34993136290713E-17	-1.76442347900581E-17	-0.570050763070715	0.710449360141129	-0.570050763070715	0.71044936014113	-1.47543825252315E-17	6.59203512738644E-18
52.2	3.10791489249081E-18	-8.533626748668E-18	-0.477792886128121	0.800790285948809	-0.477792886128122	0.800790285948809	-3.32917713607993E-18	-9.34484046537288E-18
52.3	-2.87554220122743E-18	4.08213443998673E-18	-0.349788086212425	0.867764526606045	-0.349788086212425	0.867764526606045	4.35973444950088E-17	3.35352780713061E-17
52.4	1.72666814515294E-17	3.20063609707339E-19	-0.190552256450835	0.942344856888287	-0.190552256450835	0.942344856888287	1.24598899833088E-18	-2.95494069097353E-18
52.5	-1.18644690855744E-17	-4.82691541727514E-18	-0.0749592204975144	0.891774613842262	-0.0749592204975142	0.891774613842261	-1.46752860776849E-18	3.7796658498501E-17
52.6	-8.71548435500733E-18	1.35187393005444E-17	0.0683047672984217	0.964149770675671	0.0683047672984219	0.964149770675671	3.48313902002479E-17	1.46840696540091E-17
52.7	2.55654972347868E-17	-5.25939313674637E-18	0.277530570175576	0.924288364396284	0.277530570175576	0.924288364396285	1.42932689785611E-17	9.92385239530105E-18
52.8	-1.14255478426882E-18	4.20419016270972E-18	0.293005727572165	0.781472764059989	0.293005727572165	0.781472764059988	8.34141074274698E-18	9.55988224010554E-18
52.9	-1.52550129695654E-17	-2.5887673343227E-17	0.590458639487543	0.856403240157941	0.590458639487544	0.856403240157942	-3.07403452769098E-17	-3.66234150754179E-18
53	-2.35904484681454E-18	-3.09399951741496E-18	0.586111771764409	0.670406697148546	0.586111771764409	0.670406697148547	1.94826904427403E-17	-2.09705745361741E-17
53.1	-1.16788279104514E-17	-4.59697812618486E-18	0.713190513070366	0.634390052554964	0.713190513070366	0.634390052554963	-2.58680917106061E-18	5.07758026720885E-18
53.2	-1.35399312245255E-18	2.72913821485289E-18	0.854436967163181	0.494077389313512	0.854436967163181	0.494077389313512	-3.15063270713393E-18	-2.08632049145743E-18
53.3	1.31431144640608E-17	1.52248495480918E-18	0.868462628148917	0.376213249941267	0.868462628148918	0.376213249941267	-3.11740448178131E-17	1.21884866376572E-17
53.4	-3.86514135785067E-18	9.32643904938188E-18	0.894269918476424	0.177966585517021	0.894269918476424	0.17796658551702	-1.30474028306991E-17	-6.18780472902823E-18
53.5	1.44785948076225E-17	4.61690022461559E-18	0.977951019186853	0.124467364145925	0.977951019186853	0.124467364145925	1.62071820168696E-18	-2.3090404396143E-17
53.6	1.99092025755354E-17	-8.40925349677994E-18	0.962734383992111	-0.083412456105772	0.96273438399211	-0.083412456105772	4.83825096852659E-18	-2.87997855276308E-17
53.7	-2.45148160745495E-18	-1.83988979487436E-18	0.870049685468205	-0.22891561890636	0.870049685468205	-0.22891561890636	-3.24651533189647E-18	1.95774930471856E-17
53.8	1.21671032864589E-17	-8.44045704306391E-18	0.980664144016037	-0.323748358368864	0.980664144016037	-0.323748358368865	1.927069422788E-17	-5.06922885522167E-18
53.9	1.6380105032685E-17	-1.30192109098805E-17	0.82953555908329	-0.489591731482308	0.82953555908329	-0.489591731482308	-1.46704789773347E-17	-2.00494955404284E-17
54	9.68063529083855E-18	-9.55733332112407E-18	0.726942372885265	-0.601646936122109	0.726942372885265	-0.601646936122108	-1.8282420798139E-17	-1.13410788132175E-17
54.1	3.45154939186148E-17	1.43037512641279E-17	0.656185062702111	-0.678717805197426	0.656185062702111	-0.678717805197426	7.33854041339188E-17	-2.56821086109214E-17
54.2	-1.37822470531648E-17	-2.79541408295412E-18	0.555650447836969	-0.786200336404041	0.55565044783697	-0.786200336404041	5.99760613551857E-18	2.17555756068693E-17
54.3	-2.21880365578113E-17	-5.20495561123142E-18	0.37975363666374	-0.875628986688645	0.37975363666374	-0.875628986688645	-1.80160498115191E-17	3.87685278488094E-18
54.4	1.54732644577763E-17	7.32063801528532E-19	0.332056086871097	-0.869509965028366	0.332056086871097	-0.869509965028366	3.41118659393515E-17	-5.61849691863531E-17
54.5	1.98383366367999E-17	-8.09629180362267E-18	0.112051234979871	-0.999668912568709	0.112051234979871	-0.99966891256871	4.55984887334616E-17	2.11523270453596E-17
54.6	-1.27702737446017E-17	3.46022206943647E-18	-0.0156604735368703	-0.934450577344957	-0.0156604735368704	-0.934450577344957	1.02956899169819E-17	-9.44139024937667E-18
54.7	5.58966116338773E-18	-5.18139428210874E-18	-0.140209371243115	-0.981218511975003	-0.140209371243115	-0.981218511975003	-3.88529467763844E-18	6.45948138793493E-18
54.8	-2.92221687975401E-19	-6.0997110714245E-18	-0.308888527619311	-0.938582442731675	-0.308888527619311	-0.938582442731675	-1.0901347592814E-17	8.04682289647705E-18
54.9	-3.13037321745437E-19	6.00390912553623E-18	-0.437923957870222	-0.85721786957687	-0.437923957870223	-0.857217869576871	-1.60582645102339E-18	1.86763718072656E-17
55	-2.10307104103257E-18	-1.52745178563141E-17	-0.553695844889054	-0.813490155572361	-0.553695844889054	-0.81349015557236	-5.98754402460077E-18	-1.22919212592794E-17
55.1	3.06213363553308E-18	8.31315285881455E-18	-0.685501840063138	-0.714158645320557	-0.685501840063138	-0.714158645320556	-1.02257433155592E-17	4.31769685503876E-19
55.2	1.61071925670736E-18	3.41859223061108E-18	-0.759253450481241	-0.607196794607178	-0.759253450481241	-0.607196794607178	1.40797972195555E-17	1.02727118478733E-17
55.3	-6.32615007457232E-19	-7.00490373627566E-18	-0.859310255486801	-0.464308651583588	-0.859310255486801	-0.464308651583588	-1.85684542336821E-17	-2.6727045310178E-18
55.4	-2.52173191944628E-18	1.84312486214891E-17	-0.918362228442872	-0.374756241704844	-0.918362228442871	-0.374756241704844	-1.74025339215056E-17	9.23442315754656E-18
55.5	-1.6459137189075E-17	-1.43968311702781E-18	-0.981093082510916	-0.203477278863043	-0.981093082510915	-0.203477278863043	-7.14851353716504E-18	-2.72995967713866E-17
55.6	-5.70315978866563E-18	-2.57445134939777E-18	-0.976468314676285	-0.0757577457968396	-0.976468314676284	-0.0757577457968396	-3.80147722412722E-18	2.77486733866564E-18
55.7	-1.95363333965715E-17	-1.06554241527273E-17	-1.00279572137696	0.0664690309776288	-1.00279572137696	0.0664690309776289	9.36346957257971E-18	2.28836036892902E-18
55.8	-8.05702052040512E-19	1.00588825137439E-17	-0.972455067457592	0.227946035953582	-0.972455067457591	0.227946035953581	-1.54972813284418E-17	5.7557583954393E-18
55.9	3.94601343037753E-18	1.74742541202015E-17	-0.935684027774167	0.357112395114134	-0.935684027774166	0.357112395114134	-4.12665362630356E-18	-3.31294305709976E-18
56	3.20688050395958E-18	-3.92853934075159E-18	-0.848040288007453	0.491962004861974	-0.848040288007452	0.491962004861974	2.89493151875342E-18	1.65543174951415E-18
56.1	-1.01757700475478E-17	1.35650368005954E-17	-0.801542993086647	0.60813112108819	-0.801542993086648	0.60813112108819	-1.18381092182567E-17	-3.31077867432627E-18
56.2	3.77319615233462E-18	-7.32501150654664E-18	-0.706033166573645	0.732451041769878	-0.706033166573645	0.732451041769879	1.74143355938879E-17	-1.50125964038186E-17
56.3	1.31876964890284E-17	5.31318947866692E-18	-0.542046298248081	0.819812707703459	-0.54204629824808	0.819812707703459	-3.54212631911128E-18	8.79179765935227E-18
56.4	2.00218629651386E-18	2.96614421703496E-18	-0.476647542520684	0.896818704734129	-0.476647542520683	0.896818704734129	-1.34215299319763E-17	3.92832327619979E-17
56.5	-4.87819637701705E-19	-5.47520416602114E-18	-0.321652695216935	0.974237461077928	-0.321652695216935	0.974237461077927	-1.47817456224419E-17	1.54535533086341E-18
56.6	-5.65289127230966E-19	-1.33644943456234E-17	-0.172634713132075	0.976200897138009	-0.172634713132075	0.976200897138009	-5.36313163155786E-18	-2.01072157876263E-17
56.7	-5.00123932576542E-19	-5.34070498334471E-18	-0.0361792677165756	1.0076667744128	-0.0361792677165755	1.0076667744128	-8.04849223965745E-18	1.35672964924117E-17
56.8	-1.58762298963233E-17	2.5347563252154E-17	0.0937193722509338	1.02486509429583	0.0937193722509337	1.02486509429583	-2.28069746301718E-18	7.8937887757632E-18
56.9	-5.02317100287988E-18	-1.12459738556527E-17	0.244650022697408	0.975642428798651	0.244650022697408	0.975642428798651	-5.00921794128916E-17	-5.08257748758413E-17
57	-1.13971478151085E-17	2.72399179224463E-18	0.401514115631735	0.896202802413189	0.401514115631735	0.896202802413188	4.44749579810885E-17	-9.64752805426073E-18
57.1	2.14227368787665E-17	-1.02981738709801E-17	0.514698146180295	0.861677234197335	0.514698146180296	0.861677234197335	2.10670924055042E-17	-2.43829928551463E-17
57.2	-2.39779742407823E-17	-2.56841713905058E-18	0.643749092248886	0.804909901847709	0.643749092248885	0.804909901847709	3.55451126963737E-19	1.51918311457543E-17
57.3	-2.19690589845855E-17	2.60347811032758E-17	0.778358853616328	0.62924214937536	0.778358853616328	0.629242149375359	-4.98855900381408E-17	6.5784894695638E-17
57.4	-7.6808148767017E-19	2.8210028394818E-19	0.796434292828824	0.555938934573028	0.796434292828823	0.555938934573028	6.50624798178503E-18	-2.02592750404094E-17
57.5	1.49661298895495E-17	3.2859161752049E-18	0.926813745866111	0.44515652933986	0.926813745866112	0.44515652933986	1.28751873455541E-17	-2.49950863053176E-17
57.6	1.47953657612567E-17	-1.41549240783372E-17	0.980207362091414	0.28321010093011	0.980207362091415	0.28321010093011	2.25172173564148E-17	-3.06347913393943E-17
57.7	-1.95059989264431E-18	6.35681649972464E-18	0.968087604680948	0.145188859474048	0.968087604680948	0.145188859474048	1.85039596014233E-18	2.23033014274449E-17
57.8	-1.42950605554776E-18	1.73826950247013E-18	1.01851528614539	0.022784860548235	1.01851528614539	0.0227848605482352	-1.57853259223697E-17	-9.71790757050316E-18
57.9	6.62818411512936E-18	-1.92725511789177E-17	1.02683515463943	-0.108796289020161	1.02683515463943	-0.108796289020161	6.97533303442007E-18	-2.04109789384546E-17
58	-4.03913187892874E-18	1.36218601940587E-17	0.954291547419102	-0.306825802919428	0.954291547419102	-0.306825802919429	-9.93482861932712E-18	1.00744923944638E-17
58.1	-3.9269065121454E-18	6.52573201829941E-18	0.896887624545402	-0.384716575676683	0.896887624545402	-0.384716575676683	-1.1106137340054E-17	-6.00346862900611E-18
58.2	3.22782753260565E-18	-4.34078026737076E-19	0.865583149165303	-0.540552037603668	0.865583149165302	-0.540552037603668	1.14197947047653E-17	1.16090760502114E-17
58.3	-3.08796047443734E-19	3.04361209282794E-17	0.759982499067867	-0.668941392589091	0.759982499067867	-0.668941392589091	1.42945930052254E-17	1.43777174667882E-17
58.4	-9.15782990614853E-18	1.03047120227559E-17	0.663881316282434	-0.704153945824917	0.663881316282434	-0.704153945824917	-2.67031592984705E-18	9.92241798388678E-18
58.5	-3.88417645849757E-18	-1.04815973618233E-17	0.591937569398497	-0.850628767416312	0.591937569398498	-0.850628767416312	-9.76760531905866E-18	1.65339657533053E-17
58.6	6.93691572237558E-18	7.09093086881846E-20	0.433904959127269	-0.914211688417141	0.433904959127269	-0.914211688417141	3.67836103413689E-18	7.31643628555323E-18
58.7	9.20359726535262E-18	-5.71762300403018E-18	0.299091909712863	-0.933520508551621	0.299091909712863	-0.933520508551621	-1.25959597422916E-17	-3.87383710405669E-18
58.8	9.94542148374882E-18	-1.85505786727737E-17	0.183155498452152	-0.984772879030706	0.183155498452152	-0.984772879030707	5.12552288536951E-18	-3.62076478157313E-18
58.9	1.9055935078903E-18	1.48636143631075E-17	0.0600804801678403	-1.02174000545303	0.0600804801678402	-1.02174000545303	-1.11533134740313E-18	1.6982185527808E-18
59	7.75927447194433E-18	-4.56018740007429E-18	-0.119283596676668	-0.989772808588936	-0.119283596676668	-0.989772808588936	-1.04911164428625E-17	-2.98067533774224E-18
59.1	-3.12573596405275E-18	3.42827922966732E-18	-0.222846996082377	-0.971381481137032	-0.222846996082377	-0.971381481137032	-9.63110358265997E-18	-1.21618937782094E-19
59.2	-5.0836989943325E-18	-1.88305166077253E-19	-0.362470332230092	-0.968670244508929	-0.362470332230092	-0.968670244508928	-1.46300385203066E-17	-8.33138295581448E-18
59.3	-9.71793715681711E-20	-2.11355001439065E-18	-0.513551585564712	-0.851878493475738	-0.513551585564711	-0.851878493475737	7.58912986330544E-18	4.00687934750592E-18
59.4	1.2314175808107E-18	-5.1394095847402E-18	-0.596274298736535	-0.81095323384052	-0.596274298736535	-0.810953233840519	2.30717886979437E-18	4.40343334634292E-18
59.5	4.22099377012977E-18	-1.00504199272779E-17	-0.731536651012429	-0.710613232804446	-0.731536651012429	-0.710613232804445	-2.18258787011758E-17	-5.6843087698346E-18
59.6	-3.74124707750383E-18	1.07576920056879E-17	-0.807553038338586	-0.58534888906355	-0.807553038338586	-0.585348889063549	1.29101584567162E-17	-1.60291735407234E-17
59.7	8.28461015185563E-18	5.47455736574578E-18	-0.895020583809293	-0.492905527243238	-0.895020583809292	-0.492905527243238	1.37389539754333E-18	5.55990937871309E-18
59.8	-4.37400632983388E-18	2.27638751656445E-18	-0.963315536237548	-0.357340527590925	-0.963315536237548	-0.357340527590925	-6.45641497560871E-18	4.84947176974047E-19
59.9	-6.95472827808996E-18	1.39321641652259E-17	-0.992953093499271	-0.234062628779374	-0.992953093499271	-0.234062628779374	5.45270369982954E-18	4.23528743962398E-18
60	7.43140703358164E-18	-1.63552019523277E-18	-1.01074691258231	-0.0719559809864504	-1.01074691258231	-0.0719559809864504	-1.23080269907222E-19	-1.17133114819772E-17
60.1	1.44003735742927E-17	1.0858028680264E-17	-1.00529209137945	0.0527590173896733	-1.00529209137945	0.0527590173896729	1.84004415683602E-18	2.58794915710445E-17
60.2	6.05962962156127E-18	-1.20090935552599E-17	-1.01905923200737	0.176226094063094	-1.01905923200737	0.176226094063094	3.74595415298802E-18	-3.30525576090877E-18
60.3	-6.01289427118767E-18	-4.36872169659018E-18	-0.958018559883733	0.348341330240774	-0.958018559883734	0.348341330240774	-1.85325961074346E-17	-3.87268433539593E-18
60.4	3.23250502733329E-17	-1.17816496562569E-17	-0.904384309151004	0.429462529470215	-0.904384309151003	0.429462529470214	5.24587168925501E-18	-9.18408229791656E-18
60.5	1.97518381136744E-17	2.53522951845036E-17	-0.848706269191593	0.582054343539675	-0.848706269191593	0.582054343539675	-8.27476365519083E-18	1.05908074950245E-17
60.6	2.4370295197553E-18	-1.52208663385226E-17	-0.757562215478349	0.685350774828117	-0.757562215478349	0.685350774828117	-5.76546581254174E-18	3.06039729694708E-18
60.7	-1.45903588630301E-17	8.48134923637127E-19	-0.653994583042054	0.785671497880138	-0.653994583042054	0.785671497880138	-3.2365235955243E-18	2.44039403822858E-18
60.8	2.22153223788168E-17	-1.53069302904548E-17	-0.544138226107636	0.874711775173399	-0.544138226107636	0.874711775173399	7.47860464359438E-18	5.80671087697536E-18
60.9	-1.98602307461261E-18	2.60533613622088E-17	-0.429709869808726	0.940967556000657	-0.429709869808725	0.940967556000656	6.45261672503193E-18	1.77725809317677E-18
61	-1.97386804977323E-17	1.58872239359932E-17	-0.284684233485174	0.990309899445591	-0.284684233485174	0.990309899445592	-6.55290329514686E-18	1.00221296423E-17
61.1	-7.092266296754E-18	4.87219673186844E-18	-0.148922176745667	1.00533166358921	-0.148922176745667	1.00533166358921	1.44567308710404E-17	-1.52783627306083E-17
61.2	-5.4369000671222E-18	1.66590810419195E-17	-0.0264364861519743	1.02643162139701	-0.0264364861519744	1.02643162139701	-1.44513503898746E-17	1.39053268980136E-17
61.3	-5.27019998364222E-19	1.42229568314893E-17	0.120954738684454	1.03744440523706	0.120954738684455	1.03744440523706	1.30368086290024E-17	1.91596088268962E-17
61.4	8.75955653238885E-18	1.44191283728131E-17	0.285973066561481	0.984602700781332	0.285973066561481	0.984602700781332	-1.9606151483769E-17	5.68956074625717E-18
61.5	-8.31080301677999E-18	3.30957228076382E-17	0.368512876359734	0.944485067645244	0.368512876359734	0.944485067645244	-8.81234534264493E-19	1.74721167365033E-17
61.6	1.20353978270912E-18	-6.01210660684371E-18	0.530563998899166	0.914445482928919	0.530563998899166	0.914445482928919	8.17652090837446E-18	1.32417337631513E-18
61.7	2.06574964327755E-19	-9.21380594837656E-19	0.652106548645714	0.814498415881508	0.652106548645713	0.814498415881508	-1.1168061364853E-17	2.33457836658298E-18
61.8	1.59808120365355E-17	-1.38218336433838E-17	0.733010478022348	0.713769618302796	0.733010478022348	0.713769618302796	-4.74327441956347E-18	-7.59394621012188E-18
61.9	1.01551004543922E-18	-1.47746383747369E-17	0.831012723106492	0.605213621795098	0.831012723106492	0.605213621795099	-1.27767800944373E-18	-1.74063297780996E-17
62	6.00394023989308E-18	6.28834420228898E-18	0.908177970761205	0.512298194905689	0.908177970761205	0.512298194905689	1.15868637383587E-17	7.3218433941299E-18
