# GHZ S RI R 50
50	-4.00444778242381E-18	2.0197733816236E-17	0.762267110046506	-0.537310629576684	0.762267110046506	-0.537310629576684	3.22465674995208E-19	-4.69089058630648E-18
50.1	-2.57361386824654E-17	-9.35935269914314E-18	0.642943484390485	-0.641493283226284	0.642943484390485	-0.641493283226283	7.1935366823936E-18	-1.71552716183015E-17
50.2	2.76865594548509E-18	-3.0433919277438E-17	0.543106356355313	-0.735416834951484	0.543106356355313	-0.735416834951485	1.5135934969495E-17	-9.96832440416266E-18
50.3	8.99151376423697E-18	1.71430406920706E-18	0.422669919110507	-0.843490031607421	0.422669919110508	-0.843490031607422	4.32244968901021E-18	6.25229569367095E-19
50.4	8.79707519746086E-18	1.099811838275E-17	0.240211427132151	-0.862669995726698	0.240211427132151	-0.862669995726699	-1.24821871261876E-17	-1.56602441276602E-17
50.5	2.61669004020474E-18	-1.17893538746244E-17	0.130428030880413	-0.922756620449355	0.130428030880413	-0.922756620449354	7.2378588308866E-18	2.08779745205837E-18
50.6	3.36778941755726E-18	4.86705481811264E-18	-0.0396212915547997	-0.919134647838047	-0.0396212915547996	-0.919134647838047	-8.776715334834E-18	7.58087381621587E-19
50.7	6.18676375539116E-18	-7.97393402222799E-18	-0.174129551625099	-0.898471494925969	-0.174129551625099	-0.898471494925968	2.69551716518735E-18	-1.08559299438337E-18
50.8	9.88563073564022E-18	-1.21160535816247E-17	-0.340342180583666	-0.880693931446768	-0.340342180583666	-0.880693931446767	6.86730881538421E-18	-6.2395358266672E-18
50.9	-9.3876399132525E-18	-3.62108851171591E-18	-0.458152544758925	-0.781264379497086	-0.458152544758925	-0.781264379497086	0	0
51	-3.84090433220925E-18	4.30520571567151E-18	-0.599271612173208	-0.715836284556802	-0.599271612173207	-0.715836284556802	-4.88959988793514E-18	-7.01699705097008E-18
51.1	8.98480587123017E-18	9.60761613626504E-18	-0.702891944899428	-0.60576662866387	-0.702891944899428	-0.60576662866387	-7.76105293974493E-18	8.70919327034228E-18
51.2	-1.98980147632213E-18	-1.46336517546709E-18	-0.786071748342092	-0.480734342099009	-0.786071748342093	-0.480734342099009	1.06122745403847E-17	7.80461426915781E-18
51.3	7.70114747257497E-18	1.26893908461101E-17	-0.859495454651973	-0.348885265519126	-0.859495454651973	-0.348885265519126	4.45239382298298E-19	-5.81194992090866E-18
51.4	9.12933429851026E-18	-3.23843342262906E-18	-0.923364154574198	-0.222579762777652	-0.923364154574198	-0.222579762777652	-6.94211311569167E-18	7.87407512374908E-18
51.5	4.08806548879088E-18	-1.06770990182729E-18	-0.911350496708361	-0.042545600237741	-0.911350496708361	-0.042545600237741	1.40653509596576E-17	2.01692339613959E-17
51.6	-1.01672057812176E-17	9.74053157791226E-18	-0.933320005489361	0.0752884483920776	-0.933320005489361	0.0752884483920776	-1.22458803852331E-17	1.35450039186342E-17
51.7	-6.35682681840027E-18	-1.09206643820966E-18	-0.92433201200734	0.228925909217639	-0.92433201200734	0.228925909217639	-5.24765163386303E-18	2.94486168812573E-17
51.8	-1.36456915003536E-17	2.67201547553672E-18	-0.818057807059507	0.36378682181069	-0.818057807059506	0.36378682181069	1.20061787528811E-17	-1.53863725843943E-17
51.9	1.33980840115184E-18	9.17722193058537E-19	-0.823032060037364	0.501545580242368	-0.823032060037364	0.501545580242368	2.77376997364027E-18	8.68340113013647E-18
52	-6.14854928119926E-18	1.5420123301646E-17	-0.671253048989794	0.629196121227749	-0.671253048989795	0.629196121227749	-2.23421787108548E-17	-1.85523810597983E-17
52.1	4.00387665785674E-18	4.70164017540572E-18	-0.573822913762929	0.712990031291956	-0.573822913762928	0.712990031291956	1.18777956977351E-17	6.69698823646901E-18
52.2	2.43986240690269E-17	-3.56263618137043E-18	-0.481286884542313	0.803211190622185	-0.481286884542313	0.803211190622184	8.93629320933028E-18	-9.09162375572769E-18
52.3	6.3160948234754E-19	5.9435747320871E-18	-0.352849449733152	0.870521036057859	-0.352849449733152	0.87052103605786	1.17762103381924E-17	6.25998808739404E-17
52.4	8.60382493347759E-18	4.55891311329446E-18	-0.19377061556383	0.945897890819438	-0.19377061556383	0.945897890819437	-5.10634592184576E-18	-1.27372092199516E-17
52.5	-2.10011213779041E-17	-9.98274296750672E-18	-0.0760456478042113	0.894821018189349	-0.0760456478042113	0.89482101818935	-3.43991370514105E-17	-2.29219624953864E-17
52.6	3.612059532674E-18	1.43206212475133E-17	0.0660862326046035	0.967381564107679	0.0660862326046034	0.96738156410768	-1.51291440360037E-17	-3.82568897115595E-17
52.7	1.84596301070402E-17	7.41483424370507E-18	0.276287837380182	0.929047594406105	0.276287837380182	0.929047594406105	8.2473063181024E-18	-1.1219039936072E-17
52.8	2.53652041549256E-17	-6.05921846119033E-18	0.294364973676196	0.783279471138774	0.294364973676196	0.783279471138773	-1.75461825928075E-17	-5.32434359451415E-17
52.9	8.81342281547982E-19	3.43514313508505E-19	0.589290878383602	0.862153570154605	0.589290878383602	0.862153570154605	9.97930474266564E-18	1.60723363947119E-17
53	-1.565526681837E-17	2.05760249227471E-18	0.587547694486738	0.673133550038892	0.587547694486739	0.673133550038892	9.21560279487558E-18	-6.08081430595126E-18
53.1	-2.14744733139826E-17	8.01741117062821E-18	0.713552022003871	0.637578277737072	0.713552022003871	0.637578277737071	5.11558813288992E-18	1.70063530412619E-17
53.2	-9.83595037998591E-18	8.51751518899444E-18	0.855789097103415	0.498268732398904	0.855789097103415	0.498268732398904	-1.35149073805478E-17	3.75944795748826E-18
53.3	6.03434172292542E-18	8.78260482117669E-18	0.869830174399214	0.378943318107909	0.869830174399214	0.378943318107908	2.61630391361055E-17	9.79020803249158E-18
53.4	6.11493216787887E-18	-2.97226660006829E-17	0.89731275155584	0.179841246632937	0.897312751555839	0.179841246632937	-5.10318345543003E-17	-5.12265791196392E-17
53.5	5.79370373632755E-18	1.11602669549146E-17	0.979256285336557	0.12751522028714	0.979256285336557	0.127515220287141	-7.04213530992351E-17	1.80950419398751E-17
53.6	-3.77456167935681E-17	6.39348704917679E-18	0.965662219340961	-0.0812053113219397	0.965662219340961	-0.0812053113219398	9.71061281909623E-18	7.68384583741633E-17
53.7	-1.16965795172573E-17	2.92815957180576E-17	0.873078574695133	-0.228765862088713	0.873078574695133	-0.228765862088714	1.46283719210674E-17	2.09549839251208E-17
53.8	-2.25141539475971E-17	-1.51383309071963E-17	0.983014795638508	-0.320352709819677	0.983014795638508	-0.320352709819677	-4.46668442349849E-17	3.94569962087106E-17
53.9	1.25309244764728E-17	-2.07799098936078E-17	0.832610978706302	-0.488664644740159	0.832610978706302	-0.488664644740159	-2.95124207969859E-18	-1.46112863382828E-17
54	9.31836530978336E-19	-2.51118690600177E-17	0.729825503069059	-0.601559867482572	0.729825503069059	-0.601559867482571	-1.76439680510898E-17	1.31096782572293E-18
54.1	2.49515676784194E-17	4.68599098246883E-18	0.658411732723041	-0.678274074962333	0.658411732723041	-0.678274074962333	9.43455806607645E-18	4.37185598117523E-18
54.2	-1.55685472003127E-18	-2.01772524358383E-18	0.558259257762678	-0.785814801583659	0.558259257762678	-0.785814801583659	-3.48486298747193E-19	-2.54829302688583E-17
54.3	8.01264609855111E-18	1.0972558219243E-17	0.382612589292897	-0.876774946476467	0.382612589292897	-0.876774946476467	-2.59101870493687E-17	-2.79330835544075E-17
54.4	3.02072230575825E-17	-2.10999975972461E-18	0.333574253527812	-0.868777214319628	0.333574253527812	-0.868777214319628	1.82168097557916E-17	-3.81836630727108E-17
54.5	-6.06027402466706E-18	-5.03852901588531E-18	0.115630096782571	-1.00126108816174	0.115630096782571	-1.00126108816174	-3.21654700091949E-17	2.14293472936958E-17
54.6	3.79693328867482E-18	-1.13591348032046E-19	-0.0139947476462742	-0.935793278975567	-0.0139947476462744	-0.935793278975567	3.49191202306804E-18	1.50968600762737E-17
54.7	1.8280848449079E-17	1.43142446474778E-17	-0.137295312842822	-0.982441488138562	-0.137295312842822	-0.982441488138562	5.91843618241125E-18	3.63799001515966E-18
54.8	-1.25472164830059E-17	-1.35977011490189E-18	-0.306448250082046	-0.940676616889859	-0.306448250082046	-0.940676616889859	8.84363985922528E-19	9.86090038922019E-18
54.9	-2.67486600970361E-19	-4.41312928146036E-18	-0.436353345987186	-0.859346198838827	-0.436353345987185	-0.859346198838827	1.48112947784496E-17	-1.15054067378294E-18
55	1.56104958714227E-18	6.26164861243928E-19	-0.551642599089131	-0.815640254100088	-0.551642599089132	-0.815640254100088	-6.57473104306124E-18	1.63910206649939E-17
55.1	-1.00617758618177E-17	-3.56420350190732E-18	-0.683940502687474	-0.716917912409264	-0.683940502687473	-0.716917912409263	-1.32086767717872E-17	-9.14696344591375E-18
55.2	-1.21088683868478E-17	2.23969852341107E-18	-0.757928280406639	-0.609516885057617	-0.757928280406639	-0.609516885057617	-1.34290652362792E-17	-3.77072910836511E-18
55.3	-2.98907626113047E-18	-4.05056000060566E-20	-0.858861630393438	-0.467161776729732	-0.858861630393438	-0.467161776729732	-1.44948708654798E-17	4.93490460231526E-19
55.4	-3.03988686234423E-18	-5.41864085586103E-18	-0.917218801306692	-0.377693990611381	-0.917218801306691	-0.377693990611381	-5.36849416118313E-18	1.51091702613009E-17
55.5	-1.65166238831191E-19	4.69300237900012E-18	-0.981095648084051	-0.206901779759334	-0.981095648084051	-0.206901779759335	3.69738887922897E-18	-8.37634944420867E-18
55.6	3.80301630065929E-18	9.04709976597271E-18	-0.976372768898339	-0.0786048333008197	-0.976372768898338	-0.0786048333008198	-8.12426175259875E-18	1.89171856233559E-17
55.7	-3.37471719816424E-18	-5.7553920487805E-18	-1.00302206406083	0.0629901778083562	-1.00302206406083	0.0629901778083563	-7.63196711045517E-18	-2.37613733438367E-17
55.8	-8.5399594701055E-18	2.23942949600772E-18	-0.973443141130607	0.224770496838963	-0.973443141130607	0.224770496838963	-1.00013049689109E-17	-6.68008972313901E-18
55.9	1.36467768634691E-17	1.8116667746853E-17	-0.936790495309902	0.353875200443943	-0.936790495309901	0.353875200443943	-7.09511032423918E-19	3.07682703156263E-17
56	-1.8493611873326E-17	-3.01032868051147E-18	-0.849524673318717	0.489487421177627	-0.849524673318717	0.489487421177627	3.80498985515755E-18	-1.32142469454287E-17
56.1	6.34577960804687E-19	1.84359159052027E-17	-0.803315274772185	0.60498131079239	-0.803315274772186	0.604981310792391	-2.81989711147342E-17	2.84875087204002E-18
56.2	-7.54670997447467E-18	1.81681306849963E-17	-0.708534493491068	0.729501204448778	-0.708534493491068	0.729501204448777	-4.63711522041573E-17	4.08381245665047E-17
56.3	-6.04170511004924E-18	1.16156118926967E-17	-0.544620962688927	0.818384738863767	-0.544620962688927	0.818384738863766	-7.15680090967948E-18	3.9342175376274E-17
56.4	9.52070807614061E-18	8.68798477496391E-18	-0.479663474785353	0.894234908505369	-0.479663474785353	0.89423490850537	1.01124789067021E-17	2.33043421609393E-17
56.5	1.47749711437269E-18	-8.02434455265106E-18	-0.325390297805824	0.972548649482916	-0.325390297805823	0.972548649482915	-3.12439793158215E-18	1.02100233512905E-17
56.6	-1.73478016248367E-17	-4.64568217565267E-18	-0.175715557649552	0.975015196373383	-0.175715557649553	0.975015196373385	-3.66979182234431E-17	-1.36712960250909E-17
56.7	-2.78314814494785E-19	3.51070052354241E-18	-0.0398417985508013	1.00671639569861	-0.0398417985508013	1.00671639569861	4.70942115632405E-18	7.438873268827E-18
56.8	1.97579798004324E-17	-1.4639844932912E-17	0.0893362378282608	1.02401374868403	0.0893362378282606	1.02401374868403	-1.10089379946778E-18	-2.21384073167803E-17
56.9	1.01935649770499E-17	5.75362574539766E-19	0.24078140100383	0.975390505940448	0.240781401003831	0.975390505940449	2.27916805547274E-17	3.84295703697696E-18
57	-1.16386881425425E-17	-2.06898544473656E-18	0.398494256215629	0.89683163052671	0.398494256215629	0.89683163052671	-1.16783559144608E-17	2.96039206618014E-18
57.1	1.58116218797251E-17	2.55566310495452E-17	0.510894892836714	0.862442375009199	0.510894892836714	0.862442375009199	4.38528334547776E-17	5.78133644981624E-17
57.2	4.05353188766193E-18	2.83675301463852E-18	0.639393308588152	0.806479148507349	0.639393308588152	0.806479148507349	1.34742014582728E-17	6.93075457366369E-18
57.3	2.97756141383349E-17	-6.1667427851381E-18	0.776137214699605	0.631864447287171	0.776137214699605	0.631864447287171	2.67855349552391E-17	5.09919511117181E-18
57.4	-1.6193333232919E-17	1.27690524053963E-17	0.793256353986428	0.557280766667315	0.793256353986428	0.557280766667315	-2.95604301282028E-18	1.1030308638299E-17
57.5	-2.33282194050111E-17	-1.18948468211018E-17	0.923683299298469	0.448434447145642	0.92368329929847	0.448434447145643	-3.27760592498843E-17	-9.11297264313167E-18
57.6	1.21730685256744E-17	-1.14623589356311E-17	0.978118163466972	0.286819736114747	0.978118163466972	0.286819736114747	5.51125659958782E-18	-1.35954224025148E-17
57.7	5.61385095277912E-18	2.0869785400915E-17	0.966232530164375	0.147986765612161	0.966232530164375	0.147986765612161	-4.96094925446085E-18	1.58155644752658E-17
57.8	-1.72793707232569E-17	-4.50802258356202E-18	1.01664421083191	0.0268864931858879	1.01664421083191	0.0268864931858876	1.08551583440627E-18	-3.53597557164568E-18
57.9	1.02227371803207E-17	-1.03220588047246E-17	1.02517262379327	-0.104015019730284	1.02517262379327	-0.104015019730284	-6.0202364752284E-19	6.23422494214924E-18
58	3.69744734993162E-18	2.29503851904123E-17	0.954503180795841	-0.303131537073038	0.954503180795841	-0.303131537073038	-1.10296683670804E-17	2.05725817498542E-17
58.1	3.15077846081318E-17	5.22842872023392E-18	0.896131522887483	-0.381027984867844	0.896131522887482	-0.381027984867844	-5.3565309835155E-18	-1.42963168614473E-17
58.2	-1.85237080804451E-17	-9.23759140147471E-18	0.866212160168852	-0.535976267735049	0.866212160168852	-0.535976267735049	1.19118956090011E-18	-1.54966814520307E-17
58.3	-5.25112565230176E-19	-1.25956009741765E-17	0.761444735700545	-0.664983636681917	0.761444735700545	-0.664983636681918	-1.78825560998841E-17	6.51619701653056E-18
58.4	0	0	0.664150654353766	-0.700052080824337	0.664150654353766	-0.700052080824337	1.59609258151284E-17	-4.07578212868097E-18
58.5	-1.56258951282519E-17	3.32117250818563E-17	0.594393719226822	-0.84578893394002	0.594393719226821	-0.84578893394002	1.50207941190094E-18	2.60589711661028E-17
58.6	-6.12013799017196E-18	-2.45743744398712E-17	0.43662457434363	-0.910488035015794	0.436624574343629	-0.910488035015794	-1.68723443181156E-17	-1.25392943214854E-17
58.7	3.58475068200625E-17	1.39234180094825E-18	0.301438478948454	-0.930096932218171	0.301438478948454	-0.93009693221817	1.37440089115468E-17	-1.30728023976974E-18
58.8	6.35928294233655E-18	1.92492054019587E-17	0.186495789231356	-0.981190789165363	0.186495789231356	-0.981190789165363	-7.70871308421082E-18	6.80021604631395E-19
58.9	-7.53819202952686E-18	1.63325447484189E-17	0.064503427185051	-1.01818497598663	0.0645034271850511	-1.01818497598663	-1.00951607674463E-17	7.81655219966308E-18
59	5.31298263701516E-18	7.5554251084769E-18	-0.115265904259966	-0.987644058068502	-0.115265904259966	-0.987644058068503	7.85165087489385E-18	-4.06117856417684E-18
59.1	-2.74453824940372E-18	3.19636739233498E-18	-0.218228928987397	-0.968882178731179	-0.218228928987397	-0.96888217873118	-4.72084143630563E-19	2.29513685347662E-17
59.2	7.28891403883476E-18	2.8643107660084E-18	-0.35651000951187	-0.967031305961071	-0.35651000951187	-0.967031305961071	4.84057085269702E-18	2.83389896502225E-18
59.3	2.10399366813784E-19	1.22237517805967E-17	-0.508910434657268	-0.851384692417473	-0.508910434657268	-0.851384692417472	1.36609224478777E-18	1.18762077004693E-17
59.4	-7.02620621453387E-18	4.85927110101338E-19	-0.59041640807702	-0.810333848837116	-0.59041640807702	-0.810333848837116	-8.06070415419191E-18	-6.2588985479462E-18
59.5	-1.90077556813119E-17	-9.25410858220852E-18	-0.725899716671058	-0.711492360278216	-0.725899716671057	-0.711492360278216	-1.07961409045073E-17	-2.02429416506329E-18
59.6	-1.07649302995091E-18	-5.56291928107467E-19	-0.802411184052408	-0.586505063724641	-0.802411184052408	-0.586505063724642	-4.82617322164708E-18	-3.85795267048824E-18
59.7	4.3351695051136E-18	1.21157070212569E-17	-0.889360254850971	-0.495187677214932	-0.88936025485097	-0.495187677214932	-1.52794526616835E-18	9.46726772052305E-19
59.8	7.36031496944749E-18	-5.63616870201954E-18	-0.958137261159878	-0.360588159333681	-0.958137261159878	-0.360588159333681	9.83151183695272E-18	2.57592825104718E-18
59.9	-4.10745711111441E-19	1.26097121915667E-17	-0.987788452621565	-0.237756147410448	-0.987788452621566	-0.237756147410448	1.46072882287267E-17	9.28767513243043E-19
60	1.57493045128225E-17	1.40200356150049E-17	-1.00664350467654	-0.0761459317013077	-1.00664350467654	-0.0761459317013078	-2.15629265735962E-18	-3.45754340471092E-18
60.1	1.26534967421864E-18	-1.41320025915891E-17	-1.00128156680437	0.0481226435965699	-1.00128156680437	0.0481226435965702	-5.10024684982668E-18	-1.65834192927113E-17
60.2	-1.00386442139131E-17	1.31863594763242E-17	-1.01533752677704	0.170166790301469	-1.01533752677704	0.170166790301468	-4.5669947527296E-17	2.5474873169355E-17
60.3	1.55069266670838E-17	1.04065452028788E-17	-0.95591359604955	0.342601554443517	-0.95591359604955	0.342601554443516	-9.43172388379097E-18	1.52841903595279E-17
60.4	3.67902374311383E-18	-8.13218217591448E-18	-0.901740379096722	0.423189437687647	-0.901740379096723	0.423189437687646	-7.9437915406111E-18	-6.59937116540465E-18
60.5	3.44629672761996E-17	-1.27452119419122E-17	-0.847808308243257	0.575179341341162	-0.847808308243256	0.575179341341162	1.03240264658864E-17	6.06622979621579E-18
60.6	-3.63768056763906E-18	3.29772157936225E-17	-0.757348839291453	0.678400316894101	-0.757348839291453	0.678400316894101	-3.95836717419043E-18	3.17184164605226E-18
60.7	2.04984916809714E-17	-2.66083602707312E-18	-0.654771722842288	0.778745778514112	-0.654771722842287	0.778745778514112	2.61688001309553E-18	4.55665879035222E-18
60.8	-3.76466403954276E-18	-4.68500515362458E-19	-0.546032691644438	0.867780636915295	-0.546032691644438	0.867780636915294	1.22475164499176E-17	5.49894666528136E-18
60.9	5.54589005594859E-18	4.40853262824178E-18	-0.432557308498173	0.933983524815868	-0.432557308498173	0.933983524815868	-3.64145518638816E-19	1.23573049266773E-17
61	3.08259540161661E-17	2.62682206347267E-17	-0.28840794425305	0.984024593994723	-0.288407944253051	0.984024593994723	3.28780216491935E-18	-5.85013435833637E-20
61.1	-1.58587349150636E-17	3.15611606058634E-18	-0.15308878153429	0.999417406606979	-0.15308878153429	0.999417406606979	1.65264753228418E-17	2.86141535320082E-18
61.2	-7.76256328339115E-19	-2.08717709812872E-18	-0.031731456205224	1.02064119058752	-0.0317314562052239	1.02064119058752	-1.85870184571628E-17	7.4516846852633E-18
61.3	-7.83821208564155E-18	-9.27510048538803E-18	0.11443542889965	1.03260139558927	0.11443542889965	1.03260139558927	-3.1195644115397E-19	-3.52804100086519E-18
61.4	2.00012811873262E-17	-6.56343699161093E-18	0.279622588250975	0.981220339377012	0.279622588250975	0.981220339377011	1.18517045620005E-17	-2.30493801252812E-18
61.5	1.19765660051222E-17	-2.49574641206831E-18	0.36132133758906	0.940596872734508	0.36132133758906	0.940596872734508	5.08571143870849E-18	-4.88000773906554E-18
61.6	7.00455603276229E-18	1.07913761948928E-17	0.522167493088054	0.912638716461397	0.522167493088054	0.912638716461397	1.6095142652669E-17	6.68021045917917E-18
61.7	1.42311153128922E-17	-3.35851820227557E-18	0.644012592178335	0.813800095174101	0.644012592178335	0.813800095174101	3.4775968014405E-17	-9.06556560061381E-18
61.8	7.11485558646211E-20	4.48571857753658E-18	0.724869685162422	0.713463608358451	0.724869685162423	0.713463608358451	-7.05619717908868E-18	7.73955927119558E-18
61.9	-2.32235033147376E-19	-1.29735079669805E-17	0.822920877179007	0.606202953870366	0.822920877179007	0.606202953870366	-1.88045520275959E-18	-6.05765345147819E-18
62	1.73315410820554E-17	7.2435039106216E-20	0.899509988879644	0.514526211790375	0.899509988879644	0.514526211790375	3.16621445329726E-17	2.35209317051358E-17
62.1	5.22973046319582E-19	1.07681906592513E-17	0.977813394794433	0.377498270893529	0.977813394794434	0.377498270893529	1.93102095774313E-18	8.50735884695216E-18
