# GHZ S RI R 50
50	-9.7610548042927E-18	2.57364861625646E-17	0.850295284690167	-0.608804875072513	0.850295284690167	-0.608804875072513	-3.56042044401507E-18	-9.22788009862791E-18
50.1	-1.97826969861263E-17	-5.40845704760208E-19	0.715132680425639	-0.728377225377123	0.715132680425639	-0.728377225377123	5.88521167753052E-19	-1.71848648319722E-17
50.2	-5.63409363118691E-18	-1.39571971722316E-17	0.598511969870607	-0.83160278969034	0.598511969870607	-0.83160278969034	2.00799505646944E-18	-5.47359789875372E-18
50.3	4.78197083150583E-18	-2.87533020654781E-17	0.462827129318378	-0.946873356822103	0.462827129318378	-0.946873356822103	1.77453584800147E-17	8.36731231536131E-19
50.4	5.6811255640743E-18	4.24959024635075E-18	0.257911068696237	-0.973670742045247	0.257911068696238	-0.973670742045247	-2.83606121135516E-18	1.42253217635957E-18
50.5	-1.98423068162098E-17	-2.06747211301123E-17	0.131908626300829	-1.03188967917711	0.131908626300829	-1.03188967917711	9.59297712411013E-18	-3.32573018123115E-18
50.6	-1.62259079565356E-17	3.69252512387637E-18	-0.0581735823974244	-1.02759777508908	-0.0581735823974247	-1.02759777508908	6.51477049987621E-18	8.50741499010278E-18
50.7	5.9541455426587E-18	-2.24389469573445E-17	-0.210785450672618	-1.00029561243267	-0.210785450672619	-1.00029561243267	-7.17059916122348E-18	-2.78144842102217E-18
50.8	-1.90680202184828E-17	2.30265175365638E-18	-0.392089506005636	-0.976446671044603	-0.392089506005636	-0.976446671044604	-1.71935585060961E-17	9.81472725336668E-18
50.9	5.49975914126619E-19	2.22726478113959E-17	-0.527512758801194	-0.864135935421418	-0.527512758801194	-0.864135935421419	3.25060259396134E-18	-6.32608869834687E-18
51	-1.73521717284143E-18	-1.40153005211936E-17	-0.680071944735579	-0.787375669644465	-0.680071944735579	-0.787375669644465	1.85779205523689E-18	2.73154060363083E-19
51.1	-1.49857932848991E-19	9.45699403272048E-18	-0.794462596639599	-0.661896791944748	-0.794462596639599	-0.661896791944748	6.77770038088185E-18	-1.4445473789136E-17
51.2	-1.83510395261682E-17	1.96697940097313E-17	-0.885571580642323	-0.519898168014938	-0.885571580642322	-0.519898168014939	-8.54400870488406E-18	-7.80104916496607E-18
51.3	1.75561629874303E-18	-9.06918731651604E-19	-0.963755703392434	-0.371147428193607	-0.963755703392433	-0.371147428193606	-1.03219142162491E-17	3.13846259312233E-18
51.4	-2.51302968722291E-17	-1.38883266951898E-17	-1.02852927906726	-0.228785372835721	-1.02852927906726	-0.228785372835721	2.19283564671117E-19	2.22905595178668E-18
51.5	-1.61438112990815E-18	4.859459919068E-18	-1.01725159636576	-0.0277223181411292	-1.01725159636576	-0.0277223181411296	-1.40402429162079E-17	1.00287575371828E-17
51.6	-1.29791180500812E-17	-9.7522234713016E-18	-1.03315828943601	0.104790797285346	-1.03315828943601	0.104790797285346	-1.91557847930628E-17	1.25194939816031E-17
51.7	6.91675480658705E-18	7.13731442851666E-18	-1.01827708070217	0.273462355225137	-1.01827708070217	0.273462355225137	6.35570234724801E-18	-1.70483759145004E-17
51.8	1.40186187642072E-17	-7.99512441136591E-19	-0.901002123531847	0.427381419815222	-0.901002123531846	0.427381419815222	5.72524239508978E-18	-1.31435356580177E-17
51.9	7.31938586914834E-18	-8.77759022572815E-18	-0.896676963861991	0.572431061982149	-0.89667696386199	0.572431061982149	8.80470293227299E-18	-1.43106107463023E-17
52	-4.86891657845083E-18	1.57832791321304E-17	-0.730820330508925	0.715686479049798	-0.730820330508924	0.715686479049799	5.23591218245788E-17	1.38038548729759E-17
52.1	-3.45534389592446E-18	9.35543974058454E-19	-0.617309429055371	0.806674111863028	-0.617309429055372	0.806674111863027	1.81482664637182E-17	1.22387896224168E-17
52.2	1.7531732599299E-17	-2.13499029152273E-17	-0.51001875700934	0.900622923720612	-0.51001875700934	0.900622923720612	8.05071444649571E-18	-2.27058750617151E-17
52.3	1.08225313332647E-18	-2.38772219166688E-17	-0.365418143465373	0.970764063724529	-0.365418143465373	0.970764063724529	-2.10470299481777E-17	-1.84610036585319E-17
52.4	3.64456593293849E-18	1.82348155522883E-17	-0.191535817051492	1.04861085898485	-0.191535817051492	1.04861085898485	2.31557053525131E-17	-3.33925767434866E-17
52.5	-7.19412228504878E-18	1.89994829222086E-17	-0.052975052732714	0.991257471759981	-0.0529750527327139	0.991257471759981	2.51304664912234E-17	6.13212179534598E-18
52.6	-7.08301105799596E-18	-5.67500199125606E-18	0.099300924997328	1.06071515665602	0.0993009249973277	1.06071515665602	4.08427450735809E-18	-2.08083544635629E-17
52.7	-1.01611163140961E-17	9.70497186186256E-18	0.32677613054062	1.01917673283678	0.32677613054062	1.01917673283678	6.49181055783438E-18	8.08478986643304E-17
52.8	2.41979300940199E-17	6.24502204791652E-19	0.361836758829256	0.852202665656112	0.361836758829256	0.852202665656112	1.45323259005724E-17	-1.07725476510299E-17
52.9	1.17501535332452E-17	5.24470849983445E-17	0.662501423598075	0.935294154119987	0.662501423598075	0.935294154119987	5.20690306236799E-17	-1.0675260392452E-17
53	-5.0662666650652E-18	-3.54614335712571E-19	0.673699754809401	0.722503823665359	0.673699754809402	0.722503823665359	7.22784133437037E-18	-6.28220310580351E-18
53.1	8.00244973684979E-18	1.26844635779486E-17	0.802756912978951	0.676369504284263	0.802756912978951	0.676369504284262	-1.42212806437181E-17	-1.50081814774611E-17
53.2	-2.9223967510131E-18	3.06139116718565E-18	0.952824004781981	0.524963312225002	0.952824004781981	0.524963312225002	1.06904440120425E-17	5.38651612976493E-18
53.3	2.3131614898801E-17	-6.54436291359574E-18	0.96688389394385	0.386956783653057	0.966883893943851	0.386956783653057	2.01299212235333E-17	-4.83921884267696E-17
53.4	-3.2194010497559E-18	9.22373079086903E-18	0.99767053551783	0.16910832739765	0.997670535517829	0.16910832739765	5.08681378587073E-18	1.77669305492586E-17
53.5	5.15863860340069E-18	-5.1248952253633E-18	1.07281298513107	0.108007073213129	1.07281298513107	0.108007073213129	-2.90422858159804E-17	2.13619233757388E-17
53.6	1.07953242741702E-17	7.62420722810222E-18	1.05761180656059	-0.118453583432892	1.05761180656059	-0.118453583432892	6.70607699027558E-18	-1.52125770067113E-18
53.7	-1.41752104395465E-17	-3.19534048970382E-17	0.955803923163953	-0.284510521563433	0.955803923163952	-0.284510521563432	2.08441175571885E-17	-9.49431046429169E-18
53.8	-2.93497506075227E-17	-2.55340178122711E-17	1.05857030858824	-0.377454709576336	1.05857030858824	-0.377454709576336	-1.82091976550136E-17	2.61945706736778E-17
53.9	2.25366213949407E-17	-4.23486507260926E-18	0.896305423011555	-0.562883887846015	0.896305423011555	-0.562883887846015	1.47697651889332E-18	-3.06318440093611E-18
54	-1.17134781334683E-17	-7.87844692382137E-18	0.779878663133783	-0.685627502407574	0.779878663133782	-0.685627502407573	3.88813627099571E-18	1.37047744875751E-17
54.1	-2.0202609627905E-17	2.93977996821481E-18	0.693922497188103	-0.766320231914092	0.693922497188103	-0.766320231914093	-4.98463474774397E-18	6.08498649222613E-18
54.2	6.28102606895298E-18	-1.10293628367196E-17	0.580853428671533	-0.878161575833983	0.580853428671533	-0.878161575833983	7.12056271204381E-18	-1.76553279031491E-17
54.3	4.42500167012187E-18	1.4768550999688E-17	0.389702649201815	-0.974926180104321	0.389702649201815	-0.974926180104322	1.47816852852896E-17	2.33029255285571E-17
54.4	7.45717431856303E-18	-1.55896585711195E-17	0.325215340314244	-0.959363550065813	0.325215340314244	-0.959363550065812	9.26183265671188E-18	-3.55091833775106E-17
54.5	4.40309234735325E-18	1.14607259698788E-17	0.0955178711167724	-1.09756586188068	0.0955178711167721	-1.09756586188068	1.08417247287031E-17	-1.3062455398491E-17
54.6	4.53557563168884E-18	-4.62521399921588E-19	-0.0520760634907051	-1.02398459592792	-0.0520760634907054	-1.02398459592792	8.66527879642958E-18	-2.28808143919182E-17
54.7	2.35273578053525E-18	1.63697371936044E-17	-0.184504369040066	-1.06479760584595	-0.184504369040065	-1.06479760584595	1.22652563096892E-17	4.22302854606203E-18
54.8	2.25308317052388E-17	4.94242814390821E-18	-0.36716004569018	-1.01558573045619	-0.36716004569018	-1.01558573045619	8.54718839011471E-18	7.8501200520124E-19
54.9	-7.55077631303309E-18	7.45936209934033E-18	-0.508921678820568	-0.922645305779452	-0.508921678820568	-0.922645305779452	4.54247429301766E-18	1.84933236669471E-20
55	-4.41450172119094E-18	6.69001104482633E-19	-0.631015624657511	-0.867684829426938	-0.631015624657511	-0.867684829426938	-3.07649951222567E-19	9.49800454686451E-19
55.1	6.13915580379058E-18	3.23822308597498E-18	-0.7713106040949	-0.756748050535059	-0.7713106040949	-0.75674805053506	1.01060683121609E-17	-1.20554603801227E-18
55.2	-1.50540745966536E-17	7.50586107304734E-18	-0.849233867230921	-0.634238919655638	-0.849233867230921	-0.634238919655638	-7.47481480167121E-18	2.21308495172736E-18
55.3	1.4313452737059E-17	-5.62524221305043E-18	-0.954722065455991	-0.477763387703239	-0.954722065455991	-0.477763387703239	-3.55901092028006E-18	1.95316080745906E-19
55.4	-5.34622954770162E-18	-9.25744817829961E-18	-1.01124098012152	-0.375105805132519	-1.01124098012152	-0.375105805132519	-3.93155907563785E-18	-4.71304618527668E-18
55.5	5.83567995796034E-18	2.12477169174916E-18	-1.07580411714525	-0.189756894149867	-1.07580411714525	-0.189756894149867	7.07016864858078E-18	1.08358861003657E-17
55.6	5.91431149582645E-18	1.43846211704866E-17	-1.0654430015216	-0.0467738147314535	-1.0654430015216	-0.0467738147314533	1.61961011530411E-18	4.10371678758916E-18
55.7	5.45626053133833E-18	1.15781359235128E-17	-1.08703905231398	0.106548461293602	-1.08703905231398	0.106548461293602	2.53815567327541E-18	2.48138596149704E-17
55.8	1.56759801511202E-17	-6.68747899107555E-18	-1.05020553697793	0.281545632009882	-1.05020553697793	0.281545632009882	7.43913259513997E-18	-1.37711111080741E-17
55.9	-7.96093382953294E-18	3.70070815196161E-18	-1.00377840589916	0.420793656463524	-1.00377840589916	0.420793656463524	1.59466106871183E-17	-4.49528444406923E-18
56	-2.55915475566451E-18	7.55022866057077E-18	-0.904736338288635	0.566999556633177	-0.904736338288635	0.566999556633177	-5.28407022983314E-18	1.83502817372399E-18
56.1	-1.15513054882049E-17	-3.10768823803223E-19	-0.847413806380549	0.688110806420664	-0.847413806380548	0.688110806420664	-4.70538961300433E-17	2.80309503191181E-18
56.2	-2.145084438753E-18	1.29622917187674E-17	-0.740333430465539	0.81873330635291	-0.740333430465539	0.81873330635291	-1.07007013387995E-17	3.08196124810664E-17
56.3	1.2496199716477E-17	3.70534620332286E-18	-0.560418617859774	0.913371266405577	-0.560418617859774	0.913371266405577	-2.50356345377191E-17	-1.40919601693832E-17
56.4	3.68629518084538E-18	-5.52009830971413E-18	-0.483676763459603	0.987966988070196	-0.483676763459603	0.987966988070196	2.12701329693519E-17	-8.54400458003678E-18
56.5	4.32710220731329E-18	-1.06376660918292E-17	-0.315350038168161	1.0673601198411	-0.31535003816816	1.0673601198411	1.74126164969611E-17	-3.48037290610651E-17
56.6	-6.23044200112423E-18	1.44229823180269E-17	-0.149933087322996	1.0660863572122	-0.149933087322995	1.0660863572122	-4.72215784356024E-18	2.3745598407872E-17
56.7	-1.65974541417365E-17	3.0549774413583E-18	-0.00181608866598365	1.09326637194981	-0.00181608866598352	1.09326637194981	-1.25230028068897E-17	2.48393512673317E-17
56.8	1.50659371351072E-17	-1.04798370675145E-17	0.138177763830045	1.10414419728334	0.138177763830046	1.10414419728334	2.19116217172518E-17	7.72649429434602E-18
56.9	-1.59348551780565E-17	-2.12392386232591E-18	0.302195679569363	1.0465192996275	0.302195679569363	1.0465192996275	4.9124222253896E-18	3.09637196986478E-17
57	1.39300075095509E-18	7.92412913805122E-18	0.47199928439354	0.957525708470861	0.47199928439354	0.957525708470861	-4.32610976423761E-18	1.53722316326567E-17
57.1	-2.51981819546712E-17	6.10182378836732E-18	0.590660506738564	0.912382164490954	0.590660506738565	0.912382164490954	-2.09508892571661E-17	-1.83838410312947E-17
57.2	6.86537120652394E-18	1.19491459150423E-17	0.725013813788224	0.845594257183249	0.725013813788223	0.845594257183249	-2.02844624665957E-17	-9.66631510925407E-18
57.3	-6.82111930614767E-18	-2.37823011143184E-17	0.87068989153023	0.656068027454838	0.87068989153023	0.656068027454839	1.9380812248148E-17	-1.84280565588841E-17
57.4	1.80579489429325E-18	-2.94795603101143E-18	0.88585390143551	0.566309006140435	0.88585390143551	0.566309006140435	-1.54356841022643E-17	-4.25118507867856E-17
57.5	-7.51923528060936E-18	-1.82632222963714E-18	1.01868754732482	0.44655865675883	1.01868754732482	0.44655865675883	-5.73864959076941E-17	1.05625824362962E-17
57.6	-4.06746634317182E-18	-7.00584759195293E-18	1.0727741549828	0.269998092016927	1.0727741549828	0.269998092016926	-1.35464583189594E-18	1.37319103700631E-17
57.7	1.96688155800405E-18	-3.36263877732389E-17	1.0555106806826	0.115936334067791	1.0555106806826	0.115936334067792	-2.75489589386294E-18	-2.36557029019051E-17
57.8	5.09440619390423E-18	-5.93289515300622E-18	1.10122573004127	-0.0155880151736818	1.10122573004127	-0.0155880151736813	5.55596721340915E-18	1.03674811695523E-17
57.9	1.7272916028528E-17	-1.79195841346506E-17	1.10279410107182	-0.157255134799012	1.10279410107182	-0.157255134799012	-1.99448933207049E-18	-1.45525314379185E-17
58	-1.23283794282703E-17	-2.31965767526456E-17	1.02367232795937	-0.371062060542517	1.02367232795937	-0.371062060542517	-3.6105660404531E-19	4.45030881600046E-17
58.1	1.53721007794953E-20	-6.19328909394162E-18	0.95234611118857	-0.456267168335266	0.952346111188569	-0.456267168335266	1.8408553135573E-17	-1.74674522716774E-17
58.2	6.66201448967517E-18	-1.09824198906003E-17	0.913504755307227	-0.618733655086343	0.913504755307227	-0.618733655086343	2.0682183960542E-17	-7.65475181662692E-18
58.3	-6.79895411648133E-18	-2.96225820493412E-17	0.795822378808836	-0.754959232813831	0.795822378808836	-0.754959232813831	-4.5142168334716E-17	-3.58252513219639E-17
58.4	-2.9809354353604E-18	-7.22052285931126E-18	0.682891415261978	-0.791090562997955	0.682891415261978	-0.791090562997955	-2.1723892419246E-17	-4.45392351688163E-18
58.5	1.0005372038082E-17	-9.34213403468766E-18	0.603433362307677	-0.93997481359973	0.603433362307678	-0.93997481359973	1.5837105561366E-17	-3.81975836429936E-17
58.6	2.32046743566405E-17	1.22786816220004E-17	0.430201718087978	-1.00566538662813	0.430201718087978	-1.00566538662813	7.81597500472116E-18	1.11900004098773E-17
58.7	-1.75984383296009E-17	-1.04281761100701E-17	0.280078887155454	-1.02206480647497	0.280078887155455	-1.02206480647497	-1.29269964396147E-17	3.66270048811158E-18
58.8	1.56433577852821E-17	-1.01797191624057E-17	0.153565561766127	-1.06929692789545	0.153565561766127	-1.06929692789545	5.27674910203965E-18	-9.00069902752337E-18
58.9	1.21786854005055E-17	1.20360515101575E-17	0.0206800414868569	-1.10102696371024	0.020680041486857	-1.10102696371024	0	0
59	2.7074227514492E-18	1.74774381688058E-18	-0.173127250003695	-1.06325061222604	-0.173127250003695	-1.06325061222604	-8.34810153978211E-18	6.77282549929198E-18
59.1	-1.39361387766355E-17	1.75926572911371E-17	-0.284603652288408	-1.03462911973384	-0.284603652288407	-1.03462911973384	-2.5899623496259E-17	1.01851649067305E-17
59.2	4.62868653704065E-18	-1.00867081611723E-17	-0.430704035912279	-1.02452281291924	-0.430704035912279	-1.02452281291924	1.53092279320507E-18	-7.49724918172805E-18
59.3	5.29230732307281E-18	-4.14659689296053E-18	-0.593283166039905	-0.895840172646727	-0.593283166039905	-0.895840172646727	1.83170130712172E-18	5.94255919756734E-18
59.4	-5.91115675176051E-18	-4.41792057593339E-18	-0.677661815620144	-0.843014553045861	-0.677661815620143	-0.843014553045861	-5.80643443987453E-18	-1.37459475618017E-17
59.5	-1.88023127338543E-17	-8.15108364007559E-18	-0.818522080032254	-0.731867803236191	-0.818522080032254	-0.731867803236191	-6.29338025825082E-18	1.79576430033226E-19
59.6	6.85382322850029E-18	-9.46322439702217E-18	-0.896876004686045	-0.592257304782622	-0.896876004686045	-0.592257304782622	-4.55624907574514E-19	-3.61853551422203E-18
59.7	1.93652589263041E-18	1.16599402195906E-17	-0.983573312146441	-0.489006718191	-0.983573312146441	-0.489006718190999	1.21810861040396E-17	9.15423574575389E-18
59.8	1.39433952503516E-18	-5.53112540171168E-18	-1.05114837104371	-0.341034682491869	-1.05114837104371	-0.341034682491869	6.30360463610549E-18	-3.27930491259072E-18
59.9	1.25824712483106E-17	-2.60973740221127E-17	-1.07627299667142	-0.205485952772487	-1.07627299667142	-0.205485952772486	1.18286301051356E-17	-1.99553455613573E-17
60	9.2044625088152E-18	2.01463322041707E-17	-1.09014950388989	-0.030486936499022	-1.09014950388989	-0.0304869364990222	-2.72300004173166E-18	1.17295655235935E-17
60.1	-1.55492262549668E-17	5.11974314766093E-18	-1.07682644393977	0.104631740295506	-1.07682644393977	0.104631740295506	1.39883402186102E-17	1.32920320478085E-17
60.2	1.77676604328057E-17	-3.41670146580654E-18	-1.08318469785956	0.235301587483798	-1.08318469785956	0.235301587483799	3.43643416893405E-18	-2.73819411950109E-18
60.3	1.39852742206766E-17	2.14173071099749E-17	-1.01362278213018	0.418948768191824	-1.01362278213018	0.418948768191825	9.92799992886567E-18	2.10422085966758E-17
60.4	-6.73749317231125E-18	-1.4150962127176E-17	-0.94698721395252	0.504694122151834	-0.94698721395252	0.504694122151834	5.76604151440185E-18	1.47016010436203E-17
60.5	1.46910773747603E-18	-5.07916559675531E-18	-0.882591619503285	0.663486839502748	-0.882591619503285	0.663486839502748	4.66867082921243E-18	-1.18594481912806E-17
60.6	3.99901494835266E-18	1.51447400203298E-17	-0.779046818206952	0.770518872445393	-0.779046818206952	0.770518872445393	-5.09189620834876E-18	-1.04703386410297E-17
60.7	6.30869005883525E-18	-6.74186102641432E-19	-0.663297491285118	0.87326318997559	-0.663297491285117	0.87326318997559	-4.24828005130299E-18	-7.47881136901602E-18
60.8	-1.37948704248577E-17	8.38307197907684E-18	-0.541576283987862	0.962848344385529	-0.541576283987862	0.962848344385529	1.94554966052608E-17	5.51791804721374E-18
60.9	-6.11579441686681E-18	2.9758062490411E-18	-0.415296442844952	1.02731427080319	-0.415296442844952	1.02731427080319	5.28349384756474E-18	6.63019354799345E-19
61	-1.05859306968011E-17	-9.54530042746987E-18	-0.257659988263102	1.07437127524695	-0.257659988263103	1.07437127524695	-5.42564132793773E-18	-2.7612102161669E-18
61.1	2.31073475415523E-17	-2.04930976486507E-17	-0.109733143522844	1.08393360806493	-0.109733143522844	1.08393360806493	1.6278887970635E-18	-1.43787312439664E-17
61.2	2.40779193315149E-17	-2.66381985808215E-17	0.0220437633952414	1.09844768046674	0.0220437633952414	1.09844768046674	9.537163834965E-18	-2.34348207143708E-17
61.3	-8.55219247694306E-18	-1.37090696113671E-17	0.178546404446602	1.10317730532498	0.178546404446602	1.10317730532498	-4.57866126262646E-18	-3.47213217504099E-18
61.4	5.05538836008078E-18	-2.31184001630751E-17	0.354739335245601	1.04158253164618	0.354739335245602	1.04158253164618	2.00076167108824E-18	-1.97704201646555E-17
61.5	-6.44308046896025E-18	-5.77620444578959E-18	0.4417176996168	0.989235224086349	0.4417176996168	0.989235224086349	-3.11049387047196E-18	-4.1557767879892E-18
61.6	-1.53229938924623E-18	1.39351034599451E-17	0.60977135663754	0.951824399442843	0.60977135663754	0.951824399442843	1.01083653443375E-17	5.87147570203171E-18
61.7	3.00488823053108E-17	3.93705944031233E-18	0.736800257505756	0.839634483369035	0.736800257505756	0.839634483369035	1.79482557178003E-18	2.96415445156792E-18
61.8	-1.00611709100674E-17	3.32158517654079E-18	0.819445971858341	0.725492854335645	0.819445971858341	0.725492854335645	7.21907842477201E-18	-8.81293938624154E-19
61.9	2.7673685724545E-18	9.094147288804E-18	0.918783368740984	0.605074974499985	0.918783368740985	0.605074974499985	2.74057318182266E-18	1.56759877035141E-17
62	-9.39717520963607E-18	-9.09686783584075E-18	0.994034610302645	0.50138319409175	0.994034610302645	0.50138319409175	-2.46396434363415E-17	-1.25366443488504E-17
62.1	-2.35082853895803E-19	-1.53967910064651E-18	1.07070839257851	0.351192042140918	1.07070839257851	0.351192042140918	-1.2461449451276E-17	-1.64238585876217E-18
