# GHZ S RI R 50
50	1.31639566882126E-17	1.34602988549759E-17	0.845888487722393	-0.60255756294201	0.845888487722393	-0.60255756294201	-3.40387266591186E-18	1.79275741823471E-18
50.1	-1.92733674226126E-17	4.86860153926427E-18	0.708835943944576	-0.724222036863922	0.708835943944576	-0.724222036863922	6.41121780783134E-18	-1.26108306400874E-17
50.2	6.70116738737408E-18	-1.49463080315355E-17	0.590854915537531	-0.822994237465047	0.590854915537531	-0.822994237465048	-2.5830630972935E-18	-1.32225182949716E-17
50.3	-2.21153680903488E-17	-2.80384778621771E-17	0.460267891603765	-0.93355246023845	0.460267891603765	-0.933552460238451	1.59916901774637E-17	-6.94493763573028E-18
50.4	1.45945141169124E-17	-2.25520188536554E-17	0.251834773040584	-0.966203841267275	0.251834773040584	-0.966203841267275	-6.65234637886358E-19	-2.35363215049558E-18
50.5	5.18660152569803E-18	8.87855074913274E-18	0.131022564707489	-1.01521817613946	0.131022564707489	-1.01521817613946	2.68113134021252E-18	-3.05479441577835E-18
50.6	-5.62566083671203E-18	-2.04975786740157E-18	-0.057911584590607	-1.01276541908943	-0.0579115845906067	-1.01276541908943	3.54695454422017E-18	-4.06972027175706E-19
50.7	3.72616853148949E-18	-2.24397966440308E-19	-0.208703353746468	-0.981772686559697	-0.208703353746468	-0.981772686559697	1.59650160836137E-18	-7.10887086355669E-19
50.8	-5.01786730428924E-18	-8.00186025102466E-18	-0.382084711064071	-0.960106068391668	-0.382084711064071	-0.960106068391668	-9.20151254310573E-18	1.05348020143774E-18
50.9	1.68462232640048E-17	-2.99315793446582E-18	-0.520428570334138	-0.84586171625225	-0.520428570334138	-0.84586171625225	-1.46587059727749E-18	-1.60749025029218E-17
51	-1.95087613603684E-17	-2.7974233214043E-17	-0.665342755190734	-0.772205401815539	-0.665342755190734	-0.772205401815538	-5.53121602805814E-18	-1.17611754332756E-17
51.1	-1.39055485733069E-17	-6.92928257145992E-18	-0.777179885016927	-0.647724878090588	-0.777179885016927	-0.647724878090588	4.62641556375626E-18	1.5398648288786E-17
51.2	-2.46722074118242E-17	2.38487925540242E-17	-0.865824248558541	-0.50712120585241	-0.865824248558541	-0.507121205852411	8.54316117791033E-19	1.52335726319891E-18
51.3	-4.19223159813881E-18	3.66571856877109E-19	-0.940540662633891	-0.362206264865363	-0.940540662633891	-0.362206264865363	-4.1992971636091E-18	3.32997580710097E-18
51.4	1.68183276835491E-18	2.82015864957134E-18	-0.999412364458926	-0.226141439859053	-0.999412364458926	-0.226141439859053	1.13698698487055E-17	-4.66679320640661E-18
51.5	-5.66657866069939E-18	1.94222412150339E-17	-0.99285660771657	-0.0244068118850798	-0.99285660771657	-0.0244068118850799	-1.35038136061161E-17	-4.09057602598641E-18
51.6	-2.12706109643876E-17	-1.76575089479892E-17	-1.00137891085897	0.100212433743031	-1.00137891085897	0.10021243374303	-2.71603464278547E-18	-1.24336824240514E-18
51.7	7.16928837293311E-19	-1.70346030500238E-17	-0.98684116607712	0.260692486391126	-0.98684116607712	0.260692486391125	-5.56427068056901E-18	-7.16629722803153E-17
51.8	1.84941192942785E-17	5.40539619774498E-18	-0.87088256956552	0.419675893205591	-0.870882569565519	0.419675893205591	1.29545399364652E-17	-1.04076019803423E-17
51.9	8.87671375258188E-18	-7.98901108946564E-18	-0.867021939068927	0.545960502881577	-0.867021939068927	0.545960502881577	1.25230652764992E-17	-3.03483012872926E-17
52	7.45593268642397E-19	5.98199024451134E-18	-0.707278790498842	0.694732650348107	-0.707278790498842	0.694732650348107	2.47498379830892E-17	-1.26233532808043E-18
52.1	-1.20473875285764E-17	-9.20609886104818E-18	-0.593687497706936	0.779746477021921	-0.593687497706936	0.779746477021921	1.01361124953276E-17	5.41250354088255E-18
52.2	1.03369142553851E-17	-1.61257027625145E-17	-0.49106515605742	0.86397844442991	-0.49106515605742	0.86397844442991	4.88727907705242E-18	-1.18833935339058E-17
52.3	-2.59595688524942E-18	1.71584676750111E-17	-0.352245163299571	0.929528305694814	-0.352245163299572	0.929528305694814	4.67100680699501E-17	9.2929167271242E-18
52.4	-1.26169299852861E-17	-1.76872515995482E-17	-0.190914862443168	1.00679759170131	-0.190914862443168	1.00679759170131	-5.46881289202936E-17	1.9593432928376E-17
52.5	-1.13597273285701E-17	-3.43144294382053E-18	-0.0453580556953766	0.944627368741845	-0.0453580556953768	0.944627368741845	-2.5246564545321E-17	1.93912513680873E-17
52.6	-3.87246902052706E-18	-1.20019147079657E-17	0.0861897178654089	1.01028896113517	0.086189717865409	1.01028896113517	9.48892884665376E-18	-7.96465525062693E-18
52.7	-1.57789449104862E-17	-2.32086283098803E-19	0.306618201876745	0.981570926171491	0.306618201876745	0.981570926171491	4.8727851768851E-18	4.57125466784407E-17
52.8	9.36532606118419E-18	1.72728221735981E-17	0.355866394158304	0.797034603474258	0.355866394158303	0.797034603474257	-1.61520452216904E-17	-2.15826801148748E-17
52.9	1.11129227787531E-17	8.92107896955539E-18	0.617343532810443	0.909307876334243	0.617343532810444	0.909307876334243	-3.41961128743032E-17	1.79877226179207E-17
53	-1.87388727897614E-18	6.00654643910684E-18	0.643900729254494	0.681981979170858	0.643900729254495	0.681981979170858	-1.5142705427557E-18	-2.68370166748916E-17
53.1	1.13840870051829E-17	-3.71465805600167E-17	0.753302912985612	0.643780252629104	0.753302912985612	0.643780252629104	-1.1089079406363E-18	1.48325287881044E-17
53.2	4.8753239915262E-19	-1.00329102171197E-17	0.900165572757046	0.510242982640388	0.900165572757046	0.510242982640388	1.78433026138567E-17	-6.35305853684547E-18
53.3	3.14295772596298E-19	1.47396872974864E-18	0.909383861139002	0.369937206409648	0.909383861139002	0.369937206409648	1.22717997246739E-17	3.53152432781319E-17
53.4	5.23406791123767E-18	-1.51830684433538E-17	0.94895618158413	0.158976504093291	0.94895618158413	0.158976504093291	-4.28823935957888E-17	-5.30045484780016E-17
53.5	-8.41834426837111E-18	-2.86877247849349E-18	1.003492594945	0.11528549645096	1.003492594945	0.11528549645096	-2.6683062160011E-17	9.23380578029955E-18
53.6	-1.59606164869419E-17	5.10426155273273E-18	1.00033705498828	-0.102717117487595	1.00033705498828	-0.102717117487594	8.36119637164071E-18	1.43888379048337E-17
53.7	1.91374533024053E-18	9.84096605287793E-18	0.902622136661833	-0.27272968188378	0.902622136661833	-0.272729681883781	2.58242040877827E-17	2.2752876460591E-18
53.8	2.20226469754535E-17	4.11805999416478E-18	0.994909759848598	-0.328663435699057	0.994909759848597	-0.328663435699057	3.25194492138656E-17	-2.64881970716774E-17
53.9	-1.84373106020077E-17	9.87663700009028E-18	0.846642587516998	-0.520546581252982	0.846642587516998	-0.520546581252982	-3.48030142005034E-18	6.88069764407586E-18
54	3.08893826426705E-18	1.68253614205877E-18	0.735439828003321	-0.639071925177156	0.735439828003321	-0.639071925177156	4.66212982341201E-18	2.31997466144217E-18
54.1	5.98308051786742E-18	-5.33204892475096E-18	0.650409588434572	-0.707775395640387	0.650409588434572	-0.707775395640388	-9.74274992475332E-18	-2.00870129706954E-17
54.2	-1.41904975661872E-17	2.96135552582356E-19	0.548977582459321	-0.810098548683085	0.548977582459321	-0.810098548683085	2.78977058089027E-18	-1.54217462543851E-17
54.3	-6.40486519805068E-19	-5.34124997217908E-18	0.372677610249001	-0.910892806155124	0.372677610249001	-0.910892806155124	-1.86269768451299E-17	-2.41959048433906E-17
54.4	2.23821098504958E-17	-4.21384945196405E-18	0.304699338519777	-0.876732919322958	0.304699338519776	-0.876732919322958	-3.92849763213663E-18	-3.3586988914608E-17
54.5	1.78817507312942E-17	-1.31502065825013E-17	0.108070583086177	-1.02514494528606	0.108070583086177	-1.02514494528606	4.01714465160716E-18	2.53582535573478E-17
54.6	-1.38696827350496E-17	-5.05306868820684E-18	-0.0430345893624545	-0.950773091146795	-0.0430345893624547	-0.950773091146795	-2.98789245224994E-18	1.84883707854538E-18
54.7	2.3818311800203E-18	1.06205273060678E-18	-0.152905026677781	-0.987617265426883	-0.152905026677781	-0.987617265426883	-7.68510515680331E-18	-8.46802393998856E-18
54.8	-1.76470441205842E-17	7.09520401373574E-18	-0.324972849955263	-0.94785669909689	-0.324972849955263	-0.947856699096889	-6.26336773741498E-18	4.55393048788928E-19
54.9	1.96954204630921E-18	5.99865219579008E-18	-0.461362604945145	-0.860325134150008	-0.461362604945144	-0.860325134150007	2.76421786554815E-18	7.79020355650765E-18
55	2.90156405122743E-18	1.95489973818533E-18	-0.5677934531687	-0.809892080363485	-0.5677934531687	-0.809892080363486	3.48015639258201E-18	3.5946962723297E-19
55.1	8.48282997078762E-18	9.87263626731748E-18	-0.700085817824507	-0.711958701036394	-0.700085817824507	-0.711958701036393	-2.07950325480615E-17	2.24493356624355E-18
55.2	-5.90514867632272E-18	-1.42918462137516E-18	-0.771214446611691	-0.595036791591419	-0.771214446611691	-0.595036791591418	-4.77639771422871E-18	1.25265911869993E-18
55.3	1.1668012789142E-17	-1.56526883266173E-17	-0.874607022261403	-0.454723491415209	-0.874607022261403	-0.454723491415209	2.20770268055095E-17	-1.54921628232641E-17
55.4	-1.56694352744705E-17	-3.06616433945961E-18	-0.918769386489217	-0.362626358466333	-0.918769386489217	-0.362626358466333	-9.35205756347113E-18	-1.10615149971541E-17
55.5	-9.33035402200321E-18	1.79978655297264E-17	-0.986954557375951	-0.195718868663193	-0.986954557375951	-0.195718868663193	-7.83182020172861E-18	3.73789227815342E-17
55.6	-9.83902422968721E-18	-1.45519323764309E-17	-0.974120386498816	-0.0606212197607625	-0.974120386498816	-0.0606212197607622	1.00432133142749E-17	-4.10448069328714E-19
55.7	6.08369323752029E-18	-6.15674949939848E-18	-0.996223500335682	0.0737879933564475	-0.996223500335683	0.0737879933564473	1.17713808982761E-17	-1.75337752838409E-18
55.8	3.92415985350729E-18	4.7466965243468E-18	-0.967403178554573	0.236599062569624	-0.967403178554573	0.236599062569624	-2.89809360343196E-18	1.12053233599837E-17
55.9	2.46616769054122E-18	-1.11558964184125E-18	-0.924990557323818	0.362266380803264	-0.924990557323818	0.362266380803264	5.74861744954767E-18	-7.65081296362796E-18
56	4.99608736658521E-18	6.39598639853089E-18	-0.835683415481963	0.501701544698169	-0.835683415481962	0.501701544698169	1.35955479476096E-18	4.45889732015784E-18
56.1	6.65332837167671E-18	-1.77406450781424E-18	-0.786276526380555	0.605353537638874	-0.786276526380555	0.605353537638874	-6.50979493652126E-18	-8.78930880590805E-18
56.2	1.30660987384194E-17	8.17442538657577E-18	-0.694169409558938	0.725916166404312	-0.694169409558939	0.725916166404311	1.38298652443193E-17	-4.12222353183848E-18
56.3	-8.5292136213909E-18	-6.49052961467707E-19	-0.527999661473989	0.824071066854643	-0.527999661473989	0.824071066854643	-7.18573440607894E-18	-7.66867814135187E-18
56.4	-9.00602278298652E-20	2.14800232134736E-18	-0.463860514111762	0.881076020242584	-0.463860514111761	0.881076020242584	-1.08147484183146E-17	1.15965239059619E-17
56.5	-1.84774325838188E-18	-1.84396793659968E-17	-0.315621718078383	0.960902729895569	-0.315621718078383	0.960902729895568	-2.30185061888102E-17	-3.45802098793864E-17
56.6	-1.52191217778649E-17	-3.86503017812798E-18	-0.158872334986969	0.961569991626133	-0.158872334986969	0.961569991626133	-1.73411449496673E-17	2.54329665682819E-17
56.7	2.39879843032109E-18	-1.17409015271113E-17	-0.02946999867111	0.987961736891908	-0.02946999867111	0.987961736891908	-2.51735052366245E-17	-4.89861061034492E-18
56.8	-2.95952113849717E-18	3.20303755925069E-18	0.0908238329013301	0.9986622876146	0.0908238329013303	0.998662287614598	-1.29564120817681E-17	-2.95465444943929E-17
56.9	1.32950450690293E-17	-3.52154506831975E-18	0.24444554544801	0.949580053461511	0.24444554544801	0.949580053461511	-9.66396188552057E-18	-1.75265771321637E-17
57	-2.76518042594281E-17	1.78075312587574E-17	0.406517916303654	0.874090999796742	0.406517916303654	0.874090999796742	-4.14121242647445E-17	2.41315681148406E-17
57.1	5.85337979894758E-18	-2.91233589679593E-17	0.506348857605377	0.834908962182785	0.506348857605377	0.834908962182785	-9.20964699934311E-18	-6.82158582656275E-17
57.2	-8.52824651104691E-18	-5.5048421543248E-18	0.623430746549115	0.781775969977648	0.623430746549115	0.781775969977648	1.02926927161776E-17	9.46572648947383E-18
57.3	-7.70419130952383E-19	-3.30685834310331E-18	0.774829195105702	0.61506266809104	0.774829195105701	0.61506266809104	3.09825078574697E-17	-3.16226188421994E-17
57.4	-4.37137307033878E-18	3.40544557147425E-18	0.776506861495549	0.524013071012841	0.776506861495549	0.524013071012841	4.27227533763458E-18	1.05878781043358E-17
57.5	-3.02933460673478E-18	-8.63469725436772E-18	0.899255218794751	0.432564019426019	0.899255218794752	0.432564019426019	-4.2355843838279E-17	2.33299659538874E-18
57.6	5.4254874497852E-19	-5.73632944802582E-18	0.956658708664777	0.274029102112482	0.956658708664778	0.274029102112483	-9.82918561081554E-18	6.01551734566535E-18
57.7	3.80391943184101E-18	-5.69951551695945E-19	0.940358157071172	0.127484848355406	0.940358157071173	0.127484848355406	9.40053267613265E-18	-4.69638334472516E-18
57.8	1.01835740092216E-17	7.13853497299966E-18	0.982702356069001	0.0206760100973457	0.982702356069001	0.0206760100973456	4.80666880949621E-17	1.37657247842709E-17
57.9	-1.57843683203229E-17	1.5264066189673E-18	0.98607837226112	-0.100976991725428	0.98607837226112	-0.100976991725428	-2.00288578094237E-17	4.14548510670608E-18
58	8.46024803752565E-18	-1.10845092979945E-18	0.928272111435632	-0.306268063957466	0.928272111435631	-0.306268063957465	-9.61463278730973E-18	-2.69110589555325E-17
58.1	1.80663258105871E-18	-6.5432922912033E-18	0.854540296984832	-0.38046477384313	0.854540296984832	-0.38046477384313	-1.67018389972065E-17	-1.29959675083893E-17
58.2	6.8079679311058E-18	7.03787550640039E-18	0.832716173958693	-0.520660272385674	0.832716173958694	-0.520660272385675	8.68824437759787E-18	7.95365577731245E-18
58.3	-3.68290873223375E-18	6.25185082463454E-18	0.732346791593667	-0.649378926568593	0.732346791593668	-0.649378926568593	-1.25441015076067E-17	6.85776765896206E-18
58.4	-3.42831475420857E-17	-5.77440570830976E-18	0.61999038295693	-0.677313898996238	0.61999038295693	-0.677313898996238	-1.19133552737441E-17	-1.88180039600804E-18
58.5	1.43498651439277E-17	-5.13061399881163E-18	0.568983791695647	-0.807690851367488	0.568983791695648	-0.807690851367488	1.71020466627054E-18	4.78328838130924E-18
58.6	1.59681318461591E-17	1.42610901216457E-17	0.413311390418051	-0.876065990540615	0.413311390418051	-0.876065990540615	1.01250950637816E-17	-3.06968274194437E-18
58.7	-1.44593869097639E-17	1.12005102701845E-18	0.274567525244339	-0.891653507878255	0.274567525244339	-0.891653507878255	-7.69582492250037E-18	1.66796788437503E-17
58.8	-2.01272878566077E-18	9.10105668357684E-19	0.170224313693449	-0.933502003791811	0.170224313693449	-0.933502003791811	-1.85957251899235E-19	1.59924511667211E-18
58.9	1.79167657845618E-17	1.28593966621415E-17	0.0608153312268347	-0.963251449724934	0.0608153312268346	-0.963251449724932	9.79937931601772E-18	1.2644764297734E-17
59	4.52804272492041E-18	-1.16424328598652E-18	-0.11895417205761	-0.940334905023985	-0.118954172057611	-0.940334905023985	8.30141166235408E-18	-2.13444602430862E-18
59.1	-1.92137413930089E-17	2.97952308687159E-17	-0.21232185207968	-0.911681300986001	-0.212321852079681	-0.911681300986	-9.64781980300575E-18	2.16953173359306E-17
59.2	2.44289828391452E-19	2.19655834694709E-18	-0.332289907382165	-0.912064198695319	-0.332289907382164	-0.912064198695319	-1.0134882247304E-17	6.42490598282555E-19
59.3	-4.57428309954213E-18	7.65525707355331E-18	-0.491147723958732	-0.803816673319621	-0.491147723958732	-0.80381667331962	-3.23081478394955E-18	1.30473179447816E-17
59.4	-4.05695606057932E-18	6.73387965106629E-18	-0.554831235881042	-0.757221981961463	-0.554831235881041	-0.757221981961463	-1.08564851450955E-17	1.37862664992527E-18
59.5	-1.05540937606535E-17	-9.13440968415679E-18	-0.684878106050028	-0.670295533677601	-0.684878106050028	-0.670295533677601	-9.73630706439659E-18	-8.15609943769872E-18
59.6	5.40437360455699E-18	6.59591715516527E-18	-0.759024283087639	-0.546670094664916	-0.75902428308764	-0.546670094664916	3.35682162674084E-18	-4.32215464200378E-18
59.7	-4.21484078668534E-18	4.45277462835617E-18	-0.83319568507981	-0.465266099241431	-0.833195685079811	-0.465266099241431	1.00871838564778E-18	-6.21563356165159E-19
59.8	-2.40044094950516E-18	-2.12508258061632E-18	-0.8988690541141	-0.340713337922267	-0.8988690541141	-0.340713337922267	1.06254129030816E-18	-1.20022047475258E-18
59.9	4.5156756949145E-18	1.45242998503688E-18	-0.921432215366261	-0.223703543131041	-0.92143221536626	-0.223703543131042	1.69934405195657E-18	3.50934851280793E-18
60	-1.39602954178574E-17	1.98921135441702E-17	-0.943451010530204	-0.0700786187802448	-0.943451010530205	-0.0700786187802446	-3.09669838388152E-18	2.07300301095335E-17
60.1	8.87330484169323E-18	1.27929408900835E-17	-0.932509947192679	0.0463491753271347	-0.932509947192679	0.0463491753271348	4.24660431337936E-18	1.21142415807444E-17
60.2	-1.67024991711724E-17	1.37828626028884E-17	-0.942817633516193	0.15030950988937	-0.942817633516193	0.15030950988937	-3.52509444947014E-18	4.48063638460074E-18
60.3	-1.18599148185958E-17	2.99360737134545E-17	-0.894061136933839	0.319532164482251	-0.894061136933839	0.319532164482252	8.27378324873676E-19	2.86003830368724E-18
60.4	4.55814619576584E-19	-9.1104842951231E-18	-0.830407854503769	0.389573748798552	-0.830407854503769	0.389573748798551	-5.99078497679959E-18	-8.77542291805615E-18
60.5	9.72008174882227E-18	-2.56233484262558E-17	-0.789427255425227	0.528370209573068	-0.789427255425228	0.528370209573069	5.3540891021765E-18	-1.17853812991767E-18
60.6	4.11343331179058E-18	-1.494128578767E-17	-0.703213990482824	0.623664598647004	-0.703213990482823	0.623664598647004	-9.72281609146047E-19	-4.74788682610815E-18
60.7	2.39431817351944E-18	3.85250079102339E-19	-0.608836960475195	0.716574912551546	-0.608836960475194	0.716574912551545	-1.96081939584509E-18	2.26362153077889E-18
60.8	-1.10565257329436E-17	-5.39472303863295E-18	-0.510494750784437	0.797710020170397	-0.510494750784438	0.797710020170398	-1.71157725954923E-17	-8.85827372123331E-19
60.9	4.24125604166023E-19	-3.79672398127687E-18	-0.406865535479088	0.855742102807277	-0.406865535479088	0.855742102807277	-1.25938742913942E-19	-1.49587103618798E-17
61	-1.65509442882529E-17	1.0954024086434E-18	-0.273370343058011	0.904908735934902	-0.273370343058011	0.904908735934902	2.10459159768496E-18	6.98374641392688E-18
61.1	5.63044788490492E-18	2.02813604731209E-18	-0.145400511717104	0.917010209484483	-0.145400511717104	0.917010209484484	2.345120301564E-17	-1.04557041125331E-17
61.2	8.64866902980142E-18	-2.20351244588918E-17	-0.0385236712297779	0.932666903735202	-0.038523671229778	0.932666903735202	8.92914586816846E-18	-2.54245361792356E-17
61.3	-1.9440004082166E-17	4.96531558591202E-18	0.0908910655150668	0.947271719125077	0.0908910655150671	0.947271719125077	6.9978776754943E-18	1.13456857961629E-17
61.4	3.41672480929121E-19	1.85450096171825E-17	0.251195008011892	0.905018338726837	0.251195008011892	0.905018338726837	5.71591821132475E-18	7.27673379021597E-18
61.5	-2.41117444610088E-17	7.51981262571965E-18	0.319394368289153	0.855380931876681	0.319394368289153	0.855380931876681	-3.87490982521892E-18	7.67092270345377E-18
61.6	4.74031517807768E-18	1.63522044881867E-17	0.461080273055487	0.843015186298986	0.461080273055486	0.843015186298985	-5.02069494595103E-18	4.86737495503758E-18
61.7	-1.71778174653831E-18	1.24821575107756E-17	0.578068312201798	0.752819697020387	0.578068312201798	0.752819697020387	-4.32934248674469E-18	1.06739621552825E-18
61.8	1.16304580893719E-20	-1.85039527182982E-18	0.651151846450749	0.655257452633761	0.651151846450748	0.655257452633761	5.86311257940858E-18	9.28919382503511E-18
61.9	-1.0419519005234E-17	1.81500025351433E-17	0.741605214580418	0.560200113355833	0.741605214580418	0.560200113355834	-1.31809606997853E-17	5.69350560174968E-18
62	-8.83234983083036E-18	-9.96630640133381E-18	0.804987076075812	0.480749591235825	0.804987076075811	0.480749591235824	-9.34947516261225E-18	-1.57504061442135E-17
