# GHZ S RI R 50
50	8.84511084197284E-18	-2.15451878943933E-18	0.747059641434407	-0.523093083982586	0.747059641434407	-0.523093083982586	-2.76151642564062E-18	1.12781667248155E-17
50.1	-1.70299067616526E-17	1.5591951004335E-17	0.629973711319324	-0.625317699368958	0.629973711319324	-0.625317699368958	-1.16070841292867E-17	-1.45291238073556E-18
50.2	-1.84282903906716E-17	-1.32325759181621E-17	0.532717073170135	-0.716662144493652	0.532717073170134	-0.716662144493652	4.77101562945239E-18	1.45311053529486E-18
50.3	1.75017633015046E-17	1.57217902237886E-17	0.416232269761906	-0.822514363857984	0.416232269761906	-0.822514363857984	1.5025264122475E-18	-2.93389478316758E-18
50.4	-9.90689313387957E-18	2.38795435354321E-17	0.236599484604208	-0.842010753677897	0.236599484604208	-0.842010753677897	-6.61431814029496E-18	-1.33628935275498E-17
50.5	1.13463104479869E-17	2.73355212154484E-17	0.130945001056558	-0.900251100503347	0.130945001056557	-0.900251100503347	-1.48587288211261E-17	-2.91823085970802E-18
50.6	-6.35251061204274E-18	-9.3208688776547E-18	-0.0355002821082071	-0.8973603626964	-0.035500282108207	-0.897360362696399	1.61575880214022E-18	2.67889462168965E-18
50.7	1.14578236737502E-17	-3.12577398788804E-17	-0.166526193604343	-0.877008256293734	-0.166526193604343	-0.877008256293734	1.48882362305807E-17	7.76342535406231E-20
50.8	-6.86409656755822E-18	-7.69341355470521E-18	-0.328263000989776	-0.86100001246544	-0.328263000989776	-0.86100001246544	1.85819276825761E-17	-5.72219775140285E-18
50.9	-3.23883954842021E-19	6.04040063163395E-18	-0.443949731379459	-0.763307297802085	-0.443949731379459	-0.763307297802084	2.02749950684316E-18	7.37803433989755E-18
51	1.34022178621971E-17	6.54218947642419E-18	-0.581314213012559	-0.700727593752044	-0.58131421301256	-0.700727593752044	-2.56093530478628E-18	-1.94440247268832E-18
51.1	1.56339846087526E-17	9.27535971474531E-18	-0.682598432229488	-0.593583792068483	-0.682598432229488	-0.593583792068483	2.02324590683358E-18	-6.01711862601883E-18
51.2	-6.26647191832964E-18	-1.87602444263816E-17	-0.763953117927585	-0.471818463070276	-0.763953117927585	-0.471818463070276	-3.91713286073464E-21	-6.25472051974744E-18
51.3	7.5319149258906E-18	3.47044266894647E-18	-0.835845636213973	-0.343842758517113	-0.835845636213973	-0.343842758517114	-9.87383425035567E-19	3.01081921284664E-18
51.4	1.30712352253928E-17	-5.70677297561494E-18	-0.898212366162779	-0.221907322842234	-0.898212366162778	-0.221907322842233	-3.39128352558725E-18	-2.62360140086596E-18
51.5	8.73191760371667E-18	1.22496601534345E-17	-0.887432578385682	-0.0451590243870068	-0.887432578385682	-0.0451590243870066	1.06784454236515E-17	-2.36929283712301E-17
51.6	-1.156311221005E-17	1.26698642453965E-17	-0.908677983496596	0.0681599172624574	-0.908677983496596	0.0681599172624574	2.47963370910821E-17	1.22828541220185E-17
51.7	1.92856251630478E-17	-4.01485607739371E-18	-0.900940653965403	0.217211056621825	-0.900940653965403	0.217211056621826	-2.10869334446483E-18	-2.90489493191656E-17
51.8	-2.1453875687832E-18	9.6288596585684E-18	-0.796931835890929	0.350306248179734	-0.796931835890929	0.350306248179734	2.65758426248464E-18	1.31443917504907E-17
51.9	1.25731893745229E-18	-5.59053404011444E-18	-0.803782177486953	0.482033896227496	-0.803782177486953	0.482033896227496	-8.97646574573115E-18	2.97554457396874E-17
52	-2.84671198974086E-17	1.73706514463416E-17	-0.655996242628379	0.608684828058139	-0.655996242628379	0.60868482805814	-7.83487128094018E-18	1.16026850461985E-17
52.1	-6.74288861158771E-18	-2.10336788496858E-18	-0.561320971548231	0.689842438435116	-0.561320971548231	0.689842438435116	-1.13424033696634E-18	1.28653320358624E-18
52.2	-1.21603998783953E-17	2.2604814182306E-18	-0.472555413443382	0.777046705869506	-0.472555413443382	0.777046705869505	-1.67266574763936E-17	8.26215783737976E-18
52.3	1.30100925486112E-17	1.25557465315563E-18	-0.348368516003701	0.842843774458279	-0.348368516003701	0.842843774458279	1.83180228719658E-17	-3.06352910816856E-17
52.4	-4.50349747171788E-18	1.01170891285473E-17	-0.195061937275722	0.917865681377962	-0.195061937275723	0.917865681377963	4.52846165953796E-17	3.43821212725904E-18
52.5	2.36283718916154E-17	-5.01060570949261E-18	-0.0789299311318029	0.866672091982197	-0.0789299311318029	0.866672091982197	-1.50314856009676E-17	-5.43234555741724E-18
52.6	1.17349266552852E-17	-5.27047920977719E-18	0.0560480644844266	0.938948003311175	0.0560480644844266	0.938948003311175	-4.21429671191676E-17	-4.2097647468683E-17
52.7	8.35135624697624E-18	7.46497340874846E-18	0.261662131480827	0.904705333925943	0.261662131480827	0.904705333925942	1.87600394704014E-17	8.94475761754232E-19
52.8	-2.05214181136906E-17	5.6733804123466E-18	0.280773039671617	0.757906095705571	0.280773039671616	0.75790609570557	1.39013159375023E-17	1.27085947383049E-17
52.9	-1.23643788834749E-17	6.50366171032656E-18	0.564521905736713	0.844070253968867	0.564521905736713	0.844070253968867	4.90213126232494E-17	1.25135664632907E-17
53	-6.71817974530655E-18	1.86808680602365E-17	0.564767506194063	0.655099421959867	0.564767506194064	0.655099421959867	5.52735283910018E-18	1.57481262759819E-17
53.1	-9.78044895342415E-18	7.27928902261236E-18	0.685176018443184	0.623511931235913	0.685176018443183	0.623511931235913	5.50883338321095E-18	-5.00656586743933E-18
53.2	1.09540914118771E-17	1.68147288178767E-17	0.825482780174452	0.491026408035595	0.825482780174453	0.491026408035596	1.16321864546771E-17	-5.40745443451212E-18
53.3	1.28803898575679E-17	1.54532050802218E-17	0.838351563606608	0.374187020053262	0.838351563606609	0.374187020053262	-2.39440620578877E-17	2.147931693785E-17
53.4	1.51309933874907E-17	-2.46284883246294E-17	0.867807609801478	0.17999231389457	0.867807609801477	0.17999231389457	-2.28363624776448E-17	-1.58392730293046E-17
53.5	2.48058410633736E-17	-1.17718138053328E-17	0.945532828669111	0.133806705732159	0.945532828669112	0.133806705732159	-1.04879325965942E-17	-1.78485817908103E-17
53.6	2.06893338286629E-17	9.24703230976575E-18	0.935613581349677	-0.0698330091079384	0.935613581349677	-0.0698330091079382	-1.15905605891597E-17	-5.20853949472525E-18
53.7	4.72776451068903E-18	1.24729176603933E-17	0.845772049973787	-0.21548955070016	0.845772049973787	-0.21548955070016	4.87280790943368E-18	1.23938771366823E-17
53.8	1.96814736893804E-17	1.02416953861847E-17	0.954270530107766	-0.296928858731476	0.954270530107766	-0.296928858731476	-5.70700082666978E-18	3.93227755116048E-18
53.9	-1.96906258823869E-17	7.37113422015893E-19	0.80965309234182	-0.464374706452873	0.809653092341821	-0.464374706452873	-3.1430685340877E-17	-6.13074070628295E-18
54	-7.74286343053997E-18	-5.36040206488943E-18	0.710599063239797	-0.574661304212864	0.710599063239797	-0.574661304212864	4.03873095593602E-18	-2.58047952007415E-17
54.1	1.73554742729586E-17	5.25427306049648E-18	0.641886551381487	-0.647632790436519	0.641886551381487	-0.647632790436519	-7.18565486859029E-18	2.94881575005404E-18
54.2	7.21950027009772E-18	-1.17983897156911E-17	0.547046606302108	-0.752061543502202	0.547046606302107	-0.752061543502202	6.72373636180464E-19	4.51313392646021E-18
54.3	-2.78207530242093E-17	-8.94015219376372E-18	0.377957564883183	-0.843349388488809	0.377957564883183	-0.843349388488809	-3.43558697946987E-17	2.26912589084538E-17
54.4	1.5961175331127E-17	-8.81648091827369E-18	0.330465061425303	-0.831681590308334	0.330465061425303	-0.831681590308334	-1.18117008600138E-18	-6.84555709882588E-18
54.5	-2.06828412515241E-18	7.96564619554915E-18	0.123395365213247	-0.966231284864004	0.123395365213247	-0.966231284864004	-1.43381631519885E-17	-3.72291142527433E-18
54.6	-9.14673448609612E-18	2.91050236712234E-18	-0.00431677942445428	-0.902000299600086	-0.00431677942445392	-0.902000299600086	-8.49509764738211E-18	-2.74163847141884E-18
54.7	-1.77332197808589E-17	-5.26539796957827E-18	-0.120067360550886	-0.94867331151794	-0.120067360550885	-0.948673311517939	-3.11695545282017E-18	-5.7496544376093E-18
54.8	1.20364325106662E-17	-6.43133245881589E-19	-0.284266893672463	-0.910826944976794	-0.284266893672462	-0.910826944976793	1.43728332747524E-17	2.07833210879462E-17
54.9	5.2179678016442E-18	-4.34493219342607E-18	-0.410912716296366	-0.832958758253645	-0.410912716296366	-0.832958758253646	1.83118909845845E-17	-1.89598771440076E-17
55	-2.01825687085938E-18	-1.10672273796762E-17	-0.520961311426437	-0.792409293720324	-0.520961311426436	-0.792409293720324	1.54778274615389E-17	-4.36195384810245E-18
55.1	1.31000377079829E-17	5.12088201200025E-18	-0.64994227630239	-0.699285371799835	-0.64994227630239	-0.699285371799835	9.28784638254136E-18	3.05820610350645E-18
55.2	8.33487087234845E-18	1.10244684907048E-18	-0.72159317109545	-0.595891572905485	-0.72159317109545	-0.595891572905485	8.03373474176304E-18	1.54722670323124E-18
55.3	-1.86958851919994E-19	-6.19651463641989E-18	-0.821391724598301	-0.460255140994354	-0.821391724598301	-0.460255140994355	1.36249436003302E-17	-1.01436997737715E-17
55.4	-1.44206032756774E-18	-9.52655132379836E-18	-0.876818841658212	-0.375807819428281	-0.876818841658213	-0.375807819428281	-3.72853256770222E-18	-7.34919662467712E-18
55.5	-6.93915429121509E-19	1.46029075557159E-18	-0.941756010276727	-0.212377200644993	-0.941756010276727	-0.212377200644993	-1.00046555970154E-17	5.98608281694352E-18
55.6	4.49454903385893E-18	1.3381985807223E-17	-0.93740779290875	-0.0885477668501924	-0.93740779290875	-0.0885477668501921	-3.88546404516552E-18	3.95630841076776E-18
55.7	9.8630342537671E-18	-7.45118276319826E-18	-0.965156713887207	0.0460414469331671	-0.965156713887207	0.0460414469331673	2.52863665344591E-17	-5.67201980545696E-18
55.8	-8.65017282941033E-18	1.97244330049661E-17	-0.939075838328852	0.202459682732295	-0.939075838328852	0.202459682732296	-2.94525119288049E-17	2.03465610067652E-17
55.9	-6.83862043432655E-18	-1.83214216963745E-17	-0.905205320562157	0.32631795971023	-0.905205320562158	0.32631795971023	-3.89164814893843E-19	-8.02129468077411E-18
56	-2.11769346736748E-18	4.99440922065472E-19	-0.822594673939577	0.458511131547423	-0.822594673939578	0.458511131547423	-1.00890264147719E-17	4.61489807769484E-18
56.1	5.55827253831292E-18	-6.70344692181063E-18	-0.780416313411793	0.568432730723268	-0.780416313411794	0.568432730723268	4.07022403680154E-18	-2.0861593681197E-18
56.2	8.47369690876181E-18	1.68426839514629E-18	-0.69178224623892	0.689360863858263	-0.69178224623892	0.689360863858264	9.15796333121494E-18	-1.65134548771763E-17
56.3	-4.35876339496522E-18	-1.6343774421974E-18	-0.534229555101639	0.778462716636974	-0.534229555101639	0.778462716636975	-8.32664471230955E-18	-1.04944256132591E-19
56.4	-9.98888839905046E-19	-7.10599875684497E-18	-0.474636940763514	0.849802648764111	-0.474636940763514	0.849802648764111	-6.57113488063682E-18	-7.53440441501259E-18
56.5	4.18785739797238E-18	2.84320955603842E-18	-0.328129689793302	0.928233487681803	-0.328129689793302	0.928233487681803	-1.25765897351147E-17	-5.83803636204709E-18
56.6	1.00396078799962E-18	1.67903278688696E-18	-0.183296407577851	0.931978566825647	-0.183296407577851	0.931978566825647	4.16123420417362E-17	-6.64695346489667E-18
56.7	-1.64048894250335E-18	1.44718783182527E-17	-0.0544816485372542	0.964318072976938	-0.0544816485372538	0.964318072976938	8.91881268216698E-18	7.52560521422566E-18
56.8	-1.10950550423036E-17	5.78166361149847E-18	0.0676001979517536	0.982708258397498	0.0676001979517538	0.982708258397498	-4.1683051730711E-19	5.76199442295488E-20
56.9	8.27002624750913E-19	-7.52979750734426E-18	0.214291470720942	0.93798986355858	0.214291470720942	0.93798986355858	-2.13099988078545E-17	-1.64686213190399E-17
57	6.41821265405035E-18	-4.45993696699843E-18	0.368076121252399	0.864930870130133	0.368076121252399	0.864930870130133	2.12547125409641E-18	-2.20906903761865E-18
57.1	-1.52835148506114E-17	1.32066930419863E-17	0.47438877377058	0.833961742926952	0.47438877377058	0.833961742926953	-4.24384210033067E-17	2.63472941079746E-18
57.2	3.69369488402834E-18	-7.31402030634754E-19	0.597295242816217	0.783559702568832	0.597295242816217	0.783559702568832	-1.56671358652169E-17	6.17312484201559E-18
57.3	7.86880334873374E-18	-1.36871124299051E-18	0.734382319451569	0.617669594976938	0.73438231945157	0.617669594976938	7.45870449522126E-18	1.49163799516732E-17
57.4	2.62619449928016E-18	-3.96935850055841E-18	0.748221950852704	0.545103932298823	0.748221950852704	0.545103932298823	1.39587616126763E-17	1.42462824853456E-17
57.5	-1.07759707927921E-18	-6.46449006408996E-18	0.875594528177916	0.445859158277762	0.875594528177916	0.445859158277762	2.32724451365601E-17	6.37153157671972E-18
57.6	-1.80844380344511E-18	4.77634178417454E-18	0.931158490590111	0.291576953674324	0.931158490590111	0.291576953674324	1.57881553184719E-17	-1.11549559744285E-17
57.7	-1.0969213736407E-17	-1.66872643284561E-17	0.920530448861915	0.15716325530478	0.920530448861915	0.15716325530478	-2.99674389672569E-18	2.21989850797215E-17
57.8	-4.95302790115552E-17	-1.60701523269508E-17	0.970846738875312	0.0445218898626978	0.970846738875311	0.0445218898626979	-3.07667228432988E-17	-1.4345576243656E-17
57.9	-1.28440611126612E-17	1.19835001856473E-17	0.981073135618914	-0.0791916355427093	0.981073135618915	-0.0791916355427095	1.34725644488503E-17	-9.12307889696719E-19
58	-7.50834575348992E-18	-1.60056635949259E-17	0.917794334537029	-0.273746402802224	0.917794334537029	-0.273746402802224	5.1673493727007E-19	-2.24490912416743E-17
58.1	-1.53816873371449E-18	-2.67095014040826E-18	0.860843970391414	-0.347570914937908	0.860843970391413	-0.347570914937908	-3.27537499483987E-17	-1.24160968942779E-17
58.2	9.05644651987074E-18	-6.2591833541822E-18	0.837133451180024	-0.495223035499817	0.837133451180025	-0.495223035499817	2.04877808401767E-17	-7.46854483558052E-18
58.3	-7.32809118248746E-18	1.84207933651505E-17	0.739269160670519	-0.621143495131152	0.73926916067052	-0.621143495131152	-7.84589326829138E-18	1.66882655533268E-17
58.4	1.62965876663364E-17	1.43912589744883E-17	0.644555411724206	-0.653920640662581	0.644555411724206	-0.653920640662581	-2.76155194745029E-17	1.20994523236766E-17
58.5	3.40617187643018E-18	1.65989923879176E-17	0.584298640802093	-0.794073385696336	0.584298640802094	-0.794073385696336	1.56775351073575E-17	1.63073342289073E-17
58.6	1.30152746317557E-17	1.38490595026016E-18	0.433831209954235	-0.859523251718935	0.433831209954236	-0.859523251718935	-1.04278442765265E-17	-3.29508179246681E-18
58.7	1.94531012715806E-18	2.06313807504015E-17	0.304096160359227	-0.879548126213901	0.304096160359227	-0.879548126213901	7.60828980627326E-19	6.32860871856898E-18
58.8	1.71751221884903E-17	-2.32398629193614E-17	0.197106162279869	-0.929826138518097	0.197106162279869	-0.929826138518097	4.65531932127358E-18	2.06654832374996E-18
58.9	8.41131051173089E-18	2.80069367529921E-17	0.0833275441249241	-0.967165048356977	0.0833275441249242	-0.967165048356977	3.89253848313386E-18	2.05857907248867E-17
59	8.53692090600613E-18	-8.62804885341105E-19	-0.0904231344099228	-0.942046795940739	-0.0904231344099225	-0.942046795940739	2.85423286281678E-17	1.6625609128099E-17
59.1	-5.32549317293255E-18	1.8171740705356E-17	-0.187097200930904	-0.924848714410754	-0.187097200930904	-0.924848714410754	1.97330492995543E-18	9.6445683931742E-18
59.2	1.08239626157179E-18	5.4813735854805E-18	-0.31689363398292	-0.92727531565622	-0.316893633982919	-0.927275315656221	-3.15607002934899E-18	6.12849826650286E-18
59.3	-3.78410807004542E-18	-7.23233629865487E-18	-0.466828853973978	-0.819470263164961	-0.466828853973977	-0.81947026316496	9.44249539618758E-18	-1.59269415913759E-17
59.4	-4.18211213046655E-18	1.11108698223997E-19	-0.542173357551138	-0.781965184516483	-0.542173357551137	-0.781965184516483	-6.24036416820701E-18	2.11435329458636E-17
59.5	2.29337851069512E-18	5.11904816803107E-18	-0.673900352801176	-0.691877198268775	-0.673900352801176	-0.691877198268775	-9.53554243931058E-18	-6.72615528541423E-18
59.6	-1.91231908382288E-18	-7.08133253179829E-18	-0.749084837945693	-0.573627708147819	-0.749084837945693	-0.573627708147819	-4.75544692120516E-18	6.08279451172345E-18
59.7	3.37515953865414E-18	1.10924580761363E-17	-0.832627099174671	-0.4902741897482	-0.832627099174671	-0.4902741897482	-3.54070571829138E-19	1.96413677486749E-19
59.8	1.44747525003175E-17	-8.26483167456034E-19	-0.901164126292188	-0.364301331095767	-0.901164126292188	-0.364301331095767	-6.28804998571581E-19	-2.88704337330812E-18
59.9	-6.411910285129E-18	-1.77164602321492E-18	-0.930876689767577	-0.248579155781891	-0.930876689767579	-0.248579155781891	-5.10456917167928E-18	4.03077689402928E-18
60	-1.98135015947331E-17	1.68987205885518E-18	-0.952906522490299	-0.0949893201399845	-0.952906522490299	-0.0949893201399846	5.32267757010926E-18	-1.43444751452388E-17
60.1	8.55443515210252E-19	1.52610953541041E-18	-0.949499362777406	0.0224364497666821	-0.949499362777405	0.0224364497666822	4.80006160024335E-18	2.12286455760654E-18
60.2	2.04592004133009E-17	1.0036538942802E-18	-0.965880245561703	0.135671818778101	-0.965880245561702	0.135671818778101	1.66672224094236E-17	7.24055926440794E-18
60.3	-6.62917955403503E-19	4.49893908540699E-18	-0.913983017540296	0.30242843466675	-0.913983017540296	0.30242843466675	3.08139551752345E-18	1.22328817339716E-17
60.4	-6.78748189427731E-18	1.04810167630686E-17	-0.862527668380506	0.377910371831739	-0.862527668380506	0.377910371831738	6.47706335251526E-18	-1.35111147816729E-18
60.5	-3.9898280440822E-18	8.59406474277521E-19	-0.816870438952353	0.523273160684144	-0.816870438952353	0.523273160684144	-3.65707121520175E-18	5.50541719997481E-18
60.6	2.12778541906721E-18	6.85735693814379E-18	-0.733305675344559	0.622699330526492	-0.733305675344559	0.622699330526491	2.23469645453782E-18	-3.70044621383776E-18
60.7	-2.52743870636561E-17	-2.85310153821538E-17	-0.638779030990949	0.719995179505083	-0.638779030990948	0.719995179505083	-4.78585955920969E-20	-3.98915122360603E-19
60.8	1.56109067000845E-17	-8.68614407508857E-18	-0.538620076539228	0.806639361303	-0.538620076539228	0.806639361303	6.6767555239058E-19	4.80281004685496E-18
60.9	2.20508563914809E-18	1.44911740437087E-17	-0.433470238077587	0.871357103505409	-0.433470238077586	0.871357103505408	2.58752514718392E-18	-1.01975593620535E-17
61	1.17157647448501E-17	7.4509640435339E-18	-0.298169461695015	0.922547358666286	-0.298169461695015	0.922547358666287	9.51129150019741E-18	2.84319523655512E-18
61.1	2.80128350271722E-18	1.05531321014191E-17	-0.170342530959892	0.939619532155483	-0.170342530959891	0.939619532155484	-3.02253945666391E-17	-1.61735906823242E-18
61.2	-2.56149163649345E-17	1.05200139576841E-17	-0.057572048721067	0.962213388845688	-0.0575720487210668	0.962213388845688	-4.30582823726104E-18	8.81763236844537E-18
61.3	-1.29286186739277E-17	6.34427027250138E-18	0.0793812362149958	0.978127619837246	0.0793812362149962	0.978127619837246	6.45807297958356E-18	1.49201671862983E-17
61.4	-1.76807895764111E-18	1.88431424328296E-18	0.238497715349639	0.933869601857261	0.238497715349639	0.933869601857261	2.31262472675271E-18	-3.32963020232635E-18
61.5	4.88051277053815E-18	1.61113236800024E-17	0.314155840051978	0.895728623137737	0.314155840051978	0.895728623137738	-4.64056514172697E-18	2.67289148903931E-17
61.6	-8.13125350100434E-18	1.51372743267608E-17	0.46643563605253	0.876386099360415	0.46643563605253	0.876386099360415	-3.06810712621889E-18	-3.09648780421102E-18
61.7	3.03056001054163E-18	1.30721849887098E-17	0.584753958049886	0.785829610528288	0.584753958049885	0.785829610528288	6.27782492395605E-18	5.14058950031682E-18
61.8	9.87956672776648E-18	-7.14390735420077E-18	0.662716486878662	0.692244234912137	0.662716486878662	0.692244234912137	8.94493320267963E-18	-3.99531103945563E-18
61.9	-3.10118334303222E-18	-5.86674132990178E-18	0.758118941869125	0.59417554343798	0.758118941869125	0.59417554343798	-8.04317706322979E-18	1.10953979952349E-17
62	-1.84787405363758E-18	8.85894130929984E-21	0.831551272003196	0.511176393766338	0.831551272003195	0.511176393766337	-2.94508186211804E-18	2.41641057582373E-18
