# GHZ S RI R 50
50	-5.90855142572919E-18	2.15495337919349E-18	0.788159494072275	-0.554259086435322	0.788159494072275	-0.554259086435322	5.68424335998396E-19	-6.64116896584256E-18
50.1	2.18860937594788E-17	-8.57612228133966E-18	0.660805151100938	-0.666138499433627	0.660805151100938	-0.666138499433628	-7.53168806787445E-18	1.30426521035797E-17
50.2	-1.35419121062829E-18	1.08575418135358E-17	0.55393679309818	-0.757770138524874	0.55393679309818	-0.757770138524874	-6.28910759514137E-18	3.98925558365399E-19
50.3	-1.29599432138214E-17	-7.28891840274057E-18	0.434825904403254	-0.86314328645239	0.434825904403254	-0.86314328645239	1.23459549774336E-17	-5.11097047638375E-18
50.4	-7.05412547807686E-19	-4.68257291438243E-18	0.239711970872642	-0.891727170644873	0.239711970872642	-0.891727170644873	-5.0171750007635E-18	-4.61702658030993E-18
50.5	-9.67459465890338E-18	-6.01165339346548E-18	0.131439600131853	-0.940551632722245	0.131439600131853	-0.940551632722245	4.29600173788423E-18	-3.6560686665068E-18
50.6	7.6231005204695E-18	1.54477401606666E-17	-0.0443732121465279	-0.939049125622182	-0.044373212146528	-0.939049125622181	5.30169501321147E-18	7.19773136140669E-18
50.7	1.2182931702359E-17	1.36087488310027E-17	-0.182667873749928	-0.911811671667417	-0.182667873749928	-0.911811671667417	1.35069983370918E-17	8.99209935767286E-18
50.8	-3.13036192970808E-18	6.05993341071353E-18	-0.344778917038973	-0.895269668902296	-0.344778917038973	-0.895269668902296	-2.90382416679185E-17	1.54973740159631E-17
50.9	1.44381084150924E-17	2.27116951492299E-17	-0.472111371674161	-0.788803381434835	-0.472111371674161	-0.788803381434835	1.10524743722926E-18	7.24626826081225E-18
51	1.4519166016488E-17	3.40237779360205E-17	-0.608298490770252	-0.723840385856375	-0.608298490770253	-0.723840385856375	1.83316284766556E-17	3.20405889993337E-18
51.1	1.96890330414852E-17	7.34635127704672E-18	-0.712721796879559	-0.609838725173338	-0.712721796879559	-0.609838725173338	1.36366228182011E-18	-1.10279374282157E-17
51.2	-2.30625747601681E-18	2.05931377312128E-18	-0.795862318858382	-0.480794160679443	-0.795862318858382	-0.480794160679443	7.6572343202545E-19	4.68047395859222E-18
51.3	-1.02770879144931E-17	-1.66418584003284E-17	-0.867132485785966	-0.34795764705398	-0.867132485785966	-0.34795764705398	-5.82879121904147E-18	2.80713084154915E-18
51.4	6.59126793357087E-18	6.92650963524882E-18	-0.924748703132259	-0.224075984103973	-0.924748703132259	-0.224075984103973	-1.39195571734119E-17	1.13817786849557E-17
51.5	-1.12705414454947E-17	1.73267903214332E-17	-0.918707852794299	-0.0355525194214577	-0.918707852794298	-0.0355525194214581	7.47415491741726E-18	7.93304112038955E-18
51.6	1.16767387447687E-17	-5.78883591480766E-18	-0.930341245804733	0.0774025205979169	-0.930341245804733	0.0774025205979165	1.24719891177373E-18	5.1562877463543E-18
51.7	2.7773205203611E-18	-5.75452236847572E-19	-0.92035264391685	0.226496937258272	-0.92035264391685	0.226496937258272	-7.3604315798641E-19	-6.65165978430031E-18
51.8	-7.46106770768346E-18	8.20451557287687E-18	-0.811588841977542	0.374207531346938	-0.811588841977541	0.374207531346938	-3.1254179409966E-17	2.46358883694827E-18
51.9	-5.3667015911724E-18	1.69483551918646E-17	-0.815158077003464	0.492104442337251	-0.815158077003463	0.492104442337251	-9.37689998326228E-18	1.10604938047561E-17
52	2.71442371435305E-18	-1.01082026073497E-17	-0.665568318967677	0.632300450484807	-0.665568318967677	0.632300450484808	6.81402580399451E-18	-1.8681425392018E-17
52.1	4.87058772755062E-18	5.08406740349265E-18	-0.562886666263255	0.711536359914197	-0.562886666263255	0.711536359914197	1.30028913387464E-18	-6.91029551438389E-18
52.2	3.67066445873556E-18	1.36150848854745E-18	-0.471428304275211	0.791824816622379	-0.47142830427521	0.791824816622379	1.51001188546577E-17	3.12503731173092E-18
52.3	2.0875999382458E-17	-2.59496712369557E-17	-0.344576532070785	0.85509898145867	-0.344576532070785	0.85509898145867	-5.55338691476172E-18	-1.76195908648131E-17
52.4	-8.29972975269777E-18	-6.40065980657716E-19	-0.195444059250258	0.931480259384671	-0.195444059250258	0.931480259384671	-1.94417528280608E-17	5.19482215317972E-18
52.5	-2.60829652366323E-17	4.29532769623835E-18	-0.0623286968147789	0.872298461389749	-0.0623286968147791	0.872298461389748	-2.12908662801746E-17	-5.73885374559891E-18
52.6	2.86733782322991E-18	-8.11749851953425E-18	0.0584263270213211	0.940400628310615	0.0584263270213212	0.940400628310614	6.16040361339698E-17	-3.80456622137852E-18
52.7	-3.68781551230397E-17	-1.96635076976291E-17	0.266877586578002	0.916881747367847	0.266877586578002	0.916881747367847	-2.19699348400553E-17	4.20945867714239E-17
52.8	-1.6038470897669E-18	1.74146328655199E-17	0.306996081264921	0.742391327095426	0.306996081264921	0.742391327095426	1.54266204467313E-17	9.12227524138503E-18
52.9	1.28593239505272E-17	1.36958225453696E-17	0.558479862084237	0.859500574400827	0.558479862084237	0.859500574400827	4.66357805651763E-17	-1.51678423645055E-17
53	3.30475790866398E-19	9.20120298678529E-18	0.579305405082764	0.644209992977719	0.579305405082764	0.644209992977719	2.234170066831E-17	1.15430796200303E-17
53.1	-8.05591310586604E-19	-7.6603417812315E-18	0.683452693698796	0.61534706363496	0.683452693698796	0.61534706363496	-1.38211452567742E-17	-1.92000103719139E-17
53.2	-1.36297190529398E-17	-1.18007686015457E-17	0.825488897855101	0.493466378765348	0.825488897855102	0.493466378765348	-3.36894476426057E-17	1.71428133538311E-18
53.3	1.51953468653418E-17	-4.73525611965245E-18	0.833953209413984	0.365072750154633	0.833953209413985	0.365072750154633	-1.83649459769985E-17	1.30232796645327E-18
53.4	-1.27529541746863E-18	-5.07298663443171E-19	0.873597360397318	0.167375602553314	0.873597360397318	0.167375602553314	-6.07348644359663E-18	2.26946194238531E-17
53.5	1.46139074412539E-17	-1.72296802332172E-17	0.929391861569038	0.133443351524963	0.929391861569039	0.133443351524963	3.97224611376973E-18	2.75836487958226E-18
53.6	1.2659376248647E-17	2.24866352816885E-17	0.930260186372048	-0.071761777561711	0.930260186372048	-0.0717617775617109	1.36884242124225E-17	1.92704878423529E-17
53.7	-2.97067971516416E-18	-4.3527016201238E-18	0.839489238484625	-0.230736209384087	0.839489238484626	-0.230736209384087	-2.76800753601721E-18	8.52997223669228E-18
53.8	-1.09872700719182E-17	-1.70915233331711E-18	0.935609451826217	-0.278430959362208	0.935609451826215	-0.278430959362209	7.45707120989965E-18	-1.27665364131369E-17
53.9	-2.59911556167558E-18	1.04083810406576E-17	0.798053048074477	-0.461070048820101	0.798053048074477	-0.461070048820101	-2.99008559431091E-18	1.69869260721878E-17
54	-1.59021038485487E-17	-2.14963439989488E-17	0.697095353981884	-0.572774543469029	0.697095353981884	-0.572774543469029	7.47410335203476E-18	-1.40123610291405E-18
54.1	-5.78114125488559E-18	-1.19018167612882E-17	0.62219616898399	-0.636924415577366	0.622196168983989	-0.636924415577365	-1.2149035760504E-17	9.9139252092539E-18
54.2	1.5807510107172E-17	5.28035316263374E-20	0.531776497552075	-0.735208623354795	0.531776497552074	-0.735208623354796	9.39494427810748E-19	-1.08364181573965E-17
54.3	-7.26282576348071E-18	1.3432591188982E-17	0.368488194677317	-0.833709347024271	0.368488194677318	-0.833709347024271	-2.95707724364418E-17	-3.6883963815456E-19
54.4	1.46263970528376E-18	2.19846781621765E-18	0.310233880444395	-0.801324709507445	0.310233880444395	-0.801324709507445	-1.3239187310707E-17	-3.11163353459957E-17
54.5	8.49058859590654E-18	1.71632600108631E-17	0.127556066512499	-0.948903797607914	0.127556066512499	-0.948903797607914	-1.55934187998472E-17	-2.73516389120189E-17
54.6	1.20113780930974E-17	-3.03441996007511E-18	-0.0126655737775499	-0.880032592419394	-0.0126655737775499	-0.880032592419393	7.82712136260324E-18	-8.29117173264764E-18
54.7	3.63402205371239E-18	-7.04934671318583E-18	-0.112339456775793	-0.920624162652213	-0.112339456775793	-0.920624162652213	7.50377269077341E-19	-1.24840097532441E-17
54.8	-1.26043770636508E-17	-1.31691979241283E-17	-0.273917871194547	-0.888115048790354	-0.273917871194547	-0.888115048790354	-1.58687571922742E-17	-7.31693593699391E-18
54.9	-4.86305956491704E-18	6.55432655647309E-18	-0.401939637584013	-0.809629628479279	-0.401939637584012	-0.809629628479279	-5.25707130339724E-18	2.23790838297694E-18
55	5.03369708353832E-18	-5.76629242905248E-19	-0.501319400118648	-0.767871658879894	-0.501319400118648	-0.767871658879894	4.13828727627681E-18	-2.16516615372396E-18
55.1	2.92585424793157E-18	7.05326816252919E-19	-0.627397647847546	-0.680772350697747	-0.627397647847547	-0.680772350697747	5.86684898562565E-18	1.22542204048472E-18
55.2	-1.10131755399948E-17	6.65366872284703E-19	-0.695190296139956	-0.575011988529281	-0.695190296139956	-0.575011988529281	-1.35412039674903E-17	-3.16428339895825E-18
55.3	4.13490083667591E-18	6.79107888022272E-18	-0.795839531071129	-0.447188190744035	-0.79583953107113	-0.447188190744035	-1.10330211033002E-17	-5.22654695449871E-20
55.4	6.92448618525963E-18	-6.43552964229088E-18	-0.839380569300149	-0.365809545172431	-0.839380569300149	-0.365809545172431	1.71322815524338E-17	9.88864643680179E-18
55.5	-5.08103434620812E-18	-3.34901748066949E-18	-0.908467405622739	-0.211947830309774	-0.908467405622739	-0.211947830309774	-7.07792310201633E-20	-1.35022387692082E-17
55.6	-9.84978210083977E-18	-7.71698822455664E-18	-0.899409763747232	-0.0877907684985915	-0.899409763747231	-0.0877907684985915	-8.9277329332236E-18	-1.33108864597177E-17
55.7	3.19514645114936E-18	2.73897611533192E-18	-0.925450564596118	0.0355184146273919	-0.925450564596118	0.0355184146273917	-4.77883074755986E-18	3.35195500408661E-18
55.8	1.05446155887083E-17	-5.383219280728E-18	-0.9034543593514	0.187662240267022	-0.903454359351399	0.187662240267022	-4.56355219887962E-18	-1.23911988437955E-18
55.9	1.45706395848047E-17	9.99118080836807E-18	-0.868633048360907	0.3044786729316	-0.868633048360907	0.3044786729316	1.03496954889752E-18	-4.59013627457449E-18
56	-6.58621814499043E-18	2.52548607612476E-18	-0.789309832889545	0.43616492526312	-0.789309832889545	0.43616492526312	6.27916894644225E-18	6.14098397096362E-19
56.1	1.94513871410514E-18	2.22513741183936E-18	-0.748937991893944	0.533263432153843	-0.748937991893944	0.533263432153842	3.57072757582638E-17	-5.15571421712812E-20
56.2	-4.17715575271023E-18	1.37979219581312E-18	-0.667983620892494	0.648409928521556	-0.667983620892494	0.648409928521556	-1.76025843871309E-17	3.55734064843123E-17
56.3	-8.97972516882355E-18	3.41586112711157E-19	-0.515122512207183	0.744117468565294	-0.515122512207183	0.744117468565294	-4.30691453433731E-18	1.68003639243147E-17
56.4	1.28610602357743E-17	-6.13995146069714E-19	-0.461033184276169	0.799061557116291	-0.461033184276169	0.799061557116291	1.38596736665951E-17	-1.14230654052601E-17
56.5	-2.99179611407602E-18	1.04916118819348E-17	-0.325876494791075	0.878808237895526	-0.325876494791074	0.878808237895526	1.3174374125541E-18	3.14269482273064E-18
56.6	1.43900247077526E-17	5.7724367555018E-18	-0.180918676062828	0.882942462802776	-0.180918676062828	0.882942462802776	1.07244750047306E-17	-1.07390346640306E-17
56.7	7.02370972079144E-18	-1.36820023846442E-17	-0.0628856567477083	0.912601235042786	-0.0628856567477082	0.912601235042786	-4.95511515394396E-18	-6.54799453829387E-18
56.8	-6.33545157112511E-18	-3.12025447249071E-18	0.046878419551728	0.927827318551033	0.0468784195517278	0.927827318551034	-7.19702071374812E-18	2.17968208317637E-17
56.9	-4.809764182931E-18	8.43056909996911E-18	0.190653957600775	0.886782565056884	0.190653957600775	0.886782565056884	-1.61998016473529E-17	5.73779244132489E-18
57	1.48869986002127E-17	8.39573837924069E-18	0.343715531240413	0.821185667204015	0.343715531240413	0.821185667204014	2.42367972165759E-17	-8.92862318465151E-18
57.1	-1.17421810011543E-17	1.59970655230085E-17	0.436341374088181	0.790330484264523	0.436341374088181	0.790330484264523	-1.68350753544287E-18	1.06349649428547E-17
57.2	9.20935121239977E-18	2.92148836108316E-18	0.546698594145343	0.746977414130688	0.546698594145342	0.746977414130688	1.09535703795793E-17	9.712430784515E-18
57.3	2.08012064351798E-17	-2.66743928443401E-17	0.693857395179213	0.594834696613139	0.693857395179213	0.594834696613139	-1.72111304943551E-17	-3.54596654393903E-17
57.4	-5.56974633375975E-18	1.71394417192344E-18	0.695009412599107	0.513300827856779	0.695009412599107	0.513300827856779	-6.37891811772645E-18	5.68899276652887E-18
57.5	-9.6243626131158E-18	2.89824447071927E-18	0.814466743409086	0.434321506871171	0.814466743409086	0.434321506871171	-1.07758304160537E-17	2.90338859761544E-17
57.6	-6.12950974864177E-18	8.2459051423686E-18	0.873265646821384	0.2890154587156	0.873265646821384	0.2890154587156	2.78384448694555E-18	3.31604333785561E-17
57.7	-7.47647463194795E-18	-2.75445584116615E-18	0.861344735714649	0.153619840054302	0.861344735714649	0.153619840054302	-1.324790442529E-17	-3.31849496299916E-17
57.8	1.08669515006306E-17	1.36581735973397E-17	0.90632295192058	0.0579997471403707	0.90632295192058	0.0579997471403705	5.27174930752389E-18	1.51029158718916E-17
57.9	9.51674272319291E-18	-9.26702257923272E-19	0.914844539203061	-0.053173467918266	0.91484453920306	-0.0531734679182659	9.86314341639642E-18	9.11605220384932E-18
58	-1.1887850225861E-18	-2.5833748206448E-18	0.8672692169648	-0.247337534121543	0.8672692169648	-0.247337534121543	-3.19507453904323E-18	-1.31704408356906E-17
58.1	-7.16372770934233E-18	-1.62038043671999E-17	0.801824558599942	-0.31539283698427	0.801824558599941	-0.31539283698427	4.11047331172796E-18	-5.03506799630287E-18
58.2	-7.35389403502133E-19	9.53842048836071E-18	0.78904867140523	-0.446661376558049	0.78904867140523	-0.446661376558049	1.24727641833136E-17	4.15999270078975E-18
58.3	-3.69157509141203E-18	-6.54973930054975E-18	0.700677280355476	-0.569634419576521	0.700677280355476	-0.56963441957652	-1.61510603664319E-17	-2.64877284300318E-17
58.4	-3.71505243695462E-18	-1.49031682381892E-20	0.598635983718066	-0.596239334337032	0.598635983718066	-0.596239334337032	3.34454073780837E-17	-2.34257311049271E-18
58.5	-2.02585370501412E-17	8.19127960003325E-18	0.559067406671231	-0.721013880462662	0.55906740667123	-0.721013880462662	-5.87379410660085E-18	1.19473232491991E-17
58.6	1.72789939393972E-17	7.64832056577817E-19	0.416976465917024	-0.789787198738616	0.416976465917024	-0.789787198738615	-8.91889599017005E-18	-8.15093926717567E-18
58.7	-2.78053657387555E-17	3.59230806596469E-18	0.289983182562102	-0.807978835260521	0.289983182562102	-0.807978835260521	-9.4629565323394E-18	5.45416970603387E-18
58.8	-4.73579167835883E-18	6.35077972766621E-19	0.197003554756921	-0.851547205453834	0.197003554756921	-0.851547205453834	-9.47158335671765E-18	1.27015594553324E-18
58.9	2.48203521155244E-18	1.39429037764249E-17	0.0987382996251138	-0.884457380471238	0.0987382996251138	-0.884457380471238	5.91970255211124E-18	1.119862372359E-17
59	1.60062122328351E-17	-8.58083110060065E-18	-0.0692189937783722	-0.869614604044029	-0.069218993778372	-0.869614604044029	1.04013420408512E-17	-6.01163191753763E-18
59.1	6.76750848974946E-19	-9.42587097504737E-19	-0.154269807320259	-0.847518941736851	-0.154269807320258	-0.847518941736851	1.03331076486254E-17	9.17700186940134E-18
59.2	-3.72718952818971E-18	2.54971109234093E-18	-0.264469308593155	-0.855011745984605	-0.264469308593155	-0.855011745984606	-7.45777997939223E-18	7.87755237733323E-19
59.3	-1.36795953429852E-17	1.26466908815848E-17	-0.416188443683072	-0.759763743954891	-0.416188443683072	-0.75976374395489	-3.98430270196193E-18	8.65453374476476E-18
59.4	-2.82845151139188E-18	-8.97159366567432E-18	-0.474782074197362	-0.721643125252264	-0.474782074197362	-0.721643125252264	-7.92148442939032E-18	-1.18715339187773E-17
59.5	2.53642226394577E-18	2.22688150261791E-18	-0.599338112434541	-0.647362195285841	-0.599338112434541	-0.647362195285841	1.09635923635227E-17	-1.69306413461953E-18
59.6	-1.50575619253761E-18	4.94543071988503E-18	-0.672004421231151	-0.536350967177988	-0.672004421231151	-0.536350967177988	2.32972220828162E-18	-7.10552269667874E-18
59.7	9.21992612547321E-19	-1.93317075934837E-18	-0.744136240257769	-0.466414135619171	-0.744136240257769	-0.466414135619171	1.71188006172027E-18	6.6040111070442E-18
59.8	1.3008450459905E-17	-9.1935458736055E-19	-0.810405943259301	-0.354880044373472	-0.810405943259301	-0.354880044373472	2.03262650135361E-18	9.2096913076094E-18
59.9	-6.41105377837194E-19	-1.10653526659157E-17	-0.835766469567079	-0.249255688270579	-0.835766469567079	-0.249255688270579	-8.17059424636241E-18	7.66198503965434E-18
60	1.94636710448744E-18	-7.62610302147032E-18	-0.862806508879869	-0.108367696364903	-0.862806508879869	-0.108367696364903	5.45377299404031E-20	5.09070890583352E-18
60.1	6.39279149945809E-18	-2.52192732633038E-18	-0.857696831437622	-0.00203886396123082	-0.857696831437622	-0.00203886396123065	-4.43612450650027E-18	-6.40189217362694E-18
60.2	-1.53116022853687E-17	-7.68978435171066E-18	-0.873417437380968	0.0917468203614708	-0.873417437380968	0.0917468203614706	1.4952239169956E-17	-4.40708092009314E-19
60.3	8.32892386073876E-18	1.98122296696663E-17	-0.835545748529619	0.250844257182209	-0.835545748529619	0.250844257182209	1.43758262686722E-18	5.77391337541175E-18
60.4	-6.18753613052484E-18	-9.94079924684301E-18	-0.780464987644978	0.315492646098912	-0.780464987644978	0.315492646098912	-4.10985180338184E-18	-1.15699392272181E-18
60.5	9.11657257053721E-19	1.62981665376596E-17	-0.750421129458621	0.445940356767497	-0.750421129458621	0.445940356767496	-2.08318906436766E-18	3.71143732436858E-19
60.6	-1.80924900839111E-17	7.73904335744136E-19	-0.675873150936708	0.536893994366851	-0.675873150936708	0.536893994366851	-1.34838585243017E-18	-5.62063693413106E-18
60.7	1.00633830629414E-17	6.58269913988342E-18	-0.593924669248926	0.626568461132028	-0.593924669248926	0.626568461132028	-5.63716848374286E-18	3.53876509179518E-18
60.8	-7.05789043009583E-18	-3.51933431387671E-18	-0.508149904212255	0.705830964983944	-0.508149904212256	0.705830964983945	-1.80005089979346E-17	-2.10696987271761E-18
60.9	4.10439217318489E-18	8.1950901400884E-18	-0.416714771802771	0.76388875161211	-0.416714771802771	0.763888751612111	1.08546825115345E-17	4.72795723258922E-18
61	1.33529592864883E-17	9.48281746976782E-18	-0.296445552960351	0.815473818347646	-0.296445552960351	0.815473818347647	1.28630678050945E-17	2.09988948636899E-17
61.1	-2.41721014653529E-18	6.84248295750034E-18	-0.180102266230967	0.832082221148272	-0.180102266230967	0.832082221148273	1.0300726951674E-17	-2.91676988485835E-18
61.2	-1.4618353724565E-17	8.2702659605958E-18	-0.0841428698521293	0.852109214360753	-0.0841428698521295	0.852109214360752	-7.4837021023047E-18	-1.49253348688033E-18
61.3	2.10828563454153E-18	1.01268012874938E-17	0.0335940786826185	0.872896413071065	0.0335940786826185	0.872896413071066	1.91400581652076E-17	1.57840798498473E-17
61.4	-4.67542269897716E-18	1.06319822218094E-17	0.183636170258677	0.841211151303719	0.183636170258677	0.841211151303719	1.67334814056733E-17	7.18355491349785E-18
61.5	-3.71204705193345E-18	-1.1450978873348E-18	0.245889373825564	0.799371099382696	0.245889373825564	0.799371099382696	7.17006843507254E-18	1.16314046514513E-17
61.6	-3.22078848789464E-18	-1.31047149779398E-17	0.377470460215201	0.797140368719944	0.377470460215201	0.797140368719945	-4.85614911533589E-18	-1.74970101058133E-17
61.7	-6.61954581128329E-18	-8.27255700432929E-18	0.489292778730619	0.719823483938073	0.489292778730619	0.719823483938072	1.20883522250661E-18	-3.05488648831924E-18
61.8	-1.65494589685574E-17	1.23209385512015E-17	0.559898815317859	0.634117628253558	0.559898815317859	0.634117628253558	1.23179837452129E-17	1.53728562982777E-18
61.9	9.17148904595202E-19	-2.21531799525565E-18	0.647756073339622	0.552085456153545	0.647756073339621	0.552085456153545	-4.37318208659544E-18	-1.13886994938607E-17
62	9.74649144240295E-18	3.08316574897812E-19	0.709672565562947	0.484226296902832	0.709672565562947	0.484226296902832	-4.70438949969207E-18	1.15481937457256E-18
