# GHZ S RI R 50
50	-2.40184138106464E-18	-3.23450264364956E-18	0.757802277170618	-0.533447417643313	0.757802277170618	-0.533447417643313	-9.41128962553979E-18	9.28846486679945E-18
50.1	5.83028128909019E-18	-3.52117235551528E-18	0.638462209497881	-0.637474420402663	0.638462209497881	-0.637474420402663	-7.77735233485855E-18	7.04835722754875E-18
50.2	8.60839956932401E-18	-1.15637183616932E-18	0.53894578316476	-0.729848873280289	0.53894578316476	-0.729848873280289	9.44524189011751E-19	-1.78488259908418E-18
50.3	-7.46921329975131E-18	4.60707429497784E-18	0.420393915489201	-0.836521750231468	0.4203939154892	-0.836521750231468	-1.77858036106482E-17	-9.84787702262648E-19
50.4	-1.88133682410535E-17	6.88011750506971E-19	0.23772003525337	-0.856698720918758	0.23772003525337	-0.856698720918758	1.01151080878887E-17	-3.51799630779921E-18
50.5	-6.16943175677669E-18	-7.95589249837997E-18	0.130008450536659	-0.914592329390591	0.130008450536659	-0.914592329390591	-2.29106358421743E-18	1.32081877538618E-17
50.6	-1.99321793181608E-17	-1.27768537260351E-17	-0.0390591142419289	-0.911380923480764	-0.0390591142419287	-0.911380923480764	1.43824114645517E-18	-1.23504441424358E-19
50.7	8.21707652327267E-18	5.1450389307279E-18	-0.172354048229693	-0.889988870038503	-0.172354048229693	-0.889988870038503	1.27247569225591E-17	8.70943980493663E-18
50.8	-1.06878973060469E-17	-1.18266223670709E-17	-0.336048461495664	-0.873053404568619	-0.336048461495663	-0.873053404568619	9.81175486862532E-18	-2.72833492714943E-18
50.9	3.40251014342031E-18	-6.08962398505809E-18	-0.453851538058451	-0.773475229077985	-0.453851538058451	-0.773475229077985	6.51886176612761E-18	-5.94654472470159E-18
51	1.85373361638132E-18	-1.92417614424258E-18	-0.592643366143475	-0.709318199853196	-0.592643366143475	-0.709318199853196	-1.72197603479218E-18	1.19494570843562E-18
51.1	-7.87747191733618E-18	-3.27315990161483E-18	-0.695176254265104	-0.600055432883431	-0.695176254265104	-0.600055432883431	3.74941598702319E-18	5.36159190230096E-18
51.2	-5.29539209327631E-18	2.21229832884345E-17	-0.777393993338565	-0.475998544378464	-0.777393993338565	-0.475998544378464	1.88552304939714E-18	-5.81744873681626E-18
51.3	6.69063213342195E-18	-1.63248055757241E-18	-0.849759714572723	-0.345765818292476	-0.849759714572723	-0.345765818292477	1.18392607422741E-17	-2.72941778957331E-18
51.4	-7.45769486899296E-18	-4.71359144485355E-18	-0.912138990552704	-0.221722709924986	-0.912138990552704	-0.221722709924986	-7.53991553054764E-18	4.70694913188341E-18
51.5	9.30870168572153E-18	-8.52104268381983E-18	-0.901180434974304	-0.0422117295978559	-0.901180434974304	-0.0422117295978558	-4.38903486076688E-19	-2.87743627079853E-18
51.6	2.00109070180426E-18	-1.57063753057489E-17	-0.92157066955117	0.0729591175203544	-0.92157066955117	0.0729591175203542	-5.98698649307149E-18	1.07118838165693E-17
51.7	6.91390681504724E-18	3.30716786014949E-18	-0.912940930014796	0.223958110360973	-0.912940930014797	0.223958110360973	7.69307667860678E-18	1.8462639346173E-17
51.8	-2.51340920433047E-18	-1.13773267079781E-17	-0.807251905229393	0.359369753491821	-0.807251905229392	0.359369753491821	-2.69236935230128E-17	-2.42464316890499E-17
51.9	-2.0026001410097E-17	7.8624295802618E-18	-0.812912697194185	0.492086446995502	-0.812912697194184	0.492086446995503	-1.02975100520422E-17	2.6434055492365E-17
52	-2.94046097320356E-18	2.27474333892674E-17	-0.663052770880585	0.620591076761065	-0.663052770880585	0.620591076761066	2.59146463609805E-17	9.24424418355872E-18
52.1	1.99825839804046E-17	2.16094892973375E-18	-0.566246334425842	0.702545208722008	-0.566246334425842	0.702545208722008	3.18496652853362E-17	-1.30656815842313E-17
52.2	-5.11727282911667E-18	6.88597403212618E-18	-0.475542775883931	0.790170017281943	-0.475542775883931	0.790170017281944	1.37719480642524E-17	1.02345456582333E-17
52.3	-7.29581532396274E-18	4.27507870616306E-18	-0.349209266522126	0.856220512555006	-0.349209266522126	0.856220512555006	8.8013939083321E-18	3.76648996638118E-17
52.4	8.26032855104159E-18	1.64376212075876E-17	-0.1938609105333	0.931462839866456	-0.1938609105333	0.931462839866457	4.50866420069071E-17	-2.49073259141259E-17
52.5	6.51671827240353E-18	-1.39553375954642E-17	-0.0751915768158723	0.879233214756035	-0.075191576815872	0.879233214756034	-4.87739855594166E-17	-1.5257424228564E-17
52.6	6.25727232220413E-18	2.38194933784162E-17	0.0612267686384134	0.951129944010011	0.0612267686384134	0.951129944010012	9.47186293764134E-18	-2.50585066695866E-17
52.7	2.96552858482187E-17	1.10216499867739E-17	0.269151588801272	0.916208368860158	0.269151588801272	0.916208368860159	3.20269531448788E-17	-2.62361840172163E-17
52.8	5.24090974478028E-18	-4.62749432957527E-18	0.289990940684816	0.766566723373986	0.289990940684816	0.766566723373985	-2.32486671222564E-17	-5.09777948123245E-17
52.9	7.41750540861022E-18	-2.07684307476971E-17	0.57501311022039	0.853138695540281	0.57501311022039	0.853138695540281	-2.5771348090365E-17	-3.42047459324793E-17
53	-3.62991721917224E-19	2.64415221754611E-18	0.576475391089043	0.661021268250443	0.576475391089043	0.661021268250443	-1.63186529576732E-17	1.12723994042929E-18
53.1	-3.2891688427442E-18	2.72305184130028E-17	0.697378372047937	0.628058715264038	0.697378372047937	0.628058715264039	7.51285511413498E-18	1.30388526075121E-17
53.2	-6.21509223405697E-18	-1.62817881575486E-17	0.83866438914561	0.49378453813069	0.838664389145609	0.49378453813069	2.15421487046848E-17	4.95923314479432E-18
53.3	6.82199339669566E-18	1.89079990924993E-18	0.85136935098389	0.374582703255428	0.85136935098389	0.374582703255429	-3.15287966827284E-17	-7.74811732824295E-18
53.4	1.02202177944883E-18	1.56333132859561E-17	0.880994668330702	0.177837186346596	0.880994668330701	0.177837186346596	5.57046996812616E-18	-2.04603305889812E-17
53.5	3.20962632295769E-18	-1.76220542416945E-17	0.958015787767634	0.130524570864614	0.958015787767634	0.130524570864615	-1.84916183341502E-17	-1.52321726494769E-17
53.6	-2.29253888388215E-18	-4.39538220568876E-18	0.947621096118132	-0.0755001520107492	0.947621096118131	-0.0755001520107491	-1.9815539824117E-17	-4.76066141532501E-18
53.7	-6.65613776627905E-18	-2.50181191420337E-18	0.856335580774901	-0.22341382888777	0.856335580774901	-0.22341382888777	1.06196804506432E-18	-1.30517734138212E-17
53.8	-4.09773117395297E-17	-2.43151246493648E-17	0.964146429822726	-0.30526046777149	0.964146429822725	-0.30526046777149	2.52676538365966E-18	2.20867208489978E-17
53.9	-3.41310757530756E-17	2.69452442451656E-17	0.817674401920125	-0.474761209818405	0.817674401920125	-0.474761209818404	1.25045566963633E-17	3.12015235235258E-18
54	1.47729103936132E-17	1.32321320970729E-17	0.716733631442341	-0.58622408421486	0.716733631442341	-0.58622408421486	4.34373762333602E-17	1.03073551070104E-17
54.1	-2.01251365696623E-17	-7.35081248113824E-18	0.646157678332807	-0.659667693948528	0.646157678332807	-0.659667693948529	-2.90567302229715E-17	2.57525115357107E-17
54.2	-7.79971730089971E-18	-6.30201480615556E-18	0.549542983993773	-0.764647379837711	0.549542983993772	-0.76464737983771	-1.68316839138578E-18	7.05750238309478E-18
54.3	2.19974106991624E-17	1.55758619441971E-18	0.378248696690431	-0.856530601560707	0.378248696690431	-0.856530601560707	1.07136729042255E-17	-2.21114236773046E-17
54.4	-2.75018920920795E-17	4.6807013966248E-18	0.328976036767292	-0.843904875821585	0.328976036767292	-0.843904875821585	7.08035664024399E-18	7.09753838420357E-19
54.5	-1.1849777644697E-17	1.9662915959771E-17	0.119976226958619	-0.979079442904072	0.119976226958619	-0.979079442904072	1.2280594689052E-17	-4.23059012528565E-19
54.6	-5.8539771773993E-18	-2.76995499408823E-18	-0.00990829608449318	-0.913615250439322	-0.00990829608449319	-0.913615250439322	1.38497749704411E-18	-2.92698858869965E-18
54.7	-1.78650282229586E-17	1.4911215338166E-17	-0.126971135916857	-0.959572220769438	-0.126971135916857	-0.959572220769438	-6.27474024973974E-18	2.35716184950975E-17
54.8	2.31347666746829E-18	-1.35414278669914E-17	-0.292953011476062	-0.920578975374932	-0.292953011476062	-0.920578975374932	9.41319802257231E-18	-7.14586866186369E-19
54.9	1.47078668654671E-18	-5.16669412886685E-18	-0.421061184975335	-0.841071520896794	-0.421061184975335	-0.841071520896794	-8.89450276859115E-18	6.7615677532477E-18
55	5.16954046930673E-19	4.98070553479881E-18	-0.532031433106239	-0.799028891467086	-0.532031433106239	-0.799028891467086	-2.33327978690921E-18	-2.70789713501864E-18
55.1	-7.30316274667366E-18	-4.50190204563679E-20	-0.662029230749324	-0.704164201389487	-0.662029230749324	-0.704164201389487	3.8838351272137E-18	-1.03132357845917E-17
55.2	-1.07140659422883E-17	9.74739412388372E-18	-0.734111071603795	-0.598775099566241	-0.734111071603794	-0.598775099566241	-1.53872420684536E-17	6.33579629502511E-18
55.3	-7.72176973882615E-18	-1.37693222596421E-17	-0.834420176650603	-0.461138767351522	-0.834420176650603	-0.461138767351521	-1.13077101840464E-19	-1.20331135092058E-17
55.4	7.74144242729237E-18	-1.90505117602867E-18	-0.88963878088522	-0.374970759701368	-0.88963878088522	-0.374970759701368	-2.92173510537256E-18	5.1090492486645E-18
55.5	-1.72388005415906E-17	5.733415877934E-18	-0.954538739880291	-0.209483794902166	-0.954538739880292	-0.209483794902167	-1.44637925735754E-17	-2.84414422847027E-19
55.6	-2.23789948245506E-19	-3.24067497995036E-18	-0.949374465719907	-0.0837763674330413	-0.949374465719907	-0.0837763674330415	-3.58725852124569E-18	2.01675727393659E-17
55.7	1.18990927111591E-17	2.05457667793264E-18	-0.976420667214822	0.0524445330409494	-0.976420667214821	0.0524445330409493	1.84385796188194E-17	4.68655869925333E-18
55.8	-8.14830142583166E-18	1.64722750901666E-17	-0.949242429664157	0.210616489821524	-0.949242429664157	0.210616489821524	6.39100947344636E-18	7.87639568387023E-18
55.9	3.03978385528679E-18	-1.50302374602019E-18	-0.914033017834967	0.335813128621408	-0.914033017834967	0.335813128621408	1.0528008674483E-17	-3.09993823097638E-19
56	9.05536010025472E-18	1.7649509124733E-18	-0.829743019354409	0.469329701128711	-0.829743019354409	0.469329701128711	1.51507654754794E-17	-1.2964179382219E-17
56.1	-6.32784002424471E-18	-1.95296909379049E-18	-0.786077323869363	0.580056075602754	-0.786077323869362	0.580056075602754	2.79291092439304E-18	7.79256684458758E-18
56.2	-6.94197121404866E-19	-6.77006385430247E-18	-0.695701911388677	0.701784734940206	-0.695701911388677	0.701784734940206	-6.65762329704695E-18	1.36101726459116E-17
56.3	-7.65158657107413E-18	-2.06097064698272E-18	-0.535909852486141	0.791460107509702	-0.535909852486141	0.791460107509701	-1.61872736191077E-17	6.47278593512827E-18
56.4	-3.31270359323192E-19	4.19249300387634E-18	-0.474768860399906	0.86274603243304	-0.474768860399907	0.86274603243304	1.64387016561822E-17	5.5175744411691E-18
56.5	-7.99072182858615E-19	1.0141217277411E-18	-0.326263260775679	0.941231222459792	-0.326263260775679	0.941231222459792	-6.06361599653426E-18	-2.01194318970318E-17
56.6	-7.72798990639803E-18	2.12271040601029E-18	-0.179382729522522	0.94435085227745	-0.179382729522522	0.944350852277449	-2.43156383183471E-17	1.79820069018576E-17
56.7	-8.24266744450274E-19	-8.27547349361663E-20	-0.0488746540062027	0.976065360010908	-0.0488746540062028	0.976065360010908	-3.95910485729043E-18	6.26311501585753E-18
56.8	-7.74190117858866E-18	6.39653420374846E-18	0.0747139878532422	0.993602443952632	0.074713987853242	0.993602443952633	-2.39680468088095E-18	-1.00887108024601E-17
56.9	5.87550327773489E-18	4.41864023113567E-18	0.223035978759653	0.947564924501448	0.223035978759652	0.947564924501447	1.24674253059349E-17	2.31738356677933E-17
57	1.03437428072546E-17	-6.44733481751454E-18	0.378364774242661	0.872948229752317	0.378364774242661	0.872948229752317	-6.09141842924117E-18	-1.64655020402181E-17
57.1	-8.35750597298632E-18	1.12200016397676E-17	0.485575324719091	0.840561519648358	0.485575324719091	0.840561519648358	-2.75485200285423E-17	4.44977725327201E-17
57.2	-6.66902235051105E-18	-1.73939887040464E-18	0.609338121108402	0.788648680454874	0.609338121108401	0.788648680454873	7.39443522015961E-18	1.26126318313735E-17
57.3	-8.85003797253109E-18	1.65606146860352E-18	0.747414041313923	0.62052736812998	0.747414041313923	0.620527368129981	-6.62907591259016E-18	-2.20757162568236E-17
57.4	1.38303771923096E-18	-1.49258725426054E-17	0.760987129596922	0.546134690582822	0.760987129596921	0.546134690582822	1.75464754687952E-17	-5.12516810812298E-18
57.5	-1.19993313255919E-17	4.1025746716587E-19	0.888755628140964	0.445223786161979	0.888755628140964	0.445223786161979	-2.72771061178955E-17	1.50425618376674E-17
57.6	7.00805521537362E-19	4.73109205173105E-19	0.944147910698508	0.288862460262175	0.944147910698509	0.288862460262175	-2.23575295248327E-17	1.34721349357958E-17
57.7	-2.00936215751576E-18	2.05741798156682E-17	0.932701003341949	0.152507298860162	0.932701003341949	0.152507298860162	1.1467856242937E-17	1.93816354392563E-17
57.8	-2.9648516786457E-17	2.7277560210942E-18	0.982442401103521	0.0383511395460743	0.982442401103523	0.0383511395460746	-1.37664962873304E-17	3.9696062666362E-18
57.9	2.80598133001026E-18	-2.24273850258779E-17	0.991733526960992	-0.0868642541383664	0.991733526960991	-0.0868642541383664	-1.0008996662705E-17	2.63981425678481E-18
58	4.96104096364218E-18	8.45113993000536E-18	0.927041803092857	-0.283340085397756	0.927041803092856	-0.283340085397756	-2.79555244066145E-18	-1.58093485098948E-17
58.1	1.73183838274556E-17	5.69451494096458E-20	0.868455647380167	-0.35805447996262	0.868455647380167	-0.35805447996262	1.91389261880308E-17	1.88949937743841E-18
58.2	1.21465230682541E-17	-4.95718675733668E-18	0.843442212371077	-0.506858466108361	0.843442212371077	-0.506858466108361	6.16687913019904E-18	-6.23342413921625E-18
58.3	-1.98555260954094E-17	3.51695394792502E-18	0.743723423692411	-0.633691099580209	0.743723423692411	-0.633691099580209	-7.94149393906913E-18	-7.98650725428928E-18
58.4	-1.21480237959403E-17	-5.63054118757977E-18	0.647066300040511	-0.666527675780784	0.647066300040511	-0.666527675780784	1.60161531183128E-17	-1.54511121711596E-17
58.5	-1.40643504809927E-17	-2.08061113940416E-17	0.585314735391249	-0.807277647069166	0.585314735391249	-0.807277647069166	-1.00427775626767E-17	-8.51095945628616E-18
58.6	2.07595215131162E-17	2.82345715915514E-18	0.432702744269674	-0.872722659236921	0.432702744269673	-0.872722659236921	1.86374145593628E-17	5.47143593938057E-18
58.7	1.6493592101286E-17	1.64247814606155E-17	0.30101360254862	-0.892238771184555	0.30101360254862	-0.892238771184554	6.45292354613657E-18	1.04665994549754E-18
58.8	3.79705630164785E-18	3.36175780707961E-18	0.192394185362729	-0.942052995149638	0.192394185362729	-0.942052995149637	6.71171008833491E-19	-6.68719782475814E-18
58.9	-3.43363623765348E-18	3.02378063944749E-19	0.0770580808783206	-0.978727130003483	0.0770580808783205	-0.978727130003483	-2.69804928730078E-18	6.34394918545415E-18
59	2.27555300277739E-17	-1.93858487389506E-17	-0.0985752324848808	-0.952444227972781	-0.0985752324848806	-0.952444227972781	1.9709050391388E-17	-6.7643828108484E-18
59.1	2.4877641834158E-18	-2.31490037160222E-19	-0.196407261309948	-0.933994580142774	-0.196407261309948	-0.933994580142774	1.04574035041483E-17	3.16727625213716E-18
59.2	-7.2491367682821E-18	-2.08635543753442E-19	-0.327421139076409	-0.935287252576304	-0.327421139076409	-0.935287252576304	1.90085815522636E-17	1.01663979634836E-17
59.3	5.86967456390393E-18	-1.89934133647709E-17	-0.478600393512832	-0.825537647187871	-0.478600393512832	-0.825537647187871	-1.57695722090986E-17	-2.65862881672552E-18
59.4	-1.23080755761173E-17	-1.12151190537605E-17	-0.554432956117295	-0.786544377014115	-0.554432956117294	-0.786544377014114	-8.97385432526996E-18	-2.02592386374712E-17
59.5	2.15231730453525E-17	3.38796073881498E-20	-0.686907460049041	-0.694636718149313	-0.686907460049041	-0.694636718149313	-1.31486695714367E-17	-8.63237557022818E-18
59.6	-5.64057764370287E-18	3.26167640947689E-18	-0.762271545775389	-0.574386749513568	-0.76227154577539	-0.574386749513568	3.68586499790916E-18	-4.34507987948181E-18
59.7	6.10351298558366E-18	-3.50965994455269E-18	-0.845878081894659	-0.489353748652375	-0.845878081894659	-0.489353748652375	-1.79679767625502E-19	-9.45155994716193E-18
59.8	2.49980098472783E-17	2.74948709749009E-18	-0.914231700154355	-0.361476565749162	-0.914231700154355	-0.361476565749161	-5.61964668909552E-18	-8.71422979647646E-18
59.9	-2.28616937774847E-17	1.74562679537732E-17	-0.943345853056542	-0.244024914517555	-0.943345853056542	-0.244024914517555	-1.21224657973594E-17	-5.30900554206451E-18
60	1.14401417950171E-17	-2.60227694860074E-17	-0.964602735549081	-0.0885560443020648	-0.964602735549081	-0.0885560443020653	1.16033684770793E-17	-9.02507748051553E-18
60.1	-6.10704049328455E-18	-2.04652124639959E-17	-0.960136522823849	0.0303500955176245	-0.960136522823848	0.0303500955176245	1.89887649714593E-17	2.12539864603223E-17
60.2	-3.30656785613349E-17	1.88607854746217E-17	-0.975527324381136	0.144891387940668	-0.975527324381136	0.144891387940668	-3.83223504382344E-18	1.3507823152092E-17
60.3	-2.51639025878324E-18	1.02283037958176E-17	-0.922072519353565	0.313168818215113	-0.922072519353565	0.313168818215114	3.1337291466443E-18	7.04824445996003E-19
60.4	-1.12522090135534E-17	5.02860580935179E-19	-0.869047408720159	0.389346012272513	-0.869047408720159	0.389346012272513	1.90127093212934E-19	3.33164060780332E-18
60.5	4.06576830961385E-18	-9.43962179329123E-19	-0.821830142299359	0.535755227820409	-0.821830142299359	0.53575522782041	7.19836024939159E-18	-9.59838816730969E-18
60.6	-2.10288215337428E-17	-9.32841228288317E-18	-0.736454131425753	0.63571230957568	-0.736454131425753	0.63571230957568	-8.06721642853271E-18	-1.28089009501112E-17
60.7	-1.04381024800694E-17	-3.55206875027373E-18	-0.640067345481255	0.73335725998178	-0.640067345481254	0.73335725998178	3.90468070275932E-18	-1.77707451544094E-18
60.8	9.29099732676443E-18	9.70583817998495E-19	-0.538063593570421	0.820116442319834	-0.538063593570422	0.820116442319835	9.81463744092268E-18	1.653006654244E-18
60.9	-9.97822970112959E-18	9.73926468813993E-18	-0.431116733839702	0.884643580619339	-0.431116733839702	0.884643580619339	-2.64638763048433E-18	2.07033219226102E-18
61	9.98990464952157E-18	8.99824388475338E-18	-0.293899010654665	0.935389009055199	-0.293899010654665	0.9353890090552	6.59662547518961E-18	2.56640323748706E-18
61.1	-1.92436941491144E-17	5.81484322523042E-18	-0.164341666066257	0.951654742130117	-0.164341666066257	0.951654742130118	-7.48532236566655E-18	-3.09409598579173E-18
61.2	4.55600728375534E-18	-2.81087500937724E-17	-0.0500674663754441	0.97339398534401	-0.0500674663754442	0.97339398534401	4.31887477718425E-18	-1.7778615355539E-17
61.3	-1.10787204287234E-17	-2.53353928343409E-17	0.0884327781878081	0.988297048291278	0.088432778187808	0.988297048291277	1.58629658955274E-17	3.75482562144908E-18
61.4	3.14431081602468E-18	-1.41109681756849E-17	0.249051805364385	0.942500547537728	0.249051805364385	0.942500547537728	-5.08992724099716E-18	-8.95855091881802E-18
61.5	2.08827532016529E-17	-4.85162296157769E-18	0.325460938243816	0.902905489497393	0.325460938243816	0.902905489497393	1.09071894040972E-17	-4.36819187099232E-18
61.6	6.52803559020434E-18	1.88283203335898E-17	0.478930468778067	0.882133194178781	0.478930468778067	0.882133194178781	8.57516186686548E-19	-9.34239813269456E-18
61.7	-4.40714272290338E-18	9.36762082584963E-18	0.597943909026697	0.78966412783857	0.597943909026696	0.78966412783857	3.9338845289707E-18	4.86562298244499E-18
61.8	-1.48097045333728E-17	5.41531920743853E-18	0.676153107593082	0.694210038530565	0.676153107593083	0.694210038530566	1.08537363605002E-17	-9.89931026640541E-18
61.9	1.44511123325365E-17	9.58588815065674E-18	0.771774944136123	0.594251633916702	0.771774944136123	0.594251633916702	1.83833280131155E-17	5.14149405099069E-18
62	1.54187580303468E-17	-3.362593399925E-18	0.845149526713164	0.509557154381021	0.845149526713164	0.50955715438102	8.57041736163045E-18	-5.47899809097772E-18
