# GHZ S RI R 50
50	-8.70215850204497E-18	1.30559144564776E-17	0.765678085693413	-0.539642266828975	0.765678085693414	-0.539642266828975	-6.67496075945983E-18	-2.38320236264973E-18
50.1	1.74326827610114E-17	-1.95285729547789E-17	0.643853635764767	-0.645812170007921	0.643853635764766	-0.645812170007921	-7.89938741735631E-18	1.15651037694899E-17
50.2	-6.67339480410307E-18	2.49359430345379E-17	0.542196137890912	-0.73763777381153	0.542196137890911	-0.737637773811531	1.55928935090169E-18	-9.62724817523229E-18
50.3	-2.38220865303747E-17	-8.04725912064299E-18	0.423707870280049	-0.843685020646441	0.423707870280049	-0.843685020646441	9.74984318321794E-18	-2.43950070548597E-18
50.4	-6.32990912205465E-18	5.19624120069483E-18	0.23725669395235	-0.866247992477654	0.23725669395235	-0.866247992477654	-4.91011009577224E-19	-1.91711423701728E-18
50.5	1.75111120675873E-17	9.71812394254916E-18	0.129737976878602	-0.921133070506565	0.129737976878601	-0.921133070506565	-2.68654861717648E-18	3.91345062398017E-18
50.6	9.153790315147E-18	3.5926565020715E-18	-0.0411886905870297	-0.918334535864823	-0.0411886905870294	-0.918334535864823	1.312318207336E-19	1.46001580882437E-18
50.7	2.69654661601103E-18	-1.63002435155555E-17	-0.1757102648137	-0.895017948436627	-0.1757102648137	-0.895017948436627	1.09123710576596E-18	2.67210916887336E-18
50.8	4.04091597635641E-18	-4.69638873685547E-18	-0.338586446920658	-0.878259553547308	-0.338586446920657	-0.878259553547308	9.62937936433532E-18	-7.68399055612447E-18
50.9	-2.34944882544449E-18	-4.51450531478625E-18	-0.459065207297748	-0.776491446010512	-0.459065207297749	-0.776491446010512	1.85348590820338E-18	1.71296845471806E-17
51	-3.26253581076467E-19	-1.5270239435724E-17	-0.596730020175768	-0.712239710511473	-0.596730020175768	-0.712239710511473	6.84825597572692E-18	4.26057229175196E-18
51.1	-2.6228952336794E-17	4.34391856203251E-18	-0.699565265811949	-0.601636262110271	-0.699565265811949	-0.601636262110271	-2.69942047405428E-18	1.90232968568586E-18
51.2	-1.91541508066725E-17	2.70678396670781E-17	-0.781809845301398	-0.476209249453378	-0.781809845301398	-0.476209249453379	4.00150105701788E-18	7.75015634265299E-18
51.3	3.07748605727961E-18	-2.65113646363758E-18	-0.853617283461172	-0.345420531586935	-0.853617283461172	-0.345420531586935	-1.97786447053005E-18	6.27417603154256E-18
51.4	-1.33733755824203E-17	-1.55302524903763E-17	-0.914330246281509	-0.221765541296948	-0.914330246281509	-0.221765541296948	4.12452170771622E-18	-1.08304303794334E-17
51.5	-2.28910457039146E-17	1.26303059622602E-17	-0.904790828011226	-0.0396482376880853	-0.904790828011226	-0.0396482376880855	-1.91524114997555E-18	5.54513226168323E-18
51.6	6.94571146907841E-18	3.38645368650997E-18	-0.922353621645454	0.0744179159738919	-0.922353621645454	0.0744179159738919	-2.75831751247393E-17	1.20044539110239E-17
51.7	-3.21048498743836E-18	1.20696509185485E-17	-0.913321375535543	0.224459036124812	-0.913321375535543	0.224459036124812	-7.02750155418837E-18	-1.36407658876224E-17
51.8	4.68744154222084E-19	-4.11724420563594E-18	-0.806639301815686	0.363473564939409	-0.806639301815686	0.363473564939409	1.97141676397597E-17	-7.94416657190765E-18
51.9	1.40303108233852E-17	-9.94824051938636E-18	-0.811853285378151	0.491094862233784	-0.81185328537815	0.491094862233784	1.52825716201287E-17	4.48344143637567E-18
52	-6.32095025903613E-19	1.03781316176203E-17	-0.662182897138738	0.623078773787456	-0.662182897138738	0.623078773787456	7.65155423134591E-18	1.59113772475641E-17
52.1	8.34694093804484E-18	4.99831544875441E-18	-0.56373036497564	0.7038667488965	-0.56373036497564	0.7038667488965	2.11688853337011E-17	-1.52192329014161E-17
52.2	-2.04222776275661E-17	-2.40822388287383E-18	-0.473093798247122	0.788905647619357	-0.473093798247122	0.788905647619357	-2.71984768000821E-17	2.04181966826572E-18
52.3	1.26301840658847E-17	9.2070050521224E-18	-0.346909222022929	0.853886108127524	-0.346909222022929	0.853886108127524	4.3241673224203E-17	3.79690798797437E-17
52.4	1.28227930185545E-17	1.75353617092026E-17	-0.193888589069855	0.929417292070627	-0.193888589069855	0.929417292070628	5.52427221901272E-17	-1.49244799289365E-18
52.5	-1.7574909555229E-17	-1.60769873325677E-19	-0.0709242918523575	0.87479501047642	-0.0709242918523574	0.874795010476419	2.00544362078707E-18	8.45094378894323E-18
52.6	-1.95911561027025E-18	2.77207840029951E-17	0.0600461642234936	0.945534197345524	0.0600461642234935	0.945534197345524	5.09684989958351E-17	3.03898369081753E-17
52.7	-1.0995708036918E-17	-2.0074398039231E-17	0.267868526714434	0.914355803086955	0.267868526714435	0.914355803086954	7.75024432904671E-18	6.25549847120713E-18
52.8	-4.77839384417273E-18	-1.82477797775462E-18	0.294519506657752	0.756690140012371	0.294519506657752	0.756690140012371	-5.05676987980919E-18	4.63920582635451E-18
52.9	-1.77148227444016E-17	4.00504534070198E-17	0.568495045349815	0.853501789341433	0.568495045349815	0.853501789341432	-2.29649821344902E-18	6.2305859627674E-17
53	1.01181695374024E-17	3.94619556048665E-18	0.575820118016208	0.653945475899681	0.575820118016208	0.653945475899681	9.11817906012994E-18	1.17848203328566E-17
53.1	-7.02337046047017E-18	-9.45294805092658E-18	0.691041802027593	0.622642637443137	0.691041802027593	0.622642637443137	-1.73441001766594E-17	-2.15797616135256E-17
53.2	-1.08643114582558E-17	-1.8107724314306E-17	0.832437981808205	0.492690748044534	0.832437981808205	0.492690748044534	9.2002356623581E-19	5.04980739879166E-18
53.3	1.78296952202233E-17	9.62758109368755E-18	0.843549926036758	0.370831808244214	0.843549926036758	0.370831808244215	8.68236439456561E-18	-7.96668630663391E-18
53.4	9.96872147982872E-18	-1.68562550411931E-17	0.876330410346033	0.174072855193088	0.876330410346032	0.174072855193088	-3.42454131206E-17	-4.03878690924183E-17
53.5	5.01515095958088E-18	5.53790302303809E-18	0.946438987200837	0.131585866283662	0.946438987200837	0.131585866283662	-2.87252903013994E-17	-3.20589394561109E-18
53.6	-3.08361556979388E-18	5.16965192976395E-18	0.939741744259293	-0.0738781119997214	0.939741744259293	-0.0738781119997211	-4.76517519491481E-18	9.33718710727108E-18
53.7	-2.81087639029238E-18	1.69984756915212E-17	0.848641078293823	-0.225047723122327	0.848641078293823	-0.225047723122328	6.35049644454694E-18	2.02391881789397E-17
53.8	4.63748493293983E-18	6.76364516380336E-18	0.952913360220871	-0.29530801510352	0.952913360220872	-0.29530801510352	-2.46543427401096E-17	1.89975524119411E-17
53.9	-1.19077712503966E-17	-2.95799283064413E-17	0.809459864799218	-0.46886603046646	0.809459864799219	-0.46886603046646	7.49294464492006E-18	2.35476571544059E-17
54	1.69715308247821E-18	9.99092013638408E-18	0.708731839535036	-0.580124060149451	0.708731839535036	-0.580124060149451	-4.84325852487036E-18	-5.42958375252543E-18
54.1	1.07197437178655E-17	-3.09569835746922E-18	0.63703714472605	-0.650254019700911	0.63703714472605	-0.650254019700911	2.72676677130984E-18	-7.24487756821948E-18
54.2	3.42989844666208E-18	-1.45297303028366E-17	0.542785323222372	-0.752857620705042	0.542785323222372	-0.752857620705042	-1.46497051119262E-17	3.30379259625355E-18
54.3	-1.89423374205793E-18	1.78066705063385E-17	0.374416869349322	-0.846800337452009	0.374416869349322	-0.846800337452009	5.15793930757259E-17	3.34927171079522E-17
54.4	-4.87143768443034E-19	-1.1601667979685E-17	0.322602456811719	-0.827526115220934	0.322602456811719	-0.827526115220935	3.70484140374731E-18	-4.02960391604267E-18
54.5	-9.68952596547468E-18	-4.16340456022015E-17	0.122586278821383	-0.96687334751979	0.122586278821382	-0.96687334751979	1.44591339126573E-17	-9.88649737495861E-18
54.6	1.75068336128017E-17	-3.21450955265769E-18	-0.0103247240068509	-0.900245037761296	-0.0103247240068507	-0.900245037761295	2.36390255853341E-17	-1.17938624101541E-17
54.7	-4.6341822157819E-18	-5.29414322571784E-18	-0.121270534758909	-0.944575098434564	-0.121270534758909	-0.944575098434564	-6.1395686785995E-18	-3.27511870826534E-18
54.8	1.19715228698925E-17	-6.91492289305892E-19	-0.285493151419856	-0.907862713277275	-0.285493151419856	-0.907862713277274	-1.120639016887E-17	5.90553478769765E-18
54.9	-1.03099385217347E-18	-1.10441335610672E-18	-0.413259879949025	-0.828861923545993	-0.413259879949025	-0.828861923545993	-1.14699842186964E-17	5.33100863031685E-18
55	2.04786783492112E-18	1.09455020039326E-17	-0.520110414613034	-0.787184473271524	-0.520110414613033	-0.787184473271523	8.21999037839576E-18	4.34425091767044E-18
55.1	-1.16950735702237E-17	-1.35187011875071E-18	-0.648598897004889	-0.695166284744962	-0.648598897004889	-0.695166284744962	-9.22308336452556E-18	-2.99778615483789E-18
55.2	-8.02620241989613E-18	7.71913571119133E-18	-0.719048297843801	-0.589965808718512	-0.719048297843802	-0.589965808718512	-1.53041118133373E-17	-1.23991969964891E-20
55.3	-1.43009295505404E-17	1.02184855397175E-17	-0.819356372533607	-0.455901256245381	-0.819356372533607	-0.45590125624538	-2.99877887248455E-17	2.39890509218196E-17
55.4	1.4148980407881E-17	-6.01539716994143E-18	-0.870611244137713	-0.371722698724673	-0.870611244137713	-0.371722698724672	1.6532350956022E-17	-1.84061963668682E-18
55.5	-7.49364473740133E-18	8.78768328649011E-19	-0.936904468646626	-0.210427085146402	-0.936904468646626	-0.210427085146402	6.31182886233672E-18	-5.86154704711572E-18
55.6	-5.296401115644E-18	3.63816114963053E-18	-0.930448171968376	-0.0856137833274377	-0.930448171968376	-0.0856137833274379	-1.00400555759502E-17	4.29813487750287E-18
55.7	-2.89817254525023E-18	-9.32522596388214E-18	-0.957276031522039	0.0459507231894074	-0.957276031522039	0.0459507231894073	9.83691630987568E-18	8.65754676726748E-18
55.8	5.25542873096935E-18	-8.45174203509276E-18	-0.931955523342216	0.201801733229744	-0.931955523342216	0.201801733229744	-1.08330987790188E-17	-1.24028394154249E-17
55.9	-7.58217319959029E-18	3.21915326389189E-18	-0.897071675163761	0.32388389995175	-0.897071675163761	0.323883899951749	-1.17063712754899E-17	-6.68807377836235E-18
56	2.08000366818555E-18	-5.00586511673703E-19	-0.814645280274818	0.456520461263414	-0.814645280274817	0.456520461263414	1.70629582356673E-17	6.89591275921182E-18
56.1	-1.11880376954564E-18	-1.20091206272789E-17	-0.772392222533389	0.562452608574299	-0.772392222533389	0.562452608574299	1.25929453501081E-17	7.38969191128164E-18
56.2	1.78071519735836E-18	8.11727338874372E-18	-0.685476294982759	0.681810773069365	-0.685476294982758	0.681810773069365	1.76278245476792E-17	3.90115993550093E-17
56.3	-9.85403813926057E-19	-4.32012290482052E-19	-0.528271959979127	0.773356164792819	-0.528271959979127	0.773356164792818	-3.45609832385641E-18	7.88323051140845E-18
56.4	3.41997019547406E-18	-2.09574591837181E-18	-0.469911705680689	0.839084690977206	-0.469911705680689	0.839084690977205	-1.63509498250624E-18	3.11090912918699E-17
56.5	-6.08368865020122E-18	-1.07851025442648E-17	-0.326209981999291	0.91798775535674	-0.326209981999291	0.91798775535674	5.10902824649806E-18	4.1557974998842E-18
56.6	5.76454884417171E-19	-1.41641294571477E-18	-0.180320703359934	0.921423913472657	-0.180320703359934	0.921423913472658	1.44276326340282E-17	9.17382962001843E-18
56.7	4.03593348125332E-18	-7.48497136368872E-18	-0.0543590994523476	0.952542298041956	-0.0543590994523474	0.952542298041957	4.21557915983571E-18	-9.05382390785942E-18
56.8	1.94427746889466E-18	1.46090185336835E-17	0.0642282555396362	0.969458797109034	0.0642282555396362	0.969458797109033	-8.49567188860779E-18	4.4346181273653E-18
56.9	-4.76268107880956E-18	-8.1099068889207E-18	0.210725232742263	0.925242831145779	0.210725232742263	0.925242831145778	-1.70765206388505E-17	-2.47230746620817E-17
57	2.43930957442746E-17	2.62224430711223E-18	0.365036721787293	0.853839854428175	0.365036721787293	0.853839854428176	3.07377939045681E-17	2.4787387141467E-18
57.1	-5.21433284806917E-18	-9.43030221937714E-18	0.467075587460945	0.822266446436469	0.467075587460945	0.822266446436469	2.20264190031211E-18	2.65990725692746E-17
57.2	-1.5139757013578E-17	2.53448919544269E-18	0.586133311779018	0.773569077125207	0.586133311779017	0.773569077125206	-9.24215420846076E-20	3.05262934233944E-17
57.3	-4.16121204297668E-18	-5.62714410273263E-18	0.72715059279903	0.611044738074393	0.72715059279903	0.611044738074392	-1.15372995837654E-18	-1.5685028246764E-17
57.4	5.5582947916934E-18	-1.54056900356823E-17	0.736346154403317	0.534635427067446	0.736346154403317	0.534635427067446	1.92261258773239E-18	3.37412657163871E-17
57.5	-2.24566942571989E-18	6.61935637987325E-18	0.861333047769477	0.441502601167314	0.861333047769477	0.441502601167314	4.43441956451099E-18	4.23504746527878E-17
57.6	3.88287266228757E-18	7.55661265904644E-19	0.917875185375892	0.289188216068522	0.917875185375893	0.289188216068522	-1.30314292663433E-17	-5.19502431198118E-18
57.7	-2.07579201955081E-18	-7.24013795869843E-19	0.906260278846456	0.153512019739125	0.906260278846456	0.153512019739125	-8.49566681432069E-18	1.10067245255652E-17
57.8	-1.20554941960351E-17	1.22304828548186E-18	0.954545553358546	0.0459921178013829	0.954545553358547	0.0459921178013833	-1.17732282798213E-17	1.47793217861668E-17
57.9	2.29770371356437E-17	-1.38062056390012E-17	0.963752927592781	-0.0741305551996334	0.963752927592781	-0.074130555199633	1.66987658598051E-17	1.92601354166796E-18
58	-1.27478323879436E-17	-1.38425938738878E-17	0.904987765143047	-0.269617189972276	0.904987765143048	-0.269617189972277	6.01335038563266E-18	2.3328676862569E-17
58.1	2.04824501507831E-17	-7.81068825343474E-18	0.844306035741793	-0.341740933714537	0.844306035741793	-0.341740933714536	-3.15790080304173E-18	-5.33096738868489E-18
58.2	-5.15714373919093E-18	4.38275011376992E-18	0.823769793829804	-0.484417491707691	0.823769793829804	-0.484417491707692	2.10786360534079E-17	4.47347851857263E-18
58.3	6.37839866900378E-18	-1.79367450595412E-17	0.728171570330234	-0.609782354077745	0.728171570330235	-0.609782354077746	-1.30988716476489E-17	-2.45899227414433E-17
58.4	9.75130325571772E-18	-2.95740251763069E-18	0.63000934427893	-0.640277389110949	0.630009344278929	-0.640277389110949	1.29123453961374E-17	1.93894733876638E-17
58.5	1.42745761215323E-17	2.4615767661879E-18	0.576212987849558	-0.775601580973849	0.576212987849558	-0.775601580973849	-8.65006589496977E-18	-2.86849243335586E-17
58.6	9.0784179706605E-18	-8.5551931003384E-18	0.427469215099867	-0.842139748986167	0.427469215099867	-0.842139748986167	-1.83593483063018E-17	-1.72435570669818E-17
58.7	6.15026057832186E-18	8.49223552355966E-18	0.297719582627156	-0.861178724682346	0.297719582627157	-0.861178724682346	-7.39943573283084E-18	8.83969960162095E-18
58.8	-2.72475838750961E-18	1.52100821415959E-17	0.194803326488002	-0.90896385207767	0.194803326488002	-0.90896385207767	-2.87361127419655E-18	-4.5778467631212E-18
58.9	2.14877012085349E-17	3.9292896230902E-18	0.0856479544772293	-0.944514781455427	0.0856479544772296	-0.944514781455427	-1.17173593158642E-17	-5.31497995727082E-18
59	9.818158560346E-18	-4.14514844412366E-18	-0.087133651965893	-0.922265065143206	-0.087133651965893	-0.922265065143206	1.9464848776257E-17	6.70790456246863E-18
59.1	7.63433373454237E-18	-7.86966780179855E-19	-0.180269385433854	-0.902789363408705	-0.180269385433854	-0.902789363408706	4.47472061456951E-18	-1.22114101754918E-17
59.2	-4.77958204854704E-19	-6.32672368609212E-19	-0.303932731458779	-0.906530023988232	-0.30393273145878	-0.906530023988232	-1.64142569712987E-18	1.11581146606061E-18
59.3	8.27207801741765E-18	-1.98558401295796E-18	-0.455150750175517	-0.80192465316636	-0.455150750175516	-0.80192465316636	4.44117609841183E-18	6.94685239405503E-18
59.4	7.87808544142247E-18	7.01141497022627E-18	-0.524863688345249	-0.763600443924529	-0.524863688345249	-0.763600443924529	9.99253030166264E-18	-7.33231041178803E-18
59.5	-1.38114125757647E-17	-1.83570287689999E-18	-0.654580866615781	-0.678050896099821	-0.654580866615781	-0.678050896099821	-2.01269062807973E-17	2.37441452750302E-18
59.6	-2.23361504506002E-17	7.42375770750783E-18	-0.728939392607024	-0.561271010490365	-0.728939392607024	-0.561271010490366	-1.27995876169914E-17	1.47739297215685E-17
59.7	-4.22234553917896E-18	-2.95775982432963E-18	-0.808625935823799	-0.481811686881579	-0.8086259358238	-0.48181168688158	-6.19065551055812E-18	-1.06308251585598E-17
59.8	-1.43310299041506E-17	-3.21544839129146E-18	-0.876332643265986	-0.359869373955866	-0.876332643265987	-0.359869373955867	-9.34040498214841E-18	2.80903679852649E-18
59.9	8.83803797443627E-18	1.57995359639015E-20	-0.904229452778139	-0.24683206828334	-0.904229452778139	-0.24683206828334	7.06018744233397E-19	7.05200423784447E-18
60	-8.00437123938893E-18	1.39792780242439E-18	-0.92761366318039	-0.0966357858817107	-0.92761366318039	-0.0966357858817107	7.69416179794639E-18	-7.24570444805823E-18
60.1	1.17081148040834E-17	-3.40690924897719E-18	-0.92309565056711	0.0176281713869514	-0.92309565056711	0.0176281713869517	1.40656988681284E-17	2.02477159126894E-19
60.2	2.8504518485389E-17	1.00235638144172E-17	-0.938892755926855	0.124727933703968	-0.938892755926855	0.124727933703968	-6.96307183266834E-18	1.07721835948623E-18
60.3	-1.34273175043304E-18	-1.22036650741403E-17	-0.891015563964346	0.289712291320344	-0.891015563964346	0.289712291320344	-1.2091549684444E-17	-1.09237891412318E-18
60.4	-6.12495686191833E-18	-2.56070822243009E-17	-0.837562721008437	0.361632125807743	-0.837562721008437	0.361632125807743	6.86532118185923E-18	-9.70528090353009E-19
60.5	-1.26729144701226E-17	3.3293798528987E-18	-0.796627046001784	0.502474202458304	-0.796627046001783	0.502474202458304	-5.79163085249483E-18	-6.17488105890167E-18
60.6	1.63570114665246E-19	7.70023804920513E-18	-0.71530646465836	0.599224516031547	-0.715306464658361	0.599224516031548	-5.38779374029418E-18	4.4107499551839E-18
60.7	-4.25169182555049E-18	-1.85508318118584E-17	-0.624238767829573	0.694090712549577	-0.624238767829573	0.694090712549577	2.02959412306641E-18	1.19460159813353E-17
60.8	-2.12269139699196E-17	1.35969791040342E-17	-0.52819273762968	0.778290799320522	-0.52819273762968	0.778290799320522	4.3357939109806E-18	4.67647621390397E-18
60.9	-5.79862306773836E-18	5.78749641431617E-18	-0.426967088581545	0.840644533575962	-0.426967088581545	0.840644533575963	-7.06039995272591E-20	-6.63262619476011E-18
61	-1.06130977516412E-17	-1.65111396925239E-17	-0.295898544140854	0.891797850077266	-0.295898544140854	0.891797850077267	-1.01289055616282E-17	-7.55306895299964E-18
61.1	4.53446009072142E-18	-9.56496012758074E-18	-0.171215286365555	0.908301383372954	-0.171215286365555	0.908301383372953	1.13810169733057E-17	-1.38502911738422E-17
61.2	6.84588764844023E-18	5.50263318442938E-18	-0.0636074822114978	0.929668582890009	-0.0636074822114981	0.929668582890009	6.24877050495128E-18	-6.74330672231043E-18
61.3	-6.29880194419355E-18	5.63995523613937E-18	0.0674699302747178	0.946903989742907	0.0674699302747185	0.946903989742907	1.6409091779582E-18	-9.21702768699723E-18
61.4	2.11483310807408E-17	1.36308011803856E-17	0.224296404954186	0.906205459093192	0.224296404954186	0.906205459093194	-7.7227898487294E-18	6.42255155176596E-18
61.5	-2.00941178288685E-17	7.25680055584983E-18	0.295491688017586	0.86612779234958	0.295491688017586	0.866127792349581	1.42092186482295E-19	4.93807216442269E-18
61.6	-5.91492778657123E-18	5.60264881370883E-18	0.441341800721411	0.852220147387859	0.441341800721411	0.852220147387858	1.04431468185367E-17	-9.35953068788604E-19
61.7	3.30504724783299E-18	1.00505860167377E-17	0.557807422615812	0.765286806690569	0.557807422615811	0.765286806690569	1.08959595299324E-17	6.77175130373476E-18
61.8	6.17036274423378E-18	-3.70464746727381E-18	0.633286677811633	0.673535366490991	0.633286677811634	0.673535366490991	-6.17036274423378E-18	3.70464746727381E-18
61.9	-1.5991198587434E-18	6.50950532793435E-18	0.72626025300999	0.58014867802541	0.726260253009991	0.58014867802541	-1.02458257071189E-17	9.04444458850083E-18
62	3.97025803296136E-18	8.31073339337457E-18	0.795724243216964	0.50172444212264	0.795724243216964	0.50172444212264	-1.36815393805422E-17	-2.82077715409838E-18
