# GHZ S RI R 50
50	1.29734085701813E-17	-1.71925910628985E-17	0.841860293565603	-0.602728916151251	0.841860293565602	-0.602728916151251	1.64451818306921E-18	-1.40463710345266E-18
50.1	2.33859994423915E-18	1.49984355497629E-17	0.706047452453413	-0.722540739191618	0.706047452453413	-0.722540739191619	6.26937968452974E-18	-1.60826608933726E-17
50.2	-1.18793183104772E-17	9.18559636594138E-18	0.589273439326888	-0.822213731248277	0.589273439326888	-0.822213731248277	1.93604554125436E-18	-5.34317040870327E-18
50.3	1.46975349567468E-17	6.70121988320533E-18	0.457429816118336	-0.933910206936105	0.457429816118336	-0.933910206936105	-1.30071651810839E-17	7.71808512084373E-18
50.4	-1.05330790121371E-17	1.52960433908471E-17	0.251325051794305	-0.963565125214601	0.251325051794306	-0.963565125214602	-7.17479663340833E-18	-3.03032904425908E-18
50.5	-2.29896244561624E-17	5.32007885991491E-18	0.12944138017146	-1.01584775876125	0.129441380171461	-1.01584775876125	-3.0659463237014E-18	-2.67349084161226E-18
50.6	-2.50976544313749E-18	9.27329053061594E-18	-0.0588825152955632	-1.01238111429009	-0.0588825152955632	-1.01238111429009	-8.44601413812705E-18	4.5779564243597E-18
50.7	-1.12400310851857E-17	-2.51927662747258E-17	-0.209298214562807	-0.982791018997048	-0.209298214562807	-0.982791018997048	-6.22592768219356E-18	-1.05812312977108E-18
50.8	8.4551632596838E-18	3.48000956137778E-18	-0.384760224757626	-0.960359043081955	-0.384760224757626	-0.960359043081955	2.56397653986157E-18	2.68621604499527E-18
50.9	4.62864511109722E-18	-5.34935245680474E-18	-0.52086032951553	-0.847184278815984	-0.52086032951553	-0.847184278815984	4.5749272810645E-18	6.15958951923347E-18
51	-1.04600993326975E-17	8.98443565389281E-18	-0.667839528554501	-0.772755939307196	-0.667839528554501	-0.772755939307196	-3.2739868567792E-18	-1.51105824252763E-17
51.1	1.01204827155655E-17	-4.14476556238588E-18	-0.779790780026827	-0.648511931498346	-0.779790780026827	-0.648511931498346	0	0
51.2	-2.15559701480905E-18	1.22968618199314E-17	-0.868634225100168	-0.5081312201146	-0.868634225100168	-0.5081312201146	-7.65672540359045E-18	4.30495986220214E-18
51.3	1.46657245993327E-17	1.02287311795178E-17	-0.944092501876274	-0.3625844914847	-0.944092501876275	-0.3625844914847	1.41145147315299E-17	-6.38820942519372E-18
51.4	1.52692435608618E-18	3.77023443547537E-18	-1.00483441129197	-0.225002402664401	-1.00483441129197	-0.225002402664401	1.07848613442014E-17	-5.0828903079367E-18
51.5	-1.9371436180819E-18	-1.31360014236203E-17	-0.996087693899609	-0.0246047362309342	-0.996087693899609	-0.0246047362309345	-1.28256710074968E-17	-1.96016361291126E-17
51.6	-9.98172758178132E-18	-8.84968000159201E-18	-1.00742383353062	0.102066504464987	-1.00742383353062	0.102066504464987	-1.8791966178499E-17	2.16202642425316E-19
51.7	1.0279650535219E-17	4.34112440694829E-19	-0.99280240350402	0.264697479004154	-0.99280240350402	0.264697479004154	1.7435385687062E-17	2.58898898051861E-17
51.8	-2.17166549023869E-18	-3.8443027190744E-18	-0.876577115777779	0.420584940417494	-0.876577115777779	0.420584940417494	5.80868961605682E-18	1.30685273670898E-17
51.9	-7.92889720909591E-18	-9.24816212733634E-18	-0.872923759913877	0.553295818885904	-0.872923759913877	0.553295818885904	2.45145023207998E-17	-5.19464230781871E-17
52	-9.35061920411601E-18	-7.92939533484528E-18	-0.711350001746332	0.698934471575475	-0.711350001746332	0.698934471575474	1.74774456577796E-17	-1.26334902077137E-17
52.1	-4.10769665501339E-18	4.20109780953339E-18	-0.598517297659169	0.78549007605912	-0.59851729765917	0.78549007605912	3.06463458714549E-17	2.97082359018851E-18
52.2	-9.57004269468735E-18	-1.25914247632478E-17	-0.49488666761283	0.872864464660093	-0.49488666761283	0.872864464660093	-9.7355088602675E-18	7.3734918944996E-19
52.3	1.11096677506652E-18	-2.64195469273183E-17	-0.354733757096727	0.939672534435696	-0.354733757096727	0.939672534435696	2.46992629597334E-17	-1.56960028979152E-18
52.4	-1.54128095613262E-17	-6.44873218271299E-18	-0.189487218605901	1.01676834199295	-0.1894872186059	1.01676834199295	-5.20014735612461E-17	3.16398637033927E-17
52.5	1.72512213101969E-17	-1.2658095871828E-17	-0.0477573168171419	0.956314857084409	-0.0477573168171418	0.956314857084409	-1.85117841435404E-17	-3.06243746605731E-17
52.6	3.61491815605102E-18	2.5396163607805E-17	0.0908535208092375	1.02338633950138	0.0908535208092372	1.02338633950138	-2.41937334988344E-18	-1.35186814559711E-17
52.7	-1.76094253217682E-17	9.49390279288267E-19	0.312942341582282	0.989772067113506	0.312942341582282	0.989772067113505	9.58603433471209E-18	5.26634462554842E-17
52.8	1.77455085740498E-17	-1.51917772119376E-17	0.355636148870181	0.812542194789282	0.355636148870181	0.812542194789282	-3.03128898911998E-17	-9.41836047960418E-18
52.9	8.10466383549736E-18	-3.35416387316E-17	0.631426567952289	0.913751942369844	0.631426567952289	0.913751942369843	-2.81222366060591E-17	2.5974027238094E-17
53	-1.54553222095814E-17	-4.10184737976047E-18	0.651097320727007	0.692787359968018	0.651097320727006	0.692787359968018	2.40101070550343E-18	1.19316589920375E-17
53.1	-1.05947364555142E-17	1.15363028508556E-17	0.767398701472289	0.652196276477723	0.767398701472288	0.652196276477723	-5.45876502070965E-18	-1.15876795858273E-17
53.2	1.58376823299432E-17	1.49073554421906E-17	0.914840434495561	0.512565070528339	0.91484043449556	0.512565070528338	4.56523932143244E-17	-1.67680092176959E-17
53.3	-2.029193691059E-18	6.45255659611803E-18	0.925465397544314	0.374121986265554	0.925465397544314	0.374121986265554	-2.75870555401701E-17	3.10323442293126E-17
53.4	6.51093523328221E-18	4.6725048498824E-17	0.961270445894489	0.16154996598275	0.961270445894489	0.16154996598275	2.69607110668004E-17	1.2813431633999E-17
53.5	-1.37613504778664E-17	1.10804417329206E-17	1.02363606814775	0.112103430609915	1.02363606814775	0.112103430609915	4.78876883146462E-17	4.96368764505178E-18
53.6	2.00825213689082E-17	-2.28392819266276E-17	1.01580568555943	-0.108074738929643	1.01580568555943	-0.108074738929643	-3.16205927744751E-17	-1.35633179955566E-17
53.7	-3.7896053486525E-18	1.01231446330134E-17	0.916712359583246	-0.275456036138928	0.916712359583246	-0.275456036138929	-1.78830353797876E-18	5.9436787488648E-18
53.8	9.81871910087299E-18	2.2537554168003E-17	1.01333382438583	-0.344740934227804	1.01333382438583	-0.344740934227804	2.8352293260402E-17	-2.181615196641E-17
53.9	2.76124307542528E-18	-7.55524539720103E-18	0.860171548088257	-0.533160434081857	0.860171548088257	-0.533160434081857	-5.57408363223189E-18	-4.75272433667069E-18
54	1.16726970329942E-17	2.88684880600131E-18	0.747598028036975	-0.652447894488131	0.747598028036975	-0.652447894488131	8.34589396708539E-18	2.00159601016994E-18
54.1	2.74188882476928E-17	1.51936139462745E-17	0.662961657898962	-0.72504829494623	0.662961657898962	-0.72504829494623	3.03174250437067E-17	6.44507391574522E-19
54.2	-1.48011855135628E-17	1.54198604419328E-17	0.557901357515157	-0.830405824942211	0.557901357515157	-0.830405824942212	5.83980396265708E-18	5.11680364299297E-18
54.3	1.26216395441491E-17	1.95466691932123E-17	0.376855809710042	-0.929146383249514	0.376855809710043	-0.929146383249514	9.64592789598862E-18	-1.49421167319909E-17
54.4	-1.14042124727983E-17	-5.92506492927522E-18	0.31118578198547	-0.901861557211406	0.311185781985469	-0.901861557211406	-5.8421287375154E-18	7.45776021631457E-18
54.5	-1.10870459193278E-18	1.54142781214125E-17	0.102934016520658	-1.04613124619848	0.102934016520659	-1.04613124619848	1.24254886005664E-17	1.61493840232396E-17
54.6	2.72036066820933E-17	1.72363904254356E-17	-0.045742411667107	-0.972096451322975	-0.045742411667107	-0.972096451322975	3.08545106523709E-19	3.27126916683239E-18
54.7	1.11324637718765E-17	3.96874149528133E-18	-0.163233053941	-1.0106044390665	-0.163233053941	-1.0106044390665	1.02034817800834E-17	4.46223077784636E-19
54.8	1.29390522162226E-17	6.00257286324872E-18	-0.338335916310483	-0.967547620867604	-0.338335916310483	-0.967547620867604	1.9597297317135E-17	2.16703791722471E-17
54.9	-1.64681797709157E-17	-1.6893433074493E-18	-0.475829539270132	-0.878433666767191	-0.475829539270132	-0.878433666767191	-4.35052709417272E-18	-2.83748002421355E-18
55	-2.27266066677445E-18	1.09758907307367E-18	-0.587395998784329	-0.826876887357126	-0.587395998784329	-0.826876887357126	7.32803527654663E-18	6.65018317477514E-19
55.1	-5.4563859194914E-18	2.73076972080701E-18	-0.721982374217886	-0.724716822749404	-0.721982374217886	-0.724716822749404	1.79474104183222E-18	5.45284747639804E-18
55.2	1.13957074000838E-17	-1.25659221208186E-17	-0.79507776274856	-0.606512557713537	-0.79507776274856	-0.606512557713537	3.83692653184279E-18	-3.52265445109767E-17
55.3	-1.89474028582356E-18	1.25299850159005E-17	-0.898764429890898	-0.460972941509237	-0.898764429890898	-0.460972941509237	-1.78353641176996E-17	2.37094441160631E-17
55.4	-4.81421833200323E-18	-1.35027896261213E-18	-0.947293149872825	-0.365840168924674	-0.947293149872825	-0.365840168924674	2.45627586309087E-18	-1.46821755307654E-17
55.5	6.85301068012853E-18	-2.26050927455075E-18	-1.01390314681342	-0.192954848269801	-1.01390314681342	-0.192954848269801	-4.41435081830325E-18	-8.94533455434034E-18
55.6	4.99156714206787E-18	5.58813291580887E-19	-1.00198590952844	-0.0559122555731389	-1.00198590952844	-0.0559122555731392	-1.83469531689542E-17	2.25574331703382E-17
55.7	-1.46034664733424E-17	1.50233912687309E-18	-1.02402169428767	0.0846397968548939	-1.02402169428767	0.084639796854894	-1.38540932295171E-17	1.71594788179194E-17
55.8	4.16026194814997E-18	2.91758954272841E-18	-0.992446108307284	0.251062869895724	-0.992446108307284	0.251062869895723	8.53665125404235E-18	-1.28806034857942E-17
55.9	8.77892844497847E-18	9.1728403685803E-18	-0.948947968086137	0.38092617644605	-0.948947968086138	0.38092617644605	1.3534168025098E-17	-2.91023905971984E-18
56	2.3996916931445E-18	-4.65408482207828E-18	-0.856529807602873	0.522047844298549	-0.856529807602873	0.52204784429855	-2.18159282125058E-17	-3.39332034314031E-18
56.1	1.62935333230216E-17	2.51277664259305E-19	-0.804823640206947	0.631532663798384	-0.804823640206947	0.631532663798384	-2.51815328993675E-18	2.55515103166798E-17
56.2	8.33786818252689E-18	-4.26565602641207E-18	-0.707862255646146	0.755236101902674	-0.707862255646146	0.755236101902674	5.08337885194338E-18	-7.77982337415287E-18
56.3	-1.09471112053303E-17	-3.54933195684542E-18	-0.537397068153354	0.851522385866491	-0.537397068153354	0.851522385866491	-2.06393001203995E-17	9.83906002164363E-18
56.4	8.58027852103845E-18	-2.42172641042389E-17	-0.469468171414134	0.914783040536947	-0.469468171414133	0.914783040536947	8.80828512200463E-18	-1.76086191842978E-17
56.5	-9.22574810081698E-18	1.31148667556833E-17	-0.314662767830408	0.994207549922181	-0.314662767830409	0.99420754992218	1.32584907476705E-17	1.39396722964161E-17
56.6	4.85141054671576E-18	-7.47806293281726E-19	-0.155684983035811	0.994051335698945	-0.155684983035811	0.994051335698945	3.45771803457321E-17	1.29475815279859E-17
56.7	7.65862227755663E-18	-1.05546013361536E-17	-0.0202715701895819	1.02081066860285	-0.0202715701895819	1.02081066860285	1.17033177425306E-17	-2.12527922231043E-17
56.8	-1.21413136738351E-17	1.49242161571638E-17	0.106414795847907	1.03180515602548	0.106414795847907	1.03180515602548	7.61885936515421E-19	3.65436074187756E-18
56.9	1.09406699747308E-17	-4.26558007468754E-18	0.262979746927419	0.979876051024247	0.262979746927419	0.979876051024247	4.55276046825629E-20	-1.2402935032996E-17
57	1.02837739894989E-17	-7.15617756992682E-18	0.427057626324003	0.899820517544235	0.427057626324002	0.899820517544234	4.29872973805525E-18	1.76546021142423E-19
57.1	-1.10635218200042E-17	1.03506674559993E-17	0.533143294221947	0.859044368820692	0.533143294221947	0.859044368820692	-2.34636925824893E-18	8.73199585934341E-18
57.2	-1.87869283499053E-17	-5.68863837737996E-18	0.655994275591364	0.80155199784661	0.655994275591364	0.801551997846611	-4.5223131592454E-17	-2.05145748875101E-17
57.3	9.67526521824048E-18	2.36279868405793E-17	0.804659515016414	0.627107852885661	0.804659515016414	0.627107852885661	8.39202829701098E-18	4.0707358510399E-17
57.4	4.65885368455851E-19	-7.32797293244917E-18	0.810926225544313	0.537480595299135	0.810926225544313	0.537480595299135	3.70780904382828E-17	-2.19227666400714E-17
57.5	6.15964152986903E-18	-2.75685795265611E-18	0.937150341026183	0.43643146119656	0.937150341026183	0.43643146119656	3.9045783340519E-17	-1.40578795685178E-17
57.6	2.18327872631083E-17	-1.69977477802436E-17	0.993147062430348	0.272160101682491	0.993147062430348	0.272160101682491	6.71092539978857E-18	-1.312917611231E-17
57.7	-4.93296961583288E-18	5.67054645861393E-18	0.976458908113055	0.12383927547117	0.976458908113055	0.12383927547117	-1.53842331225357E-17	-1.43793695701935E-17
57.8	-6.33461669577085E-18	7.93333825890778E-19	1.0202133104814	0.00882907922618879	1.0202133104814	0.00882907922618878	-9.02713013925734E-19	-1.5625598290708E-20
57.9	8.34722193699253E-18	1.93073314960876E-17	1.02320907404289	-0.119293268669505	1.02320907404289	-0.119293268669506	-5.68376945542109E-18	7.9641785843053E-18
58	-2.96774950811229E-18	-2.12831417906553E-17	0.957858521052989	-0.326856907917796	0.957858521052989	-0.326856907917796	-9.29114410200899E-18	-4.10969694255389E-17
58.1	-1.6355756015611E-17	-8.74105120339921E-18	0.885581108511793	-0.404275555440382	0.885581108511794	-0.404275555440382	2.09790177804808E-17	5.13400402702401E-18
58.2	7.29059582717451E-20	2.01784060140645E-18	0.858120703757595	-0.552006083855562	0.858120703757595	-0.552006083855562	7.17673901513714E-18	-2.68387017146603E-18
58.3	-2.66019074896849E-18	-2.36372695881845E-17	0.752080493061025	-0.682866351500773	0.752080493061025	-0.682866351500773	1.78180547514938E-18	1.72290331360946E-19
58.4	-1.9143821906538E-17	-1.396403131851E-17	0.640373042647389	-0.713277125137656	0.640373042647389	-0.713277125137656	1.90165984157657E-17	-2.05432803050335E-18
58.5	9.89180471336143E-18	6.68145843213449E-20	0.579778392001373	-0.850152947229586	0.579778392001373	-0.850152947229586	-1.87775989178376E-17	2.43150804181161E-18
58.6	-3.09515303376247E-18	2.60322077208327E-17	0.418546269121657	-0.917266893707881	0.418546269121657	-0.917266893707881	2.14584174084576E-17	5.89616608120477E-18
58.7	1.44629741864322E-17	-1.01927737468609E-17	0.276588402273057	-0.933018926876392	0.276588402273057	-0.933018926876393	2.03170506398696E-18	-1.61844937830231E-18
58.8	-1.59780461617323E-17	7.06181894325315E-18	0.165064658064455	-0.976902280850506	0.165064658064454	-0.976902280850506	-1.78279784141093E-18	-7.83162962382305E-18
58.9	1.38892750089084E-17	3.09914599916576E-18	0.047987512740539	-1.00758044907659	0.0479875127405389	-1.00758044907659	2.2603850003644E-18	-5.10363300349046E-18
59	-2.17240681288854E-19	-6.99085154548652E-18	-0.136053743757191	-0.979473327813896	-0.136053743757191	-0.979473327813896	-4.79472696986598E-18	7.96984574764896E-18
59.1	1.22969560651186E-17	1.133173202381E-19	-0.235180062229685	-0.951287283864491	-0.235180062229684	-0.95128728386449	1.12656038457715E-17	-1.34634759766697E-17
59.2	-7.3354930790035E-18	-8.14998380980746E-18	-0.363964418579945	-0.948427282375108	-0.363964418579945	-0.948427282375109	-1.36228513711384E-17	-9.11448928722993E-18
59.3	-1.55964577967487E-17	1.39887699555871E-17	-0.523501747657823	-0.833280858795463	-0.523501747657823	-0.833280858795463	-1.34001544884001E-17	8.46210120159166E-18
59.4	-5.28091286767354E-18	-5.86096884405122E-18	-0.594148478148237	-0.785213069986879	-0.594148478148237	-0.785213069986879	-5.77019891193346E-18	1.86567974375485E-18
59.5	-1.42642618470311E-17	-5.36194090510485E-18	-0.7277176917111	-0.690238991260733	-0.727717691711101	-0.690238991260734	1.62746428084463E-18	-2.27056392333004E-18
59.6	-1.45048440243026E-17	8.84405625149857E-18	-0.803031554374879	-0.561641137790714	-0.803031554374878	-0.561641137790715	-3.97329531844779E-18	8.5449010466309E-18
59.7	6.53072106862507E-19	3.73458719581389E-18	-0.881591362439665	-0.473215698898071	-0.881591362439665	-0.47321569889807	1.33709443161235E-18	-5.05427212986461E-18
59.8	-2.47848008077355E-18	2.35295020013667E-19	-0.947895351471042	-0.341047180386175	-0.947895351471042	-0.341047180386175	5.07460767155394E-18	7.68650000359443E-19
59.9	-1.21768857086508E-17	1.61002572751786E-18	-0.971441234697594	-0.218244806828703	-0.971441234697595	-0.218244806828703	-4.51082336287451E-19	-3.06720781476203E-18
60	2.20313881901595E-18	1.05772651616752E-17	-0.990676329508039	-0.0577208968551695	-0.990676329508038	-0.0577208968551693	-8.03980756660925E-19	-7.83375265364073E-18
60.1	2.0451179430819E-18	-3.64126374702729E-18	-0.979189029221589	0.0646010507705076	-0.979189029221589	0.0646010507705076	2.53389493538975E-18	6.40466526405322E-18
60.2	-1.37339807208832E-17	3.22772722437742E-18	-0.988569002645272	0.177431024109083	-0.988569002645272	0.177431024109083	-1.9529986603964E-17	2.03087370504524E-17
60.3	1.07177544232755E-17	1.35212561853724E-17	-0.932754900655653	0.351202077626364	-0.932754900655653	0.351202077626363	2.64290314631218E-18	6.27804521510846E-18
60.4	1.21569930366374E-18	-5.22029531631694E-18	-0.868697106181744	0.426201069201774	-0.868697106181743	0.426201069201774	-1.78342407628806E-17	3.14253684439195E-18
60.5	4.45183554036703E-18	-2.05461495831E-18	-0.819991700270551	0.571760870880586	-0.819991700270551	0.571760870880587	-6.05709898756287E-18	5.15801392126995E-18
60.6	4.18365291938406E-19	-5.08540429796101E-18	-0.728309772335073	0.670853735302473	-0.728309772335073	0.670853735302473	-2.2637919543549E-18	-3.59945217794321E-18
60.7	1.60216150756461E-17	-2.38102586733359E-18	-0.627057899250276	0.767013706875547	-0.627057899250276	0.767013706875547	-1.00474683520835E-17	-1.09919749987687E-17
60.8	2.71991751275904E-18	-9.87311608569486E-18	-0.521166509318485	0.851033595759959	-0.521166509318486	0.851033595759959	-1.24369106553874E-17	-9.16958996915322E-18
60.9	6.19922752706288E-18	1.28817665669195E-17	-0.410290289591366	0.911339367252015	-0.410290289591366	0.911339367252015	2.03024224483889E-19	6.76366160797819E-18
61	-3.42324194832635E-18	3.97002678327641E-18	-0.268960105373243	0.959815124202531	-0.268960105373244	0.959815124202532	1.37399581994046E-17	2.55040856029597E-17
61.1	1.99363694938757E-18	-3.98535883198732E-18	-0.134690027306517	0.971171355776478	-0.134690027306517	0.971171355776478	-4.19599654170241E-18	4.8788930057341E-18
61.2	-8.20600795772928E-18	-6.24728167539661E-18	-0.019724171952366	0.986775562283403	-0.0197241719523657	0.986775562283402	2.1780411935109E-18	-1.21738840390858E-17
61.3	-2.77623480225133E-17	-3.65905119132123E-17	0.118682520874687	0.998314828711029	0.118682520874687	0.998314828711029	-4.27489428575331E-18	-3.70342005126582E-18
61.4	1.2364197385639E-17	1.63449788938238E-17	0.284041538016224	0.949572584878259	0.284041538016224	0.949572584878259	-2.06563146380829E-18	8.49392635431728E-18
61.5	1.39237501236939E-17	-4.21969122159488E-18	0.358237966801443	0.899644190317784	0.358237966801443	0.899644190317784	9.39290283354023E-18	-1.72890154182943E-17
61.6	-1.75367034583365E-18	-1.13265419571609E-17	0.508986144322023	0.879084330367593	0.508986144322023	0.879084330367594	5.46230598896535E-19	4.44150015823149E-18
61.7	8.69255180155657E-18	-7.03835236250896E-18	0.629163075445285	0.781726238011022	0.629163075445285	0.781726238011022	8.86822078040223E-19	-4.05267503462394E-18
61.8	3.06328645375302E-18	-6.98047051348626E-18	0.705307682721353	0.679056118438444	0.705307682721353	0.679056118438444	-6.67819764128681E-18	-5.78663221619781E-19
61.9	-1.92732185337253E-18	-1.1103204119471E-17	0.798790852440558	0.575777229942993	0.798790852440558	0.575777229942993	-3.92265605256258E-18	1.99189078940583E-19
62	6.57473998273261E-18	7.55717056032458E-18	0.866395172904758	0.488612341476025	0.866395172904758	0.488612341476025	1.84866443356696E-17	4.86778677427626E-18
62.1	-1.42325697870223E-17	1.33397680934783E-17	0.943043910209054	0.358795611466117	0.943043910209054	0.358795611466117	-6.01387888423277E-18	1.44550659808529E-18
