# GHZ S RI R 50
50	-8.53569329869188E-18	5.92432896239711E-18	0.738991161991819	-0.518162437426431	0.738991161991818	-0.518162437426431	9.31618833230025E-18	4.88021110466228E-18
50.1	-2.94870016373557E-17	-1.69434171629348E-17	0.623328618570711	-0.618811412370241	0.623328618570711	-0.618811412370241	4.09260333637832E-18	-1.0676759471854E-17
50.2	3.49780029483467E-18	-9.54891765140914E-18	0.527420293666738	-0.709550216837036	0.527420293666739	-0.709550216837037	1.4169217960121E-17	1.41431751186028E-17
50.3	7.57969409518505E-18	-2.01788275803638E-17	0.411707711769375	-0.814842078209896	0.411707711769375	-0.814842078209897	-1.54371049220616E-17	1.31725442182822E-17
50.4	2.90941191090779E-18	-8.50068400672189E-18	0.234361836860555	-0.833136963246589	0.234361836860556	-0.83313696324659	4.00223406304997E-18	-1.27817805555427E-17
50.5	-5.55184656997032E-18	-6.05678945490363E-18	0.12953437082242	-0.891909776477208	0.12953437082242	-0.891909776477207	-5.49199590745533E-19	-3.10257676452153E-18
50.6	-6.01450444610481E-18	-6.40596313004682E-18	-0.0351899022752373	-0.888726221319813	-0.0351899022752375	-0.888726221319813	1.08504139276507E-19	1.36799593743057E-18
50.7	-2.15314639376307E-18	1.94080195366186E-18	-0.164786292242723	-0.868997016282273	-0.164786292242722	-0.868997016282273	-4.55470310117013E-18	3.25016344126645E-18
50.8	9.61404268712116E-18	2.07568723875268E-18	-0.325649562281484	-0.853029115822247	-0.325649562281484	-0.853029115822247	-2.10845787744953E-17	1.98146149570578E-17
50.9	-3.10603435325699E-18	2.42138330124787E-17	-0.439500212498981	-0.756500655452943	-0.439500212498981	-0.756500655452943	6.25320216578401E-18	-5.60579495340412E-18
51	-1.6463102832471E-17	-4.16738772245324E-18	-0.576210858643483	-0.694404869070703	-0.576210858643483	-0.694404869070703	2.25537672960009E-18	3.29745404688737E-18
51.1	1.67395112751245E-17	8.92055609124831E-18	-0.676546677289234	-0.58838227754439	-0.676546677289234	-0.58838227754439	7.48575828850578E-18	3.17593163396078E-18
51.2	-2.76203048671863E-18	2.51988547856612E-17	-0.757169600049744	-0.467880695158727	-0.757169600049744	-0.467880695158727	6.14596434035175E-18	-8.91089375527241E-22
51.3	5.63244649976067E-18	-6.6737484040586E-18	-0.828624206049012	-0.34100394489888	-0.828624206049012	-0.341003944898881	-3.47183477047131E-18	-5.40090800611476E-18
51.4	-2.25255429991223E-17	-1.11079987302008E-18	-0.89102095309723	-0.219910553165714	-0.89102095309723	-0.219910553165714	-8.16101592414793E-18	5.6143351706109E-18
51.5	-2.00536239502409E-18	-6.80199451083354E-18	-0.879636987357374	-0.0451734668672564	-0.879636987357374	-0.0451734668672564	-4.56761673741483E-18	4.94129882124652E-18
51.6	1.87533811299429E-18	-6.408441589006E-19	-0.901613039698786	0.0674886042800045	-0.901613039698786	0.0674886042800042	5.0550977733711E-18	1.21453949838291E-17
51.7	1.18174438527634E-17	5.3998010502099E-19	-0.894044062705785	0.215702919915902	-0.894044062705785	0.215702919915903	-2.92115444367914E-18	-5.0980577008612E-18
51.8	3.69681399110517E-19	-1.90066192296733E-17	-0.790824622843081	0.34659735615093	-0.790824622843082	0.34659735615093	1.57536544675135E-18	4.96972149655082E-18
51.9	2.64324847099126E-19	-6.88283292511091E-18	-0.798009166257907	0.47887040337571	-0.798009166257907	0.47887040337571	-1.39651505517132E-17	-5.74320403619559E-18
52	-3.17464975438474E-18	-3.32527394479979E-18	-0.650993471710052	0.603457081145989	-0.650993471710051	0.603457081145989	-1.7792226798701E-17	-9.40390210589212E-18
52.1	2.28948490408586E-17	1.73576580788413E-17	-0.557564544116231	0.684209616643247	-0.557564544116231	0.684209616643247	3.60217851548653E-17	7.40803690588698E-18
52.2	3.53195678336831E-18	3.74901104313976E-18	-0.469565076651849	0.77149565279726	-0.46956507665185	0.771495652797261	4.15130066392241E-18	-3.20165984510674E-17
52.3	-3.26354573194249E-18	9.31358134527371E-18	-0.346309568001109	0.837060258752757	-0.346309568001109	0.837060258752756	9.0871118258363E-18	3.32094035186537E-17
52.4	9.48213898629915E-18	3.80015696624948E-17	-0.193421266546862	0.91149041406009	-0.193421266546862	0.911490414060091	3.57850213196759E-17	3.07370877311363E-17
52.5	1.63734578374513E-17	-2.88358526340206E-18	-0.0796371917511107	0.861084193858915	-0.0796371917511103	0.861084193858915	3.8066398400201E-18	-2.04037871765942E-17
52.6	-1.72824465170406E-17	3.41587855114815E-17	0.0558892531495763	0.93340420444145	0.0558892531495761	0.933404204441449	1.326345337525E-17	5.95139456797106E-17
52.7	-2.57843390012806E-17	4.63793667807985E-18	0.260161473452059	0.898218366926562	0.260161473452059	0.898218366926562	1.90433853434509E-17	1.30856950760636E-17
52.8	1.17078123384594E-17	-6.98748797662518E-18	0.276833468785792	0.754604552009316	0.276833468785791	0.754604552009316	2.02566484807324E-18	-1.49413767090444E-17
52.9	-2.08717126382274E-17	6.72171055984325E-18	0.56231101058625	0.837593362111662	0.56231101058625	0.837593362111662	-4.07034586728416E-17	6.23864141819586E-18
53	-1.50134113989598E-17	-3.58008791565753E-18	0.560255520014415	0.651916144204744	0.560255520014416	0.651916144204744	1.55526836367035E-17	3.41297751906943E-17
53.1	-1.86399292736282E-18	1.1643333617366E-17	0.681473319065115	0.620365559573432	0.681473319065115	0.620365559573432	1.55645331856074E-17	8.15387502132804E-18
53.2	1.07814367695382E-17	1.48339530786872E-17	0.820836974522747	0.487585184250769	0.820836974522747	0.487585184250768	-6.81310351664262E-18	-2.59079832536996E-18
53.3	-1.61430906751979E-17	4.74778216806367E-18	0.833837915617318	0.372537285986622	0.833837915617318	0.372537285986622	-2.15546826246594E-18	1.93075291890067E-18
53.4	-8.37755512186975E-18	1.24887466626584E-17	0.862028506979584	0.179688277599534	0.862028506979583	0.179688277599534	-1.98721467361578E-17	-2.84690908322461E-17
53.5	-1.49487072569868E-18	-6.14161163878335E-18	0.941411994857315	0.132852029881705	0.941411994857315	0.132852029881705	1.78883977948264E-17	-5.45496780555019E-18
53.6	-5.74899802396992E-18	2.39125454732599E-18	0.930431696052412	-0.0695371667305752	0.930431696052413	-0.0695371667305752	-1.55198217080508E-17	3.89834236324478E-17
53.7	9.66221393949924E-18	7.07877642961772E-19	0.840980304626172	-0.213027974883611	0.840980304626172	-0.213027974883611	-4.28408141974628E-19	-8.67592045529309E-18
53.8	-1.97842840963307E-17	-1.95022651928283E-17	0.95028279497556	-0.296980589213359	0.95028279497556	-0.29698058921336	-1.8479120167596E-18	3.37178565891093E-18
53.9	1.41513203170283E-18	-1.13067342382273E-17	0.805637878487739	-0.462023222813983	0.805637878487739	-0.462023222813983	3.02249151286908E-18	-5.16563748775741E-18
54	-2.93827014111336E-18	1.367158422657E-17	0.707284019678514	-0.571426174228507	0.707284019678514	-0.571426174228507	4.00987169411214E-18	-5.00613298708238E-18
54.1	-1.00586444527813E-17	-5.64376164474576E-18	0.639617452133551	-0.644646437843143	0.639617452133551	-0.644646437843143	-8.58328225370327E-18	6.72227351912171E-20
54.2	1.65145493667501E-17	-4.55831254767563E-18	0.544968882606219	-0.748985369028721	0.54496888260622	-0.748985369028722	-2.0033742773241E-17	3.34999930841229E-18
54.3	1.29039414102585E-17	-7.56509749728656E-18	0.376265216423129	-0.839017871662443	0.376265216423129	-0.839017871662444	2.42999193120464E-18	-6.09282566720725E-18
54.4	2.13008164782847E-19	7.81429236269154E-18	0.330289221142748	-0.829167614075874	0.330289221142747	-0.829167614075873	2.48190539423789E-17	1.39861476651002E-17
54.5	-2.40422471769135E-17	-1.12550922061917E-17	0.12207593186896	-0.961845942158736	0.12207593186896	-0.961845942158737	-1.43626573355285E-17	1.65040240557748E-17
54.6	8.37484769683379E-18	-2.86647227319289E-18	-0.00360310651200446	-0.898219945832384	-0.00360310651200437	-0.898219945832384	1.94365123686646E-17	-1.97509091405074E-17
54.7	1.8350150553841E-17	1.76971211649599E-18	-0.120039477920205	-0.945269953657103	-0.120039477920206	-0.945269953657104	2.12613795993293E-18	-2.16954887714826E-17
54.8	1.33543440464038E-18	-1.04548738661691E-17	-0.283474326642964	-0.907117622774471	-0.283474326642964	-0.907117622774471	1.42688110163364E-17	-4.16522366664863E-18
54.9	3.30724295800424E-18	1.10836578462315E-17	-0.409135100754324	-0.82971376312167	-0.409135100754324	-0.82971376312167	1.13256344969381E-17	9.62736662008445E-18
55	7.82594415557241E-18	3.37443518895798E-18	-0.519407927445687	-0.789596527651904	-0.519407927445687	-0.789596527651904	9.45769413034026E-18	1.54685361825259E-18
55.1	5.45782905191749E-18	6.9060431233707E-19	-0.647839134279898	-0.696488341317943	-0.647839134279898	-0.696488341317943	-5.67258615837798E-20	7.8272875000163E-19
55.2	1.2470596514841E-17	-5.0918950237335E-18	-0.719289465962844	-0.593982462637715	-0.719289465962844	-0.593982462637715	6.32994694523276E-18	4.93007550062332E-18
55.3	-4.98259232585367E-19	-8.13561443416984E-19	-0.818378423876836	-0.458454160602645	-0.818378423876837	-0.458454160602645	9.25825378367322E-18	-3.88019770942064E-18
55.4	1.28752564567658E-17	7.24367459584693E-18	-0.874506595208696	-0.374390557989969	-0.874506595208696	-0.374390557989969	7.50584260083631E-18	1.12805762113497E-17
55.5	-9.852868497386E-18	9.5470445588377E-18	-0.938666486732063	-0.211082356957615	-0.938666486732063	-0.211082356957615	-2.69994434256153E-17	-3.01735257596536E-18
55.6	5.51770972404241E-18	8.83259605730338E-18	-0.934698450105345	-0.0881563990353353	-0.934698450105346	-0.0881563990353356	-3.86180181782147E-18	3.93447484251413E-18
55.7	1.0654135336393E-17	1.39434835638642E-18	-0.962477130135801	0.0465549674517203	-0.9624771301358	0.04655496745172	-2.58460785820128E-18	6.72380868001554E-18
55.8	-4.64279651110127E-18	3.58126600771148E-19	-0.936166311636242	0.202354479577079	-0.936166311636241	0.202354479577079	-3.96024475418127E-18	1.05326764776521E-17
55.9	9.26651112090338E-19	-3.88521741188086E-18	-0.902623340548178	0.325990569328646	-0.902623340548178	0.325990569328646	2.06140945400079E-18	-1.00202886633822E-17
56	1.00307602275867E-17	-4.59184454345595E-18	-0.820203756136668	0.457337898989291	-0.820203756136668	0.457337898989291	4.21120351395305E-18	-9.94497114591771E-19
56.1	-2.40757369349118E-18	9.18216033464039E-19	-0.778240724236012	0.567673167875892	-0.778240724236012	0.567673167875893	1.25800789339517E-17	-1.28693905346242E-17
56.2	9.66037404083886E-18	8.24994626140122E-18	-0.689519066413589	0.688348185513683	-0.689519066413588	0.688348185513683	-1.07483339456601E-17	2.63290219034238E-17
56.3	6.03991372735142E-19	-2.70436713056144E-18	-0.532483700427441	0.776222990440745	-0.532483700427441	0.776222990440745	-4.22420708059934E-18	-2.80256238523773E-17
56.4	1.37412404981749E-18	3.00020657389616E-18	-0.472963984351526	0.848585161940079	-0.472963984351526	0.848585161940079	2.13634399617439E-17	-4.0161364610301E-17
56.5	-4.05416774404546E-18	1.03451478575342E-18	-0.326382919508076	0.926421376116962	-0.326382919508076	0.926421376116962	-1.51966915341887E-17	1.35504396211166E-17
56.6	4.26807925903874E-19	1.01583355561757E-18	-0.182548553926443	0.930026971803837	-0.182548553926443	0.930026971803837	-1.21900026674109E-17	5.12169511084649E-18
56.7	-7.20848809266525E-18	-8.06452841181177E-19	-0.0536697052514895	0.962447393834662	-0.0536697052514895	0.962447393834662	-1.17618583667035E-17	1.81473644588658E-17
56.8	1.04624305872563E-17	-9.94313509799859E-18	0.068642670603918	0.9810782426428	0.068642670603918	0.9810782426428	2.80384298112077E-18	-7.1717944877026E-18
56.9	2.81176452278316E-18	3.97407497024185E-18	0.214597423875518	0.936301648656369	0.214597423875519	0.936301648656369	2.6236284068457E-17	1.93132428440472E-17
57	-2.22134716672554E-19	2.43298410201112E-18	0.367424954644946	0.863012328423463	0.367424954644946	0.863012328423463	-1.30323407914685E-17	-4.06198569344355E-18
57.1	-1.82615077143631E-17	5.83067336336453E-18	0.474206481604178	0.832364958882483	0.474206481604178	0.832364958882484	-3.22099867689243E-17	1.26351888935905E-18
57.2	2.04807993248142E-17	1.42768986904742E-17	0.597431788561482	0.781776280276376	0.597431788561481	0.781776280276376	3.12195564004848E-17	-1.23883567751862E-17
57.3	1.98761285661977E-17	2.9732241265637E-18	0.732733541890382	0.615629165175674	0.732733541890382	0.615629165175674	2.6565882850966E-17	-4.17480651473811E-17
57.4	5.63600560946982E-18	-2.36360423528981E-17	0.74746544782585	0.544541603224493	0.74746544782585	0.544541603224494	2.08524724644238E-17	-3.20436851423429E-17
57.5	-2.45294248780627E-17	-1.51680554780326E-17	0.874838636045335	0.444219865754835	0.874838636045336	0.444219865754835	-2.53201949609853E-17	-1.20046679076802E-17
57.6	-2.10935756490314E-18	-3.45950706875907E-18	0.929749962858892	0.290169645533449	0.929749962858892	0.290169645533449	2.83223614920877E-17	2.55886105707023E-17
57.7	-6.3475882318026E-18	8.9617291328337E-18	0.919233823304043	0.15683465402236	0.919233823304043	0.15683465402236	8.63503018968314E-19	2.02903641830711E-17
57.8	1.14802036555286E-18	9.23990305999592E-19	0.969823192286028	0.0435218225283033	0.969823192286028	0.043521822528303	1.76186456681382E-17	4.86748168404282E-18
57.9	-1.59346369582155E-17	1.42179759735515E-17	0.980222621965259	-0.0804015763391929	0.980222621965258	-0.0804015763391927	-8.77134229323363E-18	8.67677149219261E-18
58	6.64738724499073E-18	3.77304170303852E-19	0.915908384712779	-0.273742684354283	0.915908384712778	-0.273742684354283	-4.18668121482541E-18	1.67326668463524E-17
58.1	8.21947897833001E-18	1.28152191337003E-17	0.860177873301958	-0.347406970253864	0.860177873301958	-0.347406970253864	1.89785796641073E-17	8.91451969099513E-18
58.2	4.71461089415949E-18	-8.62218176760611E-18	0.835795905745272	-0.495570484979729	0.835795905745273	-0.49557048497973	2.4291569618098E-17	-4.27180245968506E-17
58.3	-1.98028525290809E-17	-1.32548059733202E-17	0.737779836454196	-0.620900672864103	0.737779836454196	-0.620900672864103	-1.75459795767109E-17	6.78110614085545E-18
58.4	1.02342706204878E-17	-1.47584166267213E-19	0.644492727214325	-0.653853697871275	0.644492727214325	-0.653853697871274	1.16963092805574E-17	-1.686676185911E-19
58.5	-1.06536509115461E-17	-1.79950264789512E-19	0.582953904006135	-0.794572649545481	0.582953904006136	-0.794572649545481	-1.1086446179265E-17	9.67017807177087E-18
58.6	-1.43387648340436E-18	-1.93534600384663E-18	0.432787560125947	-0.859275324380228	0.432787560125946	-0.859275324380228	1.76818949703254E-17	-3.10802320987364E-18
58.7	8.36233786035326E-19	-1.07937464984271E-17	0.303795944374675	-0.879291522858673	0.303795944374675	-0.879291522858673	3.66220333109058E-20	-8.55869822680031E-18
58.8	-1.35324427970046E-17	-4.27009153088331E-18	0.196415079387868	-0.929924122663745	0.196415079387867	-0.929924122663744	3.85002754104639E-19	-6.68332285891541E-18
58.9	-7.04238619120819E-18	1.20701453306996E-17	0.0821430086198059	-0.967522353141745	0.0821430086198058	-0.967522353141745	6.13069905935808E-18	1.2663856386608E-17
59	7.80675458655586E-18	-8.64003284539364E-18	-0.0909259942156635	-0.941673724186978	-0.0909259942156633	-0.941673724186978	1.7581552452982E-17	-7.18407504156251E-18
59.1	-7.22245932352341E-18	1.56508201188397E-17	-0.187839570505677	-0.925154479992258	-0.187839570505677	-0.925154479992259	7.3522817024834E-18	1.50310247672196E-18
59.2	-1.75032073270007E-20	1.33460774945048E-18	-0.318465252624421	-0.927296904060043	-0.318465252624421	-0.927296904060043	-6.55788073829568E-18	-6.38578667837502E-18
59.3	-4.37246384798814E-18	9.28699843406895E-18	-0.467203354053005	-0.819112948494344	-0.467203354053005	-0.819112948494344	7.89145792462021E-18	3.32308883641822E-18
59.4	-1.50920435906726E-17	-3.33199450433838E-17	-0.543451915016977	-0.782133356102396	-0.543451915016977	-0.782133356102395	-3.53981268230089E-18	-1.64281628737433E-17
59.5	-2.32161731740864E-18	-4.51056425794387E-18	-0.674964807560427	-0.691363689131777	-0.674964807560426	-0.691363689131777	-3.19428094383388E-18	-1.89911693495287E-18
59.6	1.36276409462423E-17	-2.89941526065777E-18	-0.749837632784001	-0.573387737144157	-0.749837632784001	-0.573387737144157	-1.62011361570664E-18	-5.96672299745734E-18
59.7	6.53853212895368E-18	6.62656321141266E-20	-0.83389089824729	-0.489590853790731	-0.83389089824729	-0.489590853790731	-2.04244017757688E-18	2.9973946342512E-18
59.8	-3.39279950479015E-19	1.2193450251211E-17	-0.90223052241811	-0.363312012946223	-0.902230522418111	-0.363312012946223	1.18312355890073E-18	1.1372541354514E-18
59.9	1.55126690769451E-17	2.12926535911471E-18	-0.932186615434328	-0.24763544142398	-0.932186615434328	-0.24763544142398	-3.0509427123023E-18	-1.01089654037937E-17
60	-1.04443001971682E-17	2.7971977137375E-17	-0.95369933880893	-0.0940473338894692	-0.95369933880893	-0.0940473338894689	1.01461909037178E-18	-1.01625351489527E-18
60.1	1.45514509102044E-17	2.4407789004846E-17	-0.950573011470099	0.0234232709455339	-0.950573011470099	0.023423270945534	1.44656615367352E-17	6.74575391521425E-18
60.2	9.66558145454536E-18	6.41726932268672E-19	-0.967086046137299	0.137504496472596	-0.967086046137299	0.137504496472596	9.25666362202035E-18	-1.5612976853633E-17
60.3	4.18145142531604E-18	2.90729072407619E-18	-0.914388303617445	0.303776244902199	-0.914388303617445	0.303776244902199	-8.7097434283426E-18	6.50501789751354E-18
60.4	-1.9075355501909E-18	1.29235018802498E-17	-0.863785551521279	0.379570591976883	-0.863785551521279	0.379570591976883	7.74809932088278E-18	8.68608783011605E-18
60.5	-6.57259139493289E-18	5.99005840388115E-19	-0.817232193883301	0.525283351802947	-0.817232193883301	0.525283351802948	-2.80066326365306E-18	-6.67780906595526E-18
60.6	-1.21825745057131E-17	-3.33560302232894E-19	-0.733608453896764	0.624758102812565	-0.733608453896763	0.624758102812565	-4.64218527660463E-18	-1.56455379148798E-18
60.7	-2.70795936002521E-17	-8.85597587696998E-18	-0.63878467338253	0.722081727098833	-0.63878467338253	0.722081727098833	-1.84610084593843E-18	-1.80373197079669E-18
60.8	-1.16530056680081E-17	-1.33384214644303E-18	-0.538214854049427	0.808837168940248	-0.538214854049428	0.808837168940248	-1.11587068133701E-18	-7.96462829684881E-18
60.9	3.79511446463758E-18	-7.94555759174132E-18	-0.432754586111927	0.873769058150687	-0.432754586111926	0.873769058150687	4.84149930364892E-18	-1.4056020991285E-17
61	1.80666435955019E-17	2.88431209289083E-18	-0.297192974317096	0.924658224382654	-0.297192974317096	0.924658224382654	-1.6991046550452E-17	-6.14011179527196E-18
61.1	-3.22094567080065E-18	-5.00995446492787E-18	-0.169385389207681	0.941745481726123	-0.169385389207681	0.941745481726123	-4.23719511243865E-18	-2.84604265100437E-18
61.2	-1.8664568460324E-18	2.02411570627487E-18	-0.0560564195590971	0.964566504661603	-0.0560564195590973	0.964566504661603	-7.94878217765773E-18	-1.74222538592125E-18
61.3	2.02927591449038E-17	1.9567719374924E-17	0.0815551582660207	0.980116595677812	0.0815551582660206	0.980116595677812	1.51065076376987E-17	3.84856083713109E-18
61.4	-2.0366548098593E-17	-2.20204336437839E-17	0.240311941200688	0.935175927569764	0.240311941200688	0.935175927569765	-1.84482638016951E-17	2.53696802308004E-18
61.5	-1.08138500474121E-17	-3.40412509156607E-18	0.316498876201689	0.897839582328106	0.316498876201689	0.897839582328106	-7.4407325834395E-18	-2.42846511652869E-17
61.6	-3.81106131682811E-18	5.71727442996534E-18	0.469569887611246	0.877341266437719	0.469569887611246	0.877341266437719	-1.14342929394095E-17	-2.97700777299018E-18
61.7	-6.12120496293638E-18	-8.78230332218934E-18	0.587628542773109	0.786414024019048	0.587628542773108	0.786414024019048	-2.08704194054047E-17	-3.11700104412186E-18
61.8	8.7022900189488E-18	-1.70834721996684E-17	0.665681003622469	0.692986341350344	0.66568100362247	0.692986341350344	8.93558154105508E-18	-2.28852234028251E-17
61.9	4.60855676271391E-18	1.17722683433568E-17	0.761138727875138	0.594380605983218	0.761138727875138	0.594380605983218	3.67947245905488E-18	-5.29656802972884E-18
62	3.3047473958995E-18	-4.49206769114951E-18	0.835160352956458	0.510849207022292	0.835160352956459	0.510849207022292	-6.45378728390948E-18	-1.44406050108281E-17
