# GHZ S RI R 50
50	2.1583739943506E-19	9.78832743729124E-18	0.765431120236735	-0.543030685458215	0.765431120236736	-0.543030685458215	1.94649734612189E-18	7.15656265491547E-18
50.1	-9.66483387043365E-18	-1.29942297455727E-17	0.644675863807546	-0.647878106621148	0.644675863807545	-0.647878106621148	-5.80712497484367E-18	-2.14491245499597E-18
50.2	-1.07830905762552E-17	-7.36094318176244E-18	0.543539807626173	-0.741618513521065	0.543539807626172	-0.741618513521065	1.85487569897446E-17	2.94978465083271E-19
50.3	6.08112654195913E-18	-1.66542978344265E-18	0.422409166543649	-0.849399457991451	0.422409166543649	-0.849399457991451	-5.72000469786511E-19	-5.92973869961939E-18
50.4	-7.39638156997168E-19	-2.89403901963359E-18	0.238220570126399	-0.868891899483164	0.238220570126399	-0.868891899483164	9.53427597400494E-18	-8.95167987340907E-19
50.5	-2.51811077488639E-18	-2.28846257354715E-18	0.127916165197333	-0.927815245262536	0.127916165197333	-0.927815245262536	6.96045477711524E-18	1.46018347184029E-17
50.6	-3.11677222948186E-18	1.44483963392842E-17	-0.0431805703327527	-0.923796873538271	-0.0431805703327528	-0.923796873538271	-7.38589833308036E-18	6.91982510719135E-19
50.7	-1.06913130270605E-17	2.02639812461142E-17	-0.178431834157488	-0.902046442249328	-0.178431834157487	-0.902046442249328	5.50469000403919E-18	5.66462522362218E-18
50.8	5.10266556500529E-18	1.01535724713057E-17	-0.344782760554821	-0.883703211209868	-0.344782760554821	-0.883703211209869	-7.43926963478606E-18	1.95759944110671E-17
50.9	-2.1726985945402E-17	-2.01117545365305E-17	-0.463485381707999	-0.782976097280372	-0.463485381707999	-0.782976097280372	-6.81877639304728E-18	-2.33985501908977E-17
51	-1.43022889785718E-17	-2.4888701029912E-17	-0.604418531460819	-0.716841019332104	-0.604418531460819	-0.716841019332104	-2.05296497195E-17	-6.61387262026341E-18
51.1	-1.59014853956212E-17	5.54241782339394E-18	-0.708079190924783	-0.60570839331679	-0.708079190924782	-0.60570839331679	8.69474739780506E-18	-2.88786341276134E-18
51.2	1.06088673795904E-18	-1.56242409294087E-17	-0.791104523032905	-0.479627712553151	-0.791104523032905	-0.479627712553151	-1.13575613784806E-19	-6.63894715176668E-18
51.3	4.68065020645834E-18	1.95800066076561E-17	-0.864120312914126	-0.346989443060076	-0.864120312914126	-0.346989443060077	5.29376584214515E-18	-1.17882131196579E-18
51.4	1.93878152952403E-17	-4.35092802793965E-18	-0.927206205973417	-0.220214649949161	-0.927206205973417	-0.220214649949161	-4.88941588137661E-18	-1.56902270320772E-17
51.5	8.36357041232014E-18	2.17984821539714E-17	-0.915051815795052	-0.0389576888843632	-0.915051815795051	-0.0389576888843637	-4.60446369958335E-19	-1.17227644266084E-17
51.6	-2.49230728584283E-18	7.01899619669087E-18	-0.935776607664114	0.0789785355535611	-0.935776607664113	0.078978535553561	5.07518224273586E-18	-5.51831898445396E-18
51.7	8.74559824425401E-19	5.81315737278524E-18	-0.92610073167779	0.232702197834657	-0.926100731677791	0.232702197834657	1.75604391913364E-17	1.39145993841842E-17
51.8	2.96222572986583E-18	-1.80130809105271E-19	-0.818855921242102	0.368694330603998	-0.818855921242102	0.368694330603998	-6.76506190222293E-18	-1.34634584544967E-17
51.9	3.11636611515113E-18	8.16069152292742E-18	-0.823136061478901	0.505259286285696	-0.8231360614789	0.505259286285695	3.8425546599456E-17	-1.13445957419759E-17
52	-6.25591610781668E-20	1.10603465971718E-18	-0.670655175935316	0.633793733742065	-0.670655175935316	0.633793733742065	-2.32275506680637E-17	-2.09162471987232E-17
52.1	-1.75319158460241E-17	-2.10886544777063E-17	-0.572157908020333	0.717142114434386	-0.572157908020332	0.717142114434386	-2.67691572725275E-17	1.39591591708631E-17
52.2	6.42687192956387E-18	-1.76286910570622E-18	-0.47904942904799	0.806479231728123	-0.47904942904799	0.806479231728123	2.61301259640816E-18	1.11782463774923E-17
52.3	-7.14110759209545E-18	-3.63775758872534E-18	-0.350081967185927	0.873188678640942	-0.350081967185927	0.873188678640942	2.06951013579978E-17	2.78582495524238E-18
52.4	5.75402339752977E-18	7.25830749975479E-18	-0.191060616944569	0.948256156037463	-0.191060616944569	0.948256156037463	6.89897956454423E-17	2.01746949953191E-17
52.5	7.50171759589621E-18	-2.0084922448626E-17	-0.0718591625236701	0.895988674328629	-0.0718591625236695	0.895988674328629	1.37282366250708E-17	-1.9079710975692E-17
52.6	6.94678681832583E-18	1.96248512740862E-17	0.0692278488635083	0.967795629893671	0.069227848863508	0.967795629893671	2.77232208240069E-17	9.21266185275947E-18
52.7	9.04415509627066E-18	7.74267773115302E-18	0.279723450196413	0.9297762539222	0.279723450196413	0.9297762539222	2.71116555154825E-17	2.9124422313365E-17
52.8	-2.7820882467629E-17	2.17155282069911E-17	0.299254169048151	0.781235398970281	0.299254169048151	0.781235398970281	2.51809713653372E-17	3.53152240585558E-17
52.9	-6.26922566035712E-18	5.71459855980357E-18	0.59164341806555	0.862212423800842	0.591643418065549	0.862212423800842	-3.65060997610356E-17	1.03199429185E-17
53	1.57955829195239E-19	9.80094928262386E-18	0.591128364254385	0.670583512996735	0.591128364254385	0.670583512996735	-5.33293120346908E-19	-1.78827835450587E-17
53.1	7.72185119856238E-18	1.10662524863068E-17	0.715559520933594	0.634921426339592	0.715559520933594	0.634921426339592	-2.02374214478414E-17	-8.76683184170193E-18
53.2	3.23183874109288E-18	2.2696093618058E-17	0.857618937610208	0.496088662720791	0.857618937610208	0.496088662720791	1.37093352543962E-17	-6.90281425062305E-18
53.3	3.23285665257734E-18	-6.80448571844647E-18	0.87083174277753	0.375608997075698	0.870831742777531	0.375608997075698	-1.62922150601407E-18	-1.99145755353044E-17
53.4	1.22225334802609E-17	-1.0727875015624E-17	0.898632350215313	0.175987939587344	0.898632350215313	0.175987939587344	-7.24680100576169E-19	-1.36453671050967E-17
53.5	1.04003778645872E-17	-1.99700604116835E-17	0.978434813459644	0.124609867852266	0.978434813459644	0.124609867852267	-2.86094480712974E-17	-1.74312832754188E-17
53.6	-3.39906199482001E-18	8.86548940927096E-18	0.965174470337711	-0.0843293268549576	0.965174470337712	-0.0843293268549576	1.02477231207952E-17	-3.5699016460848E-17
53.7	-4.71531258492303E-18	5.97218344164246E-18	0.871959605504377	-0.232873440226879	0.871959605504377	-0.232873440226879	-6.2942808332932E-19	-1.3493463139138E-17
53.8	-2.68789054449938E-18	5.70186926101165E-18	0.980619109003742	-0.321630357967306	0.980619109003743	-0.321630357967306	2.97736748372911E-18	-2.1885054536545E-18
53.9	3.2510791186726E-18	-9.2626081029756E-18	0.830221890959775	-0.490963840850683	0.830221890959774	-0.490963840850682	-1.22658238357924E-17	8.91033809413496E-18
54	-4.39243465903122E-18	-2.28770696525372E-17	0.726866511390879	-0.603679960566794	0.726866511390878	-0.603679960566793	-1.56088036769593E-17	-9.21713697029156E-18
54.1	-6.21460315911344E-18	-9.28733893315E-19	0.654647989937436	-0.679330753927861	0.654647989937437	-0.679330753927862	5.10312944576405E-17	1.20098848859788E-18
54.2	-1.05929489944628E-17	9.73356342908125E-18	0.554571158893991	-0.78601367479408	0.554571158893991	-0.78601367479408	6.22759386854722E-18	3.18613634807777E-17
54.3	-4.74227394518863E-18	-2.8157969735845E-17	0.37911083425397	-0.877121690135584	0.37911083425397	-0.877121690135584	-2.18422834794603E-17	-1.85957381706819E-17
54.4	1.80736553260872E-17	-1.58745996599642E-17	0.32916930161571	-0.866971909901356	0.329169301615709	-0.866971909901357	7.9372998299821E-18	9.03682766304361E-18
54.5	-4.94729055935459E-19	1.79136399433526E-17	0.112992287128584	-1.00010823711204	0.112992287128584	-1.00010823711204	-1.10618345079043E-17	1.07352365352838E-18
54.6	2.49552525741355E-18	5.96198828865883E-18	-0.017576240403217	-0.933718605772553	-0.0175762404032168	-0.933718605772553	-1.30372593643913E-17	1.56309302891808E-17
54.7	-2.52112231407836E-18	9.57468827421249E-18	-0.139504881392537	-0.97947823792424	-0.139504881392537	-0.97947823792424	4.66534077393349E-18	2.51685236640539E-17
54.8	3.57297316897132E-19	-2.36332337746404E-18	-0.308316271484254	-0.937669690970015	-0.308316271484254	-0.937669690970015	-9.16487511336696E-18	4.65776783452013E-18
54.9	2.62993224052425E-18	7.22120080670665E-19	-0.438084924375012	-0.855845636985799	-0.438084924375013	-0.855845636985799	3.34190921284276E-18	-1.83470621701851E-17
55	5.9543844767678E-18	1.2236991001114E-17	-0.552228761021698	-0.811703691882534	-0.552228761021698	-0.811703691882534	2.18943800236643E-18	3.56060828406072E-18
55.1	1.0800707436687E-17	5.21877596082851E-18	-0.683963468674136	-0.713124966738591	-0.683963468674136	-0.713124966738591	-3.41979274628839E-18	7.04764445480394E-19
55.2	-4.39842675482829E-18	6.42492475152242E-18	-0.757220634491047	-0.605282089032752	-0.757220634491046	-0.605282089032752	-8.51533564494056E-18	-8.10448639112482E-18
55.3	3.86505538492335E-18	2.88793103963226E-18	-0.857801558131179	-0.463326305530999	-0.85780155813118	-0.463326305530999	-1.63914999380628E-18	5.01794565373332E-18
55.4	-1.8618041975018E-17	-5.22153451073014E-18	-0.914763482682053	-0.374027583159304	-0.914763482682053	-0.374027583159305	-3.75792985528658E-18	-1.79370676650756E-17
55.5	-5.05007563573967E-18	7.25199735961642E-18	-0.978512714948575	-0.203907576906274	-0.978512714948575	-0.203907576906275	3.82206664790403E-18	1.72614730766739E-17
55.6	-7.49482407389689E-18	-1.62209698651896E-17	-0.972919631005785	-0.0756392254575648	-0.972919631005785	-0.0756392254575647	-1.63211686521443E-18	-2.55319679709963E-19
55.7	1.93943743273234E-17	-2.53288050250293E-18	-0.999002438331752	0.0649584089062003	-0.999002438331752	0.0649584089062001	1.03243625369569E-17	-4.85504460402579E-18
55.8	4.65702758507264E-18	-9.00756595323868E-18	-0.969294778413911	0.226240650519868	-0.969294778413911	0.226240650519868	1.93803491611177E-20	-3.84290313712001E-18
55.9	-2.15047459465488E-18	-5.01460014369687E-18	-0.932171329002461	0.354533151450926	-0.932171329002461	0.354533151450926	1.11758026801599E-17	-3.01161660566619E-18
56	7.99959633002015E-18	2.67354269287589E-18	-0.844777581795683	0.489798339646757	-0.844777581795683	0.489798339646757	2.50286924679825E-17	2.89214243762481E-18
56.1	-9.83940385546144E-18	4.44402495692669E-18	-0.798443251670136	0.603920199202644	-0.798443251670135	0.603920199202644	-1.78958935372188E-17	5.77875233604916E-18
56.2	-8.79308499219478E-18	-1.03851745849409E-17	-0.704023541625653	0.727600077060107	-0.704023541625653	0.727600077060107	-6.55089873802533E-18	-6.38333902638342E-17
56.3	4.97416153965265E-18	-2.11358661764986E-18	-0.540246524568817	0.816552835055744	-0.540246524568817	0.816552835055744	1.19358607452463E-17	2.38378455436285E-17
56.4	-1.29817872373517E-19	-4.16930929551813E-18	-0.475681198421439	0.890662183622205	-0.47568119842144	0.890662183622205	-3.94717525034425E-17	9.38815026059435E-18
56.5	-4.22192037815676E-18	2.22401177542847E-17	-0.322242056445278	0.96863165557767	-0.322242056445278	0.96863165557767	-8.47585249688657E-18	1.73642567505268E-17
56.6	-1.45303641869804E-18	3.95652709505868E-18	-0.172594634219312	0.970619360023208	-0.172594634219312	0.970619360023207	9.38479380366785E-19	2.18974028936778E-17
56.7	-1.66425733254449E-17	4.93650715313072E-19	-0.0376924820165387	1.00167103931823	-0.0376924820165382	1.00167103931823	1.33805283543719E-17	8.00017009827864E-18
56.8	1.24928844592156E-17	-2.2335414990065E-18	0.090313719523963	1.01831468258231	0.090313719523963	1.01831468258231	1.29337203558944E-17	-2.80967731491902E-17
56.9	-6.11882285237988E-18	3.24657284942075E-18	0.241286496710565	0.969553752851501	0.241286496710565	0.969553752851501	-1.78255674796307E-17	-3.43739654278169E-19
57	2.10264933426193E-17	-6.1523162560744E-18	0.39865065366922	0.891190982766599	0.39865065366922	0.891190982766598	-7.45340550658127E-18	1.3297570803198E-17
57.1	-1.58988566977842E-18	-4.29461979915384E-18	0.509597011145322	0.85654396580293	0.509597011145322	0.856543965802929	-4.15299084903131E-18	-1.40196494138944E-17
57.2	-1.40072067388501E-17	-2.00188304159315E-17	0.636717210158663	0.800925741458264	0.636717210158662	0.800925741458264	3.93609399335278E-19	2.24600487519979E-17
57.3	-9.64666094579803E-18	1.25980701755442E-17	0.773837850667012	0.627127945525762	0.773837850667013	0.627127945525763	-6.74671703233479E-17	6.35449589453273E-17
57.4	-8.13683518328815E-18	4.69054655656894E-18	0.789428877754919	0.551780555375881	0.789428877754919	0.551780555375881	-4.72685076077403E-18	4.32831236717897E-17
57.5	-4.72303679994911E-18	-1.47015093876127E-17	0.918827765159014	0.444512253377471	0.918827765159014	0.444512253377471	-3.57163001147702E-18	-1.90705791434544E-17
57.6	-1.25078814839835E-17	4.70900505616067E-18	0.973043156390295	0.283612515397892	0.973043156390295	0.283612515397892	-1.62042080444896E-17	1.71443830367222E-17
57.7	-1.63106700469128E-18	8.0621325838834E-18	0.960547931409516	0.144822086744117	0.960547931409516	0.144822086744117	-2.05754409140446E-17	-5.49210504521344E-18
57.8	1.59239480738856E-18	-5.24056259880967E-18	1.01014490645238	0.0252665662382412	1.01014490645238	0.0252665662382416	4.06827815557568E-18	7.29734293234277E-18
57.9	-1.91182314580775E-17	1.18488915842601E-17	1.01815584546318	-0.104384547538124	1.01815584546318	-0.104384547538124	-4.7850549285106E-18	3.7752721284926E-18
58	-9.52301138141155E-18	2.56126756724295E-18	0.948305672873444	-0.303223628803289	0.948305672873443	-0.303223628803289	5.3910497227589E-18	4.60440530472287E-18
58.1	1.78874486960854E-17	4.75006270531857E-18	0.88894868076582	-0.380245520452939	0.888948680765821	-0.380245520452939	3.36724803300316E-17	2.0946602434331E-17
58.2	-3.14556490782316E-18	8.35070637060517E-18	0.859679003791102	-0.53353151593882	0.859679003791101	-0.53353151593882	1.35187791254389E-17	4.71464049093991E-18
58.3	2.02592213636941E-17	-9.67041021655752E-18	0.755447367944522	-0.661880503929879	0.755447367944523	-0.661880503929879	3.06602909238619E-17	2.17187400920355E-17
58.4	-7.07217779466377E-18	-1.23381723758683E-17	0.657460577684177	-0.69592679062545	0.657460577684177	-0.69592679062545	-5.44661290255044E-18	1.6235497915892E-17
58.5	1.1843602658023E-17	1.12544766470727E-17	0.589341695952886	-0.840043237383444	0.589341695952886	-0.840043237383443	1.28085677306944E-17	-7.54953316400192E-18
58.6	-3.59723526507205E-18	-1.27802451383856E-17	0.432219321356944	-0.904517105238896	0.432219321356945	-0.904517105238896	-1.87785928480227E-17	1.71848929991469E-18
58.7	1.04346104259159E-17	-3.27126969054237E-17	0.297346587451678	-0.923476627241732	0.297346587451678	-0.923476627241731	-3.91684740103146E-18	-7.84028249466821E-18
58.8	1.78923604140383E-17	3.3440123099364E-18	0.183706520652835	-0.973611977539624	0.183706520652835	-0.973611977539624	-9.23922772731273E-18	-9.10129741583764E-18
58.9	1.21139497419035E-17	3.312236587008E-18	0.0632004199699454	-1.00986736871787	0.0632004199699455	-1.00986736871787	3.29368594073253E-18	1.65240816424891E-17
59	-3.28632091476765E-19	2.24919770654553E-18	-0.115860841837911	-0.97973114480326	-0.115860841837911	-0.97973114480326	1.34140275888542E-17	-5.60503029069974E-18
59.1	6.08712268574553E-18	-3.83853851909599E-18	-0.217511073206739	-0.960260585705797	-0.217511073206739	-0.960260585705798	-2.95618585273478E-18	7.46822132215095E-18
59.2	-4.38054708887301E-18	6.72256407178028E-18	-0.353848184416532	-0.958594850822841	-0.353848184416532	-0.958594850822842	-5.80448459262854E-18	6.45045071310972E-18
59.3	6.02830965888777E-18	-1.12930501535515E-17	-0.505988271932856	-0.843666309802025	-0.505988271932855	-0.843666309802025	-1.18326604257122E-18	-4.91357143124806E-18
59.4	-1.05213808923212E-17	3.82210024921799E-18	-0.585662243433256	-0.802471090642581	-0.585662243433256	-0.80247109064258	-1.38956999719842E-17	1.53257553930994E-17
59.5	2.76548751507097E-17	1.61415792645646E-17	-0.720140910562163	-0.704807437781117	-0.720140910562163	-0.704807437781117	3.63561767531528E-18	5.20705910101698E-18
59.6	-1.03768753644573E-17	1.1730511153596E-17	-0.795952671188806	-0.580374784462356	-0.795952671188806	-0.580374784462356	-3.20542800624379E-18	1.02940490969174E-18
59.7	-3.86707200243842E-19	4.39542418580125E-18	-0.881534275253352	-0.490232677520099	-0.881534275253351	-0.490232677520098	-1.86231100102854E-18	-2.99869093502984E-18
59.8	2.99818797052896E-17	3.70009595305114E-18	-0.949685012721822	-0.356916359451644	-0.949685012721822	-0.356916359451645	1.00355997379286E-17	3.44496399394294E-18
59.9	1.52280703148142E-17	-6.65606174058386E-18	-0.978542264235238	-0.235116413569988	-0.978542264235238	-0.235116413569988	-6.86720298742514E-18	-1.03685040413985E-18
60	-1.13308284738289E-17	5.31178037924459E-18	-0.997395065351291	-0.074761230273335	-0.997395065351291	-0.0747612302733354	-2.23341068460862E-18	3.17329909807799E-18
60.1	7.05100625888938E-19	-1.0374682571259E-17	-0.991535257896269	0.0482710383289101	-0.991535257896269	0.04827103832891	-2.01062165071987E-17	-3.62002650785264E-18
60.2	-1.37808871292534E-17	1.80931164392277E-17	-1.00528334346926	0.168359219301029	-1.00528334346926	0.168359219301029	-1.75400169528431E-17	1.27165547936765E-17
60.3	-7.21105520618343E-18	3.66816050947392E-18	-0.94670359007021	0.339813619119189	-0.94670359007021	0.339813619119189	-3.54289469670951E-18	1.08792157156573E-17
60.4	1.69622095583762E-17	1.1882723283487E-17	-0.892064438447247	0.419016301963106	-0.892064438447248	0.419016301963106	-8.85694088619494E-18	-5.15845477785638E-18
60.5	1.35395634048311E-17	-2.43798068737938E-17	-0.839300229819612	0.569385678705528	-0.839300229819612	0.569385678705528	6.80309910723489E-18	-1.6497536872697E-17
60.6	5.68480593737938E-18	1.25555371606826E-17	-0.749521806604115	0.671434500299309	-0.749521806604115	0.671434500299309	-7.83602952398408E-19	-8.92256172972257E-18
60.7	1.32966940389734E-17	-5.32188191855601E-19	-0.647986046101302	0.770689964537421	-0.647986046101302	0.770689964537421	1.92322930520242E-18	5.91321409803687E-18
60.8	-3.30880092555972E-18	8.44078205729887E-19	-0.540513955934761	0.858669106718703	-0.540513955934761	0.858669106718703	3.07679094777671E-18	-4.94155375514825E-18
60.9	1.69454620071557E-17	-2.10502006705086E-17	-0.428330627146868	0.923884620319919	-0.428330627146868	0.92388462031992	7.07531477934382E-18	-8.34754166958972E-18
61	3.45977396133579E-18	-4.31243496453643E-19	-0.285609428341435	0.973535134126287	-0.285609428341435	0.973535134126287	-1.17474529098894E-17	9.4587204290866E-19
61.1	-2.04466751342302E-17	-4.37344080366881E-18	-0.151516874903091	0.988483985733712	-0.151516874903091	0.988483985733712	-6.31297201557684E-18	-1.97103818001243E-17
61.2	-1.87632330323306E-17	3.04877159346155E-17	-0.0318945496297445	1.00918065821645	-0.0318945496297447	1.00918065821645	-5.80829639814651E-18	2.17827794340844E-17
61.3	-2.16109078080293E-17	-2.33290623046368E-17	0.112336616868188	1.02128397293737	0.112336616868189	1.02128397293737	-1.36174957971378E-18	8.62843292122542E-18
61.4	-7.13770689162595E-18	-7.73220314350186E-19	0.276396540978425	0.970653743734591	0.276396540978425	0.970653743734591	9.50002695820185E-20	-6.55497181083653E-18
61.5	9.45516835476009E-18	5.37225970877399E-18	0.356467838957468	0.929586211360418	0.356467838957468	0.929586211360419	8.12687610475971E-18	1.03241361110502E-17
61.6	9.39087181041166E-18	9.90597194929316E-18	0.515222510588681	0.902982110974209	0.515222510588681	0.902982110974209	4.71449512547569E-18	-4.2919073836423E-18
61.7	1.6202740020695E-17	2.9166690248213E-18	0.636058958281422	0.80516503767641	0.636058958281422	0.805165037676409	-2.11671584491133E-18	-1.08294556220368E-17
61.8	-6.99882470298706E-18	7.58398491461532E-19	0.715793536253125	0.705515240417903	0.715793536253126	0.705515240417903	4.37386947160096E-18	-5.01375338137559E-19
61.9	4.28987773882854E-18	-4.10288850331025E-18	0.81277175704332	0.599680162530979	0.81277175704332	0.599680162530979	-1.43854041489247E-17	-7.59784541808531E-18
62	2.03922608843372E-17	9.66520192585838E-18	0.887980750008738	0.509472749553689	0.887980750008739	0.509472749553689	2.3114776084544E-17	1.70241199989899E-17
