# GHZ S RI R 50
50	1.59862952525547E-17	3.13628737322563E-17	0.774512262743603	-0.544527748627018	0.774512262743603	-0.544527748627019	-9.63845273733914E-18	3.96970104291541E-18
50.1	-3.8121773081082E-20	-1.32666690828541E-17	0.650886997685258	-0.652760008629259	0.650886997685258	-0.652760008629258	-5.13384568350031E-18	8.85927118921203E-18
50.2	-7.49762299443782E-19	1.49896137173043E-17	0.547521253313154	-0.744833613559424	0.547521253313153	-0.744833613559424	-5.70504279807714E-18	-8.3120383124311E-18
50.3	8.4669659019044E-18	-1.33773767659976E-17	0.428670247760016	-0.851004877639767	0.428670247760016	-0.851004877639767	4.68766623133063E-18	6.32827942379686E-18
50.4	-6.08337513562127E-18	-2.34795907431672E-18	0.239271914092885	-0.875619161018914	0.239271914092885	-0.875619161018914	-2.91142303551422E-18	-1.33397616020096E-17
50.5	-4.85208974411523E-18	-3.00009940531789E-17	0.131298538092609	-0.928898170213836	0.131298538092609	-0.928898170213837	5.1341635211046E-18	1.48100421249921E-18
50.6	1.16927033557605E-17	-3.29630456460849E-18	-0.0414636890461512	-0.926647529270445	-0.0414636890461512	-0.926647529270445	-4.59305105754291E-18	-1.08667078103118E-18
50.7	2.33376648485787E-17	-2.81711978185031E-17	-0.177457953621372	-0.902234925461899	-0.177457953621372	-0.902234925461899	0	0
50.8	-2.96428238876374E-19	-4.99113221080913E-18	-0.340481639519827	-0.885629470876025	-0.340481639519827	-0.885629470876026	4.25448306954126E-18	1.40405482433203E-17
50.9	2.3948935407109E-18	4.5835797211768E-18	-0.463397734841419	-0.782364471779534	-0.463397734841419	-0.782364471779534	1.98247882022088E-18	-1.85405262449522E-17
51	-6.14713818336611E-18	-8.82084002069378E-18	-0.600988570129646	-0.717854914787503	-0.600988570129646	-0.717854914787503	-5.71982109789119E-18	-2.56627855533706E-18
51.1	9.73061832537299E-18	4.21155752089436E-18	-0.704646686075871	-0.606073594040552	-0.704646686075871	-0.606073594040552	-3.6357657347422E-18	-3.99680808543741E-18
51.2	-3.78373422632608E-18	1.27446687038185E-17	-0.787475039878166	-0.479345995487038	-0.787475039878167	-0.479345995487038	4.60600723622839E-18	-7.21795975943182E-19
51.3	9.15145482819747E-18	1.14473438741769E-17	-0.859408187790759	-0.347694909005101	-0.859408187790759	-0.347694909005101	-5.03071535272878E-18	-1.7314609790475E-17
51.4	2.20983043186892E-17	9.6815744311075E-18	-0.919437294165132	-0.223712059567403	-0.919437294165132	-0.223712059567403	-1.30981257415468E-18	3.69445093117816E-18
51.5	1.08913201683941E-17	1.64169435896658E-17	-0.911117658153524	-0.0392618231471765	-0.911117658153524	-0.0392618231471772	2.87476256772529E-18	2.4821908667853E-19
51.6	-3.28190847430876E-18	3.19310503623999E-18	-0.927029600437608	0.0747680319166093	-0.927029600437608	0.0747680319166092	-3.67028983899813E-17	2.15883675604418E-18
51.7	1.19450373126202E-17	-1.05951920262133E-17	-0.917806633909263	0.224896843526701	-0.917806633909263	0.224896843526701	-1.00145398586421E-17	-5.94145034528111E-17
51.8	1.08336822244168E-17	9.51026759841279E-18	-0.810420536034203	0.366957784062771	-0.810420536034203	0.366957784062771	5.0604110421828E-17	1.5192423843217E-17
51.9	8.29144328330885E-18	1.12551223220476E-17	-0.815190772168802	0.491975608327846	-0.815190772168802	0.491975608327846	1.34900148057414E-17	-3.91089777533085E-17
52	-1.04551420142821E-17	-1.95018231908713E-17	-0.665348409758904	0.626869270049413	-0.665348409758904	0.626869270049413	-3.28453736418794E-18	-1.79852466891408E-17
52.1	1.5671488861309E-17	1.56397875973097E-18	-0.565440915380139	0.707502673371005	-0.565440915380139	0.707502673371005	9.53513713824808E-18	-9.44938992500622E-18
52.2	-1.86389826468733E-17	-5.10918704851611E-18	-0.474370729869665	0.791406092717459	-0.474370729869665	0.791406092717459	1.13633909878983E-17	-1.94697840458276E-17
52.3	5.81089128075935E-18	3.58597190446955E-18	-0.347714890545478	0.856145982972673	-0.347714890545478	0.856145982972672	-1.56952183915111E-17	1.2644685607282E-18
52.4	-4.2381507517203E-18	-1.77584101188059E-17	-0.195549292930309	0.932222347819066	-0.195549292930309	0.932222347819066	-6.36203468723684E-17	-3.85675220301891E-18
52.5	6.38854369481089E-18	-1.45920651048888E-17	-0.0691438616606049	0.876270011453276	-0.0691438616606049	0.876270011453276	1.46065137814393E-17	-4.92500258135686E-17
52.6	1.16324534002957E-18	9.28682130456897E-18	0.0590432512937918	0.946432303344102	0.0590432512937917	0.946432303344103	2.55467341774262E-17	2.82418318884942E-17
52.7	1.32484255055452E-17	-2.80482429879606E-18	0.267556014083349	0.917656032815528	0.267556014083349	0.917656032815527	1.55684681572047E-17	1.26320505499681E-17
52.8	1.41751919141236E-17	1.1768211710095E-17	0.298599639712075	0.754645948716775	0.298599639712075	0.754645948716775	-2.26514042334573E-17	-3.75007676817792E-17
52.9	1.87845666998871E-17	1.20157691544216E-17	0.566277435068551	0.857878750825141	0.566277435068551	0.857878750825141	-7.20406057116788E-18	1.68544823451006E-17
53	-1.80155323063769E-17	-4.86846953730313E-18	0.577965505998026	0.653180959536905	0.577965505998026	0.653180959536905	-1.9569140423806E-18	-5.72408441097498E-18
53.1	-1.32620523726528E-17	2.87638858270003E-18	0.690159693071602	0.622545908878792	0.690159693071602	0.622545908878792	6.19362935431432E-18	1.62012817583261E-18
53.2	2.93396098519913E-18	-9.92339303468913E-18	0.832174263038182	0.494805548691786	0.832174263038182	0.494805548691786	9.34817290764662E-18	-3.23102647522797E-18
53.3	2.64199952214137E-18	5.05709084866772E-18	0.842670170051184	0.370647322530724	0.842670170051184	0.370647322530724	7.04249358235113E-18	-1.84237421173477E-17
53.4	8.37006287686667E-18	-1.30758422638121E-17	0.877783462202583	0.173162161606161	0.877783462202583	0.17316216160616	-5.92280447796506E-18	-2.94509369377353E-17
53.5	-6.97367542197481E-19	2.52146640478883E-17	0.943739634004429	0.13309196790565	0.943739634004429	0.133091967905649	1.99364862820938E-17	-1.22994634823498E-17
53.6	1.80024152619793E-18	2.15439509656666E-17	0.939477527653134	-0.0728021086981287	0.939477527653134	-0.0728021086981286	-3.59600659127889E-18	1.69291755596835E-17
53.7	-6.5102679047959E-19	-2.12395292587018E-17	0.84842205910302	-0.226812338102377	0.84842205910302	-0.226812338102378	-2.58203002650313E-17	1.7448459838109E-18
53.8	2.76556716482607E-18	-5.09277041425937E-18	0.950418169664002	-0.290430173560491	0.950418169664002	-0.290430173560491	3.22752793290435E-17	-7.29359111708522E-18
53.9	-3.98868344919016E-18	-1.27746049116688E-17	0.808555442861637	-0.46728645595502	0.808555442861637	-0.46728645595502	-1.75966028782847E-17	-1.18851592219762E-17
54	1.38108837400524E-18	-1.78445510508432E-17	0.707577816688087	-0.579076940186001	0.707577816688086	-0.579076940186001	-1.36296704592547E-17	-1.3105986543579E-17
54.1	-5.83469130896244E-19	6.43275600299892E-18	0.634728687343513	-0.647682710742827	0.634728687343513	-0.647682710742827	7.33322201375517E-18	9.84000592635469E-18
54.2	5.87406761802687E-18	-5.84640437068382E-18	0.541425812861545	-0.749322348303035	0.541425812861545	-0.749322348303035	-1.09558312602865E-17	-2.60454512674402E-17
54.3	2.85861836763439E-19	1.57472898460278E-17	0.374230467619928	-0.845014745342421	0.374230467619928	-0.845014745342421	3.29374753051279E-17	2.12043149133957E-18
54.4	-2.77680654038666E-17	-1.68919279739154E-18	0.320203055532363	-0.821808125640588	0.320203055532363	-0.821808125640588	-4.564846294218E-18	4.96858282465618E-18
54.5	9.26864081319162E-18	-9.42391848985921E-18	0.125035658596787	-0.964092791217421	0.125035658596787	-0.964092791217422	-3.83167846661072E-18	-1.1184480046497E-17
54.6	2.371245259694E-17	-5.57577091287514E-19	-0.0105418562582362	-0.896765018912214	-0.010541856258236	-0.896765018912214	-1.32925284790382E-18	2.82249895795104E-18
54.7	2.63955071726143E-17	-8.36287771064338E-18	-0.11838947905412	-0.940103556872621	-0.11838947905412	-0.940103556872621	1.45948609905703E-17	-2.46345995770017E-17
54.8	-9.4116990337115E-19	8.22723568929547E-18	-0.282293310308729	-0.904675347424977	-0.282293310308729	-0.904675347424977	-1.67700635535973E-18	3.05360453157805E-18
54.9	-8.16155757700406E-18	-6.37263004807797E-20	-0.410576689854195	-0.825709455420096	-0.410576689854195	-0.825709455420097	-1.16353629788294E-17	-4.18189409699976E-18
55	-4.56654065009569E-18	2.21453709910112E-17	-0.515518267577477	-0.783919768269549	-0.515518267577477	-0.783919768269549	-1.06694590468927E-17	1.70171285822259E-17
55.1	1.77533171353136E-17	1.99765147861349E-18	-0.643702106484441	-0.693207937470645	-0.643702106484441	-0.693207937470645	3.32589394165173E-18	-2.86664434024981E-18
55.2	-1.57339393265045E-17	8.36481297548438E-18	-0.713651101925969	-0.587562540248536	-0.713651101925969	-0.587562540248535	-2.90323479155363E-17	-9.42486760093073E-18
55.3	4.00621951344965E-18	2.18830022048313E-18	-0.814432744629777	-0.455072066046123	-0.814432744629777	-0.455072066046124	-1.13677415150279E-18	1.39966848572733E-17
55.4	-1.30479050598833E-17	1.1303885787677E-17	-0.86355607025442	-0.37147363102979	-0.86355607025442	-0.37147363102979	-1.07198596294128E-17	1.54334508370257E-17
55.5	5.16961772541517E-19	-1.20332673137484E-17	-0.930980342586142	-0.212013960129902	-0.930980342586141	-0.212013960129902	2.9716153737489E-17	-1.07268761704095E-17
55.6	2.48722763375091E-18	-4.08836543812497E-18	-0.923815572681853	-0.0869921257322813	-0.923815572681853	-0.0869921257322812	-2.99045690460754E-17	-2.64172720731115E-18
55.7	-6.18693624835774E-18	1.34219557113425E-18	-0.950538587509154	0.0424578502478668	-0.950538587509154	0.0424578502478671	-2.80038665890233E-19	-3.12847295741515E-18
55.8	-3.49630861596348E-18	8.3817069169236E-18	-0.926250737881489	0.197666060622824	-0.926250737881489	0.197666060622824	-4.33657152488266E-18	3.64376393545069E-18
55.9	1.14369063413127E-18	-5.96084626942285E-18	-0.891340667832694	0.318560464586937	-0.891340667832694	0.318560464586937	1.97027045546759E-18	2.40435246897717E-18
56	-5.99524199044316E-19	6.63976348100848E-18	-0.809699836523428	0.451372447062437	-0.809699836523428	0.451372447062437	4.93409734877179E-18	-2.49912915482145E-17
56.1	-4.93704666204682E-18	-4.9117354881108E-18	-0.76790873732712	0.554978058341984	-0.76790873732712	0.554978058341984	-2.85943727615739E-17	-1.27300143907904E-17
56.2	6.28159696154305E-18	-2.22483956246928E-17	-0.682595333579994	0.673466772667076	-0.682595333579994	0.673466772667076	1.64646057548157E-17	-3.80634140684112E-17
56.3	-1.13473092307935E-18	-9.20833305600189E-18	-0.526312385885283	0.766667720018519	-0.526312385885283	0.76666772001852	1.36777225570585E-17	-2.05208267188303E-18
56.4	7.63235883853666E-18	2.76091352341572E-18	-0.469039179423069	0.829347516693827	-0.469039179423069	0.829347516693828	1.67776961142693E-17	3.40135386526065E-17
56.5	3.79168354625877E-18	-1.47279839855785E-17	-0.327538282080575	0.908820112539473	-0.327538282080575	0.908820112539473	8.26209596242615E-18	-9.97358682763803E-18
56.6	-6.72114977495246E-18	-9.28493803955614E-18	-0.181464257827145	0.912590555996569	-0.181464257827145	0.912590555996569	-7.17645249541431E-18	-6.22247966239762E-18
56.7	1.86146726003598E-17	-1.17730518451604E-17	-0.0575169371260522	0.943412509130213	-0.0575169371260524	0.943412509130213	7.25027405505859E-18	-2.09701914040901E-17
56.8	6.1739221602733E-18	-2.37534994824369E-18	0.0587729539854937	0.959905439365138	0.0587729539854937	0.959905439365138	7.975341277091E-18	-7.44619301983562E-18
56.9	2.11744417764268E-18	-2.6880619913389E-18	0.204941403530071	0.916603955847742	0.204941403530071	0.916603955847742	2.2483495263482E-17	3.33923979584181E-17
57	-1.23445909170607E-17	-8.35180589503407E-18	0.359405330889196	0.846845498363739	0.359405330889196	0.846845498363739	-9.68361934441889E-18	-1.95594570968513E-17
57.1	-1.36999449538781E-17	5.00946008657081E-18	0.458937962862105	0.815398088806297	0.458937962862105	0.815398088806298	-6.97975962312733E-19	-1.64129272971373E-17
57.2	-3.64779165297498E-18	3.93048084952611E-18	0.575747673441088	0.768200483350918	0.575747673441087	0.768200483350918	-2.81414497711768E-17	5.09711833512481E-18
57.3	6.07254751146811E-18	-1.02003827321106E-18	0.719169622335701	0.608442222484676	0.719169622335701	0.608442222484676	-2.73026227377074E-17	2.33178339004596E-17
57.4	1.30802256405196E-17	1.78971472541466E-17	0.726041130364336	0.53015241167327	0.726041130364336	0.53015241167327	-1.12112040507751E-17	-1.66547261624209E-17
57.5	7.21221885236811E-18	-7.01971107735797E-18	0.849745820317479	0.441080340563753	0.84974582031748	0.441080340563754	4.16575986500877E-18	-2.72357613948621E-17
57.6	-9.79078586387491E-18	-1.18352665623713E-18	0.907240795564222	0.29043649265561	0.907240795564222	0.29043649265561	-2.46911795014416E-18	2.10590082712705E-18
57.7	-6.03969062999187E-19	-1.5419272382221E-17	0.895595864654291	0.15436061414745	0.895595864654291	0.15436061414745	-1.31454449504499E-17	-2.29157481506463E-17
57.8	9.42552782606358E-18	6.45007526936865E-18	0.943038549536415	0.0501145522566773	0.943038549536416	0.0501145522566772	-4.00989225027858E-18	1.12845577363338E-18
57.9	7.19402907246812E-18	-4.12143459599843E-18	0.952099904248616	-0.0676928499330592	0.952099904248616	-0.0676928499330592	-3.57634969422776E-18	-2.68192133036013E-18
58	-1.0596511676503E-17	-1.21006967665763E-17	0.896684024894132	-0.263435799004581	0.896684024894132	-0.263435799004581	-8.4619322281484E-18	2.8860472762529E-17
58.1	-6.5866839682415E-18	6.29681409597425E-18	0.834351724454345	-0.334655599116972	0.834351724454344	-0.334655599116972	3.71910364893605E-17	2.38605406172122E-18
58.2	1.71783072770113E-18	-6.13744248177807E-18	0.816145750538582	-0.47431395530376	0.816145750538582	-0.474313955303761	2.10728876931922E-19	-2.3007574040504E-17
58.3	-1.1463712007101E-17	1.96243651735924E-17	0.722490384316549	-0.599420426858889	0.722490384316548	-0.599420426858889	-3.51266261553357E-17	8.9576410257094E-18
58.4	-9.51244490991439E-18	9.36497921131852E-20	0.622772112390059	-0.628933468819586	0.622772112390058	-0.628933468819585	-1.09783939451744E-17	-1.07643372774871E-17
58.5	-1.72067765215852E-18	5.41459229034333E-18	0.573172962919664	-0.761463402787315	0.573172962919665	-0.761463402787315	-3.44135530431705E-18	1.08291845806867E-17
58.6	6.94371143116766E-18	2.0049479925376E-17	0.425982005590587	-0.828992374674705	0.425982005590588	-0.828992374674705	1.20857706379037E-17	-1.24082539765069E-18
58.7	-5.78582887741236E-19	-1.83625354434525E-17	0.29660214416545	-0.847916041916169	0.29660214416545	-0.847916041916168	-1.06128401156497E-17	-5.77473832720434E-18
58.8	-6.85764546440917E-18	9.65699495815773E-18	0.196358701121532	-0.894588829899652	0.196358701121532	-0.894588829899652	2.54028332706338E-18	-2.03334618031267E-18
58.9	-3.92449736318651E-18	2.00413719158628E-17	0.0901479742719014	-0.929467159378123	0.0901479742719015	-0.929467159378122	-6.84132332244007E-18	-4.42260967760431E-18
59	-8.60034287621575E-18	-6.89398682533753E-18	-0.0817738703684204	-0.909495052523084	-0.0817738703684202	-0.909495052523085	-8.30798105025905E-18	-9.33591567742412E-18
59.1	3.60485648881086E-18	1.0823655326046E-17	-0.172807345156582	-0.889147089369797	-0.172807345156582	-0.889147089369797	-9.0453782115207E-18	2.13063218720768E-17
59.2	-3.59201317159415E-18	-8.7898383606257E-18	-0.29277459213417	-0.894056962844399	-0.29277459213417	-0.894056962844399	1.35145398634447E-18	-7.53410726005441E-19
59.3	-3.50676789742139E-18	2.31484294160935E-18	-0.444739962975719	-0.792027874389494	-0.444739962975719	-0.792027874389494	-6.05826832648616E-18	-2.43632486553658E-18
59.4	-1.26115207985335E-18	-4.3721607269223E-18	-0.511318952708113	-0.753591160653285	-0.511318952708113	-0.753591160653284	-2.5818009545223E-18	1.13594425464699E-17
59.5	6.32373336227461E-18	8.33057032232293E-18	-0.639938397149195	-0.67123003256909	-0.639938397149195	-0.67123003256909	1.19222929073811E-17	5.69386266980068E-19
59.6	-5.40308380646795E-18	7.5960144317551E-18	-0.714104487461225	-0.555804822887942	-0.714104487461225	-0.555804822887941	-8.24433088292472E-18	7.94920599914549E-18
59.7	5.64271641272499E-18	1.71678105860298E-17	-0.791765644649993	-0.478972345472675	-0.791765644649993	-0.478972345472674	7.29982270392301E-18	-4.71354007754068E-19
59.8	-1.17015407807206E-17	-1.15396979696431E-18	-0.859308819508271	-0.359788826074535	-0.859308819508271	-0.359788826074535	2.66535540537025E-18	-5.11927391210888E-19
59.9	-2.34882725294124E-18	-7.45542766724743E-18	-0.886555838643355	-0.248590967827163	-0.886555838643355	-0.248590967827163	1.09228960937165E-18	-3.20889719638557E-18
60	4.57662414970235E-18	6.25287117318984E-18	-0.911195205409337	-0.100699881514385	-0.911195205409337	-0.100699881514386	-5.85986329058149E-18	6.15850718649437E-18
60.1	-7.01695574325899E-18	4.45782820334534E-18	-0.906493669840834	0.0115801113437446	-0.906493669840834	0.0115801113437447	-5.56439784130184E-18	5.49034066533941E-18
60.2	8.77366477927534E-18	1.63289926617267E-17	-0.922317028594118	0.114988216557904	-0.922317028594119	0.114988216557904	-4.57080951174918E-18	-8.89086530562985E-18
60.3	1.29372190524388E-17	1.06603898898773E-17	-0.877392615327813	0.2787976515966	-0.877392615327814	0.2787976515966	6.39617557302843E-18	2.68063987704521E-18
60.4	1.70955293422632E-18	-7.99514383149098E-18	-0.823210300960326	0.348797703173556	-0.823210300960327	0.348797703173556	-9.20689455253902E-18	-8.43174718536971E-18
60.5	9.25301912640851E-18	-8.63992266592215E-18	-0.785496200483541	0.486967447607325	-0.785496200483541	0.486967447607325	-1.4897788973571E-17	4.18274091906276E-18
60.6	1.34546443034279E-17	2.22134517250044E-17	-0.705952016621926	0.582328169722168	-0.705952016621925	0.582328169722167	-7.22461639969568E-18	6.73940867206696E-18
60.7	1.64605586631528E-18	-1.40176353440316E-17	-0.617347827906182	0.675978230988231	-0.617347827906182	0.67597823098823	2.26997901579687E-18	8.91750723525461E-18
60.8	8.36183699678743E-18	1.76398096122303E-18	-0.524096599864479	0.758993733440533	-0.524096599864479	0.758993733440534	-1.15271118490647E-17	8.16048015668278E-19
60.9	-1.89016576154676E-20	1.25906822409972E-18	-0.425487218626785	0.820274884798111	-0.425487218626785	0.820274884798112	-4.67764465986492E-19	5.76557492545999E-18
61	1.32156927992866E-17	1.29855065675164E-17	-0.297236709067987	0.871783321473529	-0.297236709067987	0.871783321473528	1.24064892039198E-18	-4.61919479902745E-18
61.1	4.03343222745054E-18	1.64363976985876E-17	-0.174616672000198	0.888401351962019	-0.174616672000198	0.888401351962019	1.73510597737974E-17	1.01674974160467E-17
61.2	-2.91605404411574E-18	-1.41454148461451E-17	-0.070168740283478	0.909431476322822	-0.0701687402834783	0.909431476322822	-3.73797035784149E-18	5.2619595968391E-18
61.3	-8.29386754985907E-18	-2.72946650406521E-17	0.057306233224526	0.927835855646007	0.0573062332245265	0.927835855646007	-6.11328979289545E-18	-1.12320671730014E-17
61.4	-1.26436439481944E-17	1.04800423829968E-17	0.212678898974227	0.889790060544638	0.212678898974228	0.889790060544638	1.29003957055694E-18	1.29791052453041E-17
61.5	-7.30677506897986E-18	-1.44563608662792E-17	0.28142382846678	0.848970492867917	0.28142382846678	0.848970492867918	1.30102092449434E-18	-1.56766888895401E-17
61.6	-9.0899976060216E-19	1.23200196622368E-18	0.423430434366103	0.838627461145782	0.423430434366102	0.838627461145782	-1.00232588136776E-17	6.91009553439843E-19
61.7	-1.13228669190734E-17	8.49180273992241E-19	0.538950569010872	0.754321560543536	0.538950569010872	0.754321560543536	-8.46285612987832E-18	-2.89906953509736E-18
61.8	-2.59237912046115E-17	4.15518435729629E-18	0.613249272505377	0.664048203239672	0.613249272505377	0.664048203239672	-1.02024421067467E-17	-5.78917059741307E-18
61.9	-6.85135548014627E-18	-4.80042192365984E-18	0.705024049706828	0.573789692824634	0.705024049706828	0.573789692824634	-3.63910939302102E-20	-1.75439321453723E-19
62	-3.40187988997211E-18	3.14819818453356E-18	0.772424879576904	0.498298515444679	0.772424879576904	0.498298515444678	5.04117682454481E-18	1.3807041454222E-17
