# GHZ S RI R 50
50	-2.50834315478808E-17	-1.27735738527131E-18	0.852682015864179	-0.614859645626722	0.852682015864179	-0.614859645626721	-2.7469502000143E-18	9.59161257371873E-20
50.1	5.33017202856642E-17	3.33095989456737E-18	0.717188777738011	-0.734035081941839	0.717188777738011	-0.73403508194184	-1.26580011220275E-17	5.77625560171983E-18
50.2	8.36857199564874E-18	8.83773975349147E-18	0.600083360870602	-0.838412109170214	0.600083360870602	-0.838412109170214	-1.98342773187258E-17	-1.03491694732906E-18
50.3	-4.73549904983997E-18	-1.14969159655895E-17	0.462243863099732	-0.954747140351067	0.462243863099733	-0.954747140351067	1.10028672749708E-17	-4.96696131948643E-18
50.4	-2.45619244118312E-17	3.26376899643949E-17	0.257495240665577	-0.97971492417671	0.257495240665577	-0.97971492417671	-1.35127427875918E-17	-8.65221698135835E-18
50.5	3.67285823060017E-18	8.78845520687574E-18	0.12942582193287	-1.03991057194903	0.12942582193287	-1.03991057194903	-9.21354569291659E-18	-1.01893271306629E-17
50.6	7.06946519712216E-18	-3.6590935826238E-18	-0.0615531025784202	-1.03458569508663	-0.06155310257842	-1.03458569508663	2.20941179989696E-19	1.85021924177668E-18
50.7	3.73796616905315E-18	-6.63696162226814E-19	-0.215136059476207	-1.00761677620421	-0.215136059476207	-1.00761677620421	6.37027532938978E-18	5.21966734353203E-18
50.8	-3.73694978392103E-17	9.13091103543092E-18	-0.398899758183337	-0.982464227042507	-0.398899758183337	-0.982464227042507	-1.11097044973328E-17	5.36138326514663E-18
50.9	-1.05364599591169E-17	4.78095969208641E-18	-0.533774059159418	-0.869912250766786	-0.533774059159418	-0.869912250766786	-9.4838986214232E-18	-3.31943641344072E-17
51	-1.12475147573882E-18	8.03510661078539E-18	-0.688451633294757	-0.791533002582028	-0.688451633294758	-0.791533002582029	1.78475435776232E-17	1.02089273413011E-17
51.1	3.35479679054146E-18	-2.55920641325891E-18	-0.803468524092158	-0.665004198356799	-0.803468524092158	-0.665004198356798	-7.32489603258145E-18	-8.21063037275601E-18
51.2	-6.55842303155274E-18	-5.91679483544894E-18	-0.895043737335469	-0.52187667471288	-0.895043737335469	-0.52187667471288	-1.86819631225981E-17	-6.5440760325821E-18
51.3	-1.85752652391808E-18	-3.95023856567588E-19	-0.973833763352507	-0.371390178458011	-0.973833763352507	-0.371390178458012	3.46229968934335E-18	-9.5388919863473E-18
51.4	7.28727481225736E-18	-1.17881466733584E-17	-1.03975319156614	-0.226691324606223	-1.03975319156614	-0.226691324606222	4.63025849172368E-18	-4.36207857469926E-18
51.5	1.06000472236511E-18	-2.92443640266512E-18	-1.02666459921468	-0.0252799383302347	-1.02666459921468	-0.0252799383302346	-1.01405242146021E-17	1.33210617658957E-18
51.6	3.07925431991665E-17	3.1068091081841E-17	-1.04394101159451	0.109810685607717	-1.04394101159451	0.109810685607717	4.84108929960465E-17	-1.12756035269182E-17
51.7	-2.02143582122848E-17	2.68221252544394E-17	-1.02827323819891	0.281022284294109	-1.02827323819891	0.281022284294109	1.46004452136625E-17	1.99932004056202E-17
51.8	-1.00103532414085E-17	-5.84525585753021E-18	-0.90992509854448	0.43374187964839	-0.90992509854448	0.43374187964839	-2.46158619082119E-17	7.27461787139471E-18
51.9	1.1732302176895E-17	-6.42477650945284E-18	-0.904710510729359	0.583977823022499	-0.90471051072936	0.5839778230225	-2.16432801059583E-17	-9.50737940198723E-19
52	-8.77596273208604E-18	-3.35109748809708E-17	-0.736465741857255	0.725634591951676	-0.736465741857254	0.725634591951676	-3.88500387193143E-17	-6.37093181809991E-18
52.1	9.28029473984048E-18	1.97735763534917E-17	-0.622267483905975	0.818057898373537	-0.622267483905976	0.818057898373537	1.66972742498401E-17	5.35859288823726E-18
52.2	-1.94830287503527E-17	7.42772613219799E-18	-0.513029416517984	0.914358600457659	-0.513029416517985	0.914358600457659	-2.31093198831615E-17	3.53359940035939E-17
52.3	-1.39719664126493E-17	1.32632869966296E-17	-0.366247232180143	0.985336926912972	-0.366247232180143	0.985336926912972	-2.35970214501005E-18	2.32796336999851E-17
52.4	1.1349700913043E-17	2.19096098942654E-17	-0.188397976816347	1.06279945991276	-0.188397976816348	1.06279945991276	-3.3733364058182E-18	-3.78213077030948E-17
52.5	1.61010451426201E-17	-1.029957542446E-17	-0.0513893435926288	1.00621594325375	-0.0513893435926287	1.00621594325375	-1.7243417188371E-17	3.0096747051922E-17
52.6	-1.65287818763846E-17	-2.56462846208799E-17	0.106964440526886	1.07604915453298	0.106964440526886	1.07604915453298	2.20917770788271E-17	1.72879803975234E-17
52.7	-7.09403424303876E-18	-2.00564650096792E-17	0.336517740636889	1.03024433200122	0.336517740636889	1.03024433200122	-1.64479401254748E-18	1.20284162806812E-18
52.8	-8.6394651505591E-18	4.49692952325049E-18	0.367635630058782	0.867518112039092	0.367635630058782	0.867518112039092	1.39002780276903E-18	1.84917611559163E-17
52.9	1.08590477653395E-18	-3.66020321622913E-17	0.679145131248022	0.941633529884788	0.679145131248022	0.94163352988479	-2.07019048033966E-17	2.97082125477393E-18
53	-4.88581643025082E-18	-5.57110510160289E-18	0.685923549774066	0.73234653908294	0.685923549774066	0.732346539082939	8.8272711728143E-18	-2.78639700345358E-17
53.1	-1.976113063961E-18	3.30265525358105E-17	0.820212669548625	0.68332094255935	0.820212669548625	0.68332094255935	5.45728292899216E-18	-1.40675243657165E-17
53.2	-2.04220631922172E-17	-3.71822541342476E-17	0.970709210864945	0.526321822084933	0.970709210864944	0.526321822084932	-2.93490276446974E-17	1.440626041696E-18
53.3	-6.97552244408102E-18	-2.5145678432574E-18	0.985691364452803	0.388493159479295	0.985691364452803	0.388493159479296	-1.52796153100601E-17	-3.60551659759083E-18
53.4	4.2658229618408E-18	1.01635884647426E-17	1.0134123543626	0.168359578880949	1.0134123543626	0.168359578880949	-1.35632122550151E-17	-5.60179101282336E-18
53.5	-2.88009499089904E-17	-5.41585674217721E-18	1.09375213367305	0.101943600377544	1.09375213367305	0.101943600377544	-6.6289263315809E-18	1.25981757802916E-17
53.6	-1.1726632299485E-17	-9.71759094129322E-18	1.07445398855592	-0.127002103575203	1.07445398855592	-0.127002103575203	-5.60636449697247E-18	-5.96449065532205E-18
53.7	-2.75877656978567E-18	1.03741861687649E-17	0.970853439872511	-0.291959186221439	0.970853439872511	-0.291959186221439	-2.18935130919544E-17	-1.33102794425215E-17
53.8	3.76600779215078E-18	9.1104148040798E-19	1.07577292246772	-0.395523544643553	1.07577292246772	-0.395523544643554	7.90107238290042E-18	2.25613181078022E-18
53.9	-1.27190066162709E-17	1.29594005690523E-17	0.908973521025113	-0.578816919574886	0.908973521025113	-0.578816919574886	-3.25402171963184E-18	-1.20789545893161E-17
54	-4.725583331966E-18	-9.59385869860327E-18	0.790468283470078	-0.702474076364329	0.790468283470078	-0.702474076364328	1.09894316388018E-17	6.18366306402543E-18
54.1	-2.20219464198827E-17	2.93440661039271E-18	0.703687154185844	-0.786265108514762	0.703687154185844	-0.786265108514762	1.17309861298218E-17	6.38978546954948E-19
54.2	-7.78986833692645E-18	3.43812351197638E-18	0.586769419561881	-0.900354343459375	0.586769419561881	-0.900354343459374	1.24004319370677E-17	3.28678959713504E-18
54.3	1.65080562894834E-17	9.92103421848412E-18	0.391014596531192	-0.995354080875645	0.391014596531192	-0.995354080875645	3.29694629048806E-17	-5.10664304998815E-19
54.4	-9.699648562784E-18	6.74262653323602E-18	0.327190871596309	-0.984711194418219	0.327190871596309	-0.98471119441822	-1.83920607179218E-18	1.49458986878954E-17
54.5	1.13810344477318E-19	1.32955965916835E-17	0.0877977622786021	-1.11908695190812	0.0877977622786017	-1.11908695190812	-2.04547219628558E-17	3.4093934854151E-18
54.6	-1.6239242157983E-17	1.71393120224706E-17	-0.0588355000476693	-1.04519365970335	-0.0588355000476693	-1.04519365970335	-1.32234105462834E-17	1.49346313547648E-18
54.7	-6.19620664679322E-18	-4.44730043597121E-18	-0.197837126409016	-1.08640678834151	-0.197837126409016	-1.08640678834151	-1.3646428838995E-17	-1.97245313983306E-17
54.8	-9.26830056153919E-19	-7.54699841753731E-18	-0.38334995380687	-1.03379533331728	-0.38334995380687	-1.03379533331728	5.69333830522947E-18	-1.60208268912285E-17
54.9	6.15386917029099E-18	5.46340889799123E-18	-0.526400528399512	-0.93871774701448	-0.526400528399512	-0.938717747014481	-4.85820327174802E-18	4.0952581881503E-18
55	2.11075445463182E-18	1.81104323801876E-17	-0.652733724457835	-0.881822818721541	-0.652733724457835	-0.881822818721541	2.01374513164462E-17	1.26992597183968E-17
55.1	-4.35494243581262E-18	-3.34829962008297E-18	-0.794862061175909	-0.766596610101466	-0.794862061175909	-0.766596610101465	-1.21101873955348E-17	1.63148842109757E-17
55.2	-9.7953169343297E-18	6.28116699922168E-18	-0.874292384470667	-0.642060442835303	-0.874292384470667	-0.642060442835304	-1.3366938628745E-18	2.55844420713448E-18
55.3	4.163381921797E-18	-1.3182639160075E-17	-0.979739235556463	-0.480566496496433	-0.979739235556463	-0.480566496496433	1.73926338805851E-18	-7.87735102140806E-18
55.4	6.52158491981578E-18	5.40139405422922E-18	-1.03928321982267	-0.374499898174954	-1.03928321982267	-0.374499898174954	-3.23584742569494E-18	5.56636294664049E-18
55.5	1.40453235694667E-17	-9.06613069907163E-19	-1.10203316466613	-0.183691497807759	-1.10203316466612	-0.183691497807759	-3.42388044279505E-18	9.98520854902709E-18
55.6	1.93504019561346E-18	1.6740241629749E-17	-1.09179795564066	-0.0383742340324584	-1.09179795564066	-0.0383742340324583	-4.53638020055214E-18	3.49643222000647E-17
55.7	-4.67857832431541E-18	-1.12053041393387E-17	-1.11250491800718	0.120437029676031	-1.11250491800718	0.120437029676031	-2.03000529635505E-17	-2.66842821465895E-17
55.8	7.76489744881454E-18	6.61765339983889E-18	-1.07267085682045	0.298745210183408	-1.07267085682045	0.298745210183407	-1.19322968617415E-17	1.97680772156267E-17
55.9	-3.5130504376816E-19	-1.22083058966314E-17	-1.024447955948	0.441708796021829	-1.024447955948	0.441708796021829	1.04242495414298E-17	1.7264004378346E-17
56	1.0135895998626E-18	2.7577713667321E-18	-0.922054436150039	0.589455864744947	-0.922054436150039	0.589455864744948	3.2053661008833E-18	-1.68296256332483E-17
56.1	-8.28699535737756E-18	1.1729764282627E-17	-0.861822599644934	0.715278254379015	-0.861822599644935	0.715278254379015	-1.07006445729175E-18	-1.79115712863698E-17
56.2	-3.98248925768433E-18	-1.18312930077272E-17	-0.74989657917625	0.848251520863427	-0.74989657917625	0.848251520863426	-1.43449694468399E-17	1.77237991768241E-18
56.3	4.82024147092346E-18	5.73021373568892E-18	-0.565785386990132	0.941172978253973	-0.565785386990132	0.941172978253973	4.15659680809288E-17	1.5821290068226E-17
56.4	1.65459995429698E-18	-8.4863635080803E-18	-0.484926045862332	1.02037357374161	-0.484926045862332	1.02037357374161	1.37877316098699E-17	3.4458248611276E-17
56.5	-1.14878263167821E-17	-5.06737404903881E-18	-0.31060657423081	1.09883758226293	-0.31060657423081	1.09883758226293	2.78107418737994E-19	-2.63770776178183E-17
56.6	1.29782024775612E-17	6.94923118690131E-19	-0.142720265911752	1.09639147527514	-0.142720265911752	1.09639147527514	1.85710124451888E-17	-3.85660990070628E-18
56.7	-1.26324643804167E-18	-8.72989369024061E-18	0.0108666014898979	1.12306693223466	0.0108666014898981	1.12306693223466	2.01840260626448E-18	-8.79340497396796E-18
56.8	-1.40355508561727E-17	4.15444869605937E-19	0.156564774330001	1.13326456489866	0.156564774330002	1.13326456489866	-2.59549794433549E-17	-2.1239503185658E-18
56.9	-3.01720528550601E-18	-6.11414994523492E-19	0.323257078434689	1.07255476642583	0.323257078434689	1.07255476642583	3.98696871114484E-20	-1.56974414220536E-17
57	8.75661140651575E-18	-1.32760537738857E-18	0.494787586258812	0.979065790904119	0.494787586258812	0.979065790904119	2.40594852923366E-17	6.05668179880493E-18
57.1	2.21156739210594E-18	1.15221521559097E-17	0.618641581418344	0.931568322338442	0.618641581418345	0.931568322338442	-6.94768895890442E-18	-1.70459056576746E-17
57.2	-7.45904237808289E-18	-1.35861498727088E-17	0.757545520995527	0.860171057402556	0.757545520995527	0.860171057402556	-1.97275951136974E-17	-2.54875373456453E-17
57.3	-1.1801924070197E-17	5.93030883950917E-18	0.900615873052274	0.663790007445173	0.900615873052274	0.663790007445173	2.66713502613177E-17	5.37491624131651E-18
57.4	-1.06469463527178E-18	1.63999737601371E-17	0.919448185059244	0.574195632333722	0.919448185059243	0.574195632333722	-1.08734167680408E-17	-3.15537881799316E-17
57.5	-8.53638584039564E-18	6.70774071384207E-18	1.05434675729502	0.445713560692898	1.05434675729502	0.445713560692899	8.92016540238495E-18	2.22317141259017E-17
57.6	-4.5768180864223E-18	1.27819520541885E-17	1.10665362240517	0.263906184569769	1.10665362240517	0.263906184569769	1.88939123337115E-18	2.61162454142411E-17
57.7	-1.52739886523314E-18	2.08634897906468E-17	1.0885686113005	0.107810550839374	1.0885686113005	0.107810550839375	2.05577064720375E-17	1.36384224665522E-17
57.8	1.0344733699016E-17	5.02757212806527E-18	1.1344690137788	-0.0310417248850254	1.1344690137788	-0.0310417248850253	1.68384611499097E-17	2.14542642248539E-17
57.9	1.2677291859724E-17	1.06434380530317E-17	1.13478014222972	-0.178451823519949	1.13478014222972	-0.17845182351995	2.02391506825611E-17	3.09382086047825E-18
58	-9.52338835269417E-18	-1.0472504067697E-17	1.04876010572031	-0.394002041527554	1.04876010572031	-0.394002041527554	2.81753541099648E-18	-1.33133292447631E-17
58.1	8.35934866994083E-18	-7.32955934613212E-19	0.977802286215404	-0.482203905029546	0.977802286215404	-0.482203905029546	-3.61019576161069E-18	-2.09630157806748E-17
58.2	8.37112924864806E-18	-6.48629674215251E-18	0.933167166110334	-0.650688494477465	0.933167166110335	-0.650688494477465	-3.63116193615287E-18	8.23257737420755E-18
58.3	-6.09289709523713E-18	-1.649656821246E-19	0.810016769503313	-0.788382340950889	0.810016769503313	-0.788382340950889	-1.04781195108872E-18	-2.24559270410889E-18
58.4	-1.53606091687958E-17	-5.59322011265343E-18	0.696837916451716	-0.826597757901161	0.696837916451716	-0.826597757901161	0	0
58.5	-2.7894720719911E-17	6.08775492419539E-18	0.608303118450774	-0.980088888576027	0.608303118450775	-0.980088888576026	-1.65868297625042E-17	1.85180767840925E-17
58.6	5.17777021457217E-20	1.25129781039941E-17	0.429975411790593	-1.04415752059209	0.429975411790594	-1.04415752059208	-3.92648618941869E-18	-3.89412512557761E-18
58.7	2.90373258805891E-17	-2.83541340592418E-18	0.276630594128274	-1.06020325407189	0.276630594128274	-1.06020325407189	-2.90830703486833E-19	-3.7432366124221E-18
58.8	-1.52726460044522E-17	2.69925735221898E-18	0.143471269854783	-1.10827930420906	0.143471269854783	-1.10827930420906	-1.41167487666071E-17	1.53252158189243E-17
58.9	-2.23204156484925E-18	-3.3949116479844E-18	0.00364525398054072	-1.1398080174574	0.00364525398054088	-1.1398080174574	-7.74367342208777E-18	-2.25870962833063E-17
59	2.40011420771813E-18	1.28705866299818E-17	-0.193670709692785	-1.09693141260341	-0.193670709692785	-1.09693141260341	-9.14329776051984E-19	6.91957294147113E-18
59.1	2.45726337081954E-18	9.87331669492533E-18	-0.310331792668558	-1.06779555286652	-0.310331792668558	-1.06779555286652	-1.81084578093043E-18	1.14967378715893E-18
59.2	1.1744601118593E-17	8.02769677961212E-18	-0.463824191679541	-1.0537110474578	-0.463824191679541	-1.0537110474578	1.33466301721365E-17	-1.8071086872659E-18
59.3	7.42500267679861E-18	4.56801219873033E-18	-0.626527807788731	-0.918697231878551	-0.626527807788731	-0.918697231878551	2.10664274530038E-17	-6.71497863529869E-18
59.4	-6.37629441457448E-18	-7.86293469119839E-18	-0.716780225646826	-0.863527412678063	-0.716780225646826	-0.863527412678063	8.99066313058935E-18	-9.42978370782178E-18
59.5	-7.65660416993469E-18	1.95499105118504E-18	-0.859905853593996	-0.744768573770007	-0.859905853593995	-0.744768573770007	2.28604163729031E-17	1.23884399081647E-18
59.6	1.7521419685983E-17	-1.34346261088959E-17	-0.938765398131137	-0.600377491166176	-0.938765398131137	-0.600377491166176	-1.50368182945483E-18	1.88120518356141E-18
59.7	1.05743861193082E-19	2.81277209482233E-18	-1.02844261100202	-0.490290016893947	-1.02844261100202	-0.490290016893946	3.69594306995731E-18	1.4395470884747E-17
59.8	2.07868008934879E-17	9.91732343793451E-18	-1.09567833804243	-0.335363534836952	-1.09567833804243	-0.335363534836952	-2.85600161827241E-18	2.19375371938559E-18
59.9	1.8058945872402E-17	-3.04990152525485E-17	-1.12089955200891	-0.194382464356351	-1.12089955200891	-0.194382464356351	-1.05370953311711E-18	-8.72184387492078E-18
60	-8.75051653162887E-18	-5.76250188058309E-18	-1.13148953169796	-0.0134376179483318	-1.13148953169796	-0.0134376179483319	-1.45066046358003E-19	6.1066463944686E-18
60.1	-1.07631101843465E-17	6.97790080151793E-18	-1.11685218179605	0.126981647545627	-1.11685218179605	0.126981647545627	-2.85709904729557E-18	7.12464459789835E-18
60.2	-1.23605526665533E-17	-1.5287285748281E-18	-1.12118601944239	0.265446720038709	-1.12118601944239	0.26544672003871	-4.63311231297145E-18	1.035911879107E-18
60.3	2.30786225485872E-18	-2.46012525499919E-18	-1.04481362528019	0.452446133595413	-1.04481362528019	0.452446133595413	3.59266542453043E-19	-1.20468546080952E-18
60.4	-1.83661079570789E-17	3.87936125120688E-18	-0.976998842071046	0.542630502701443	-0.976998842071046	0.542630502701443	-1.43131790045679E-18	2.29915640697726E-18
60.5	3.32671999258019E-18	-1.33080742582565E-17	-0.904864999448771	0.706512620049933	-0.904864999448771	0.706512620049934	-2.77254035146878E-18	-1.871379519821E-18
60.6	1.17707574715013E-17	1.94366138415444E-17	-0.795861464947392	0.816320147237873	-0.795861464947392	0.816320147237873	1.27005268583675E-18	5.60644791969075E-18
60.7	-1.11530444896588E-17	5.9204501204506E-18	-0.673487756984745	0.921151483968323	-0.673487756984745	0.921151483968323	1.37020359506045E-18	4.30478046806872E-18
60.8	-1.36507209160839E-17	1.41680834790348E-17	-0.544585578986013	1.0123810438395	-0.544585578986013	1.0123810438395	-2.79899353001986E-17	3.37777009469245E-18
60.9	1.19924446967373E-17	3.23950749713125E-17	-0.411441838199253	1.07795971746965	-0.411441838199253	1.07795971746965	5.16624642163293E-18	4.61628368510692E-18
61	-1.04102913154662E-18	-8.69636588101137E-18	-0.246813435941118	1.12345103152808	-0.246813435941119	1.12345103152808	7.25160333702311E-18	1.85153753501379E-17
61.1	5.04246384003052E-18	-1.67313733821682E-17	-0.0932225763236542	1.13155929009387	-0.0932225763236539	1.13155929009387	-6.07191501181997E-18	-7.80776936964954E-18
61.2	1.11733664925264E-17	1.10994253037723E-17	0.0458745532900601	1.14493863322337	0.0458745532900605	1.14493863322337	2.28158301849287E-18	4.26605773857546E-17
61.3	-4.30773466631538E-18	-9.69420189262765E-18	0.210062511871184	1.14573930711698	0.210062511871184	1.14573930711698	-2.34123155985238E-17	-7.79484939432816E-18
61.4	2.51506012826975E-17	-9.08457154508635E-18	0.390048859815102	1.07776163102764	0.390048859815103	1.07776163102764	2.59061768803656E-18	-4.01139849464067E-18
61.5	4.98953300611688E-18	-3.04877227381416E-17	0.482511322032113	1.024249462232	0.482511322032113	1.024249462232	1.47141288938328E-17	1.14303592082102E-17
61.6	-8.92706786557149E-18	-3.64057165574817E-18	0.65754603964142	0.978278315777209	0.65754603964142	0.97827831577721	-1.68690232032958E-17	1.26426091352298E-17
61.7	-1.96529350305636E-17	-1.82820691779544E-17	0.78660621211426	0.859263779061137	0.78660621211426	0.859263779061137	-3.43410235235299E-18	1.21038395776639E-17
61.8	1.36318712906587E-17	-9.45284339866461E-19	0.871453901557968	0.740059500639839	0.871453901557968	0.740059500639839	1.92841428551372E-18	1.17470985400594E-17
61.9	-8.48552914675151E-20	-1.86930529085907E-17	0.972470564729263	0.611828742526286	0.972470564729264	0.611828742526287	-4.8514227115151E-18	-8.45808798015918E-19
62	8.43218623902463E-18	-7.90718530434184E-19	1.05049336405944	0.500528071952597	1.05049336405944	0.500528071952597	-5.92878041405138E-18	4.80913201733795E-18
62.1	3.99005096678832E-18	1.13258976118041E-17	1.12604146520329	0.341291490214316	1.12604146520329	0.341291490214316	-4.24565511398375E-18	-1.20973795247187E-18
