# GHZ S RI R 50
50	9.30952451675047E-18	3.53471905330152E-17	0.781882310339309	-0.551299702841226	0.781882310339309	-0.551299702841225	3.98478308489045E-19	-4.07206871048481E-18
50.1	-3.67553911463379E-18	1.95966962268081E-17	0.657359709062472	-0.660379462316072	0.657359709062472	-0.660379462316072	6.71192062526953E-18	-1.43391145924614E-17
50.2	-1.73283564496244E-17	-3.98454861947308E-17	0.552847365456767	-0.753915232459032	0.552847365456766	-0.753915232459032	1.86414927077824E-17	3.66264822266189E-18
50.3	2.39293340007076E-17	-5.30119605134588E-18	0.431888950727037	-0.861345119131008	0.431888950727037	-0.861345119131009	2.35225951079089E-17	-3.49019315942152E-18
50.4	1.6638654279864E-17	-3.77036911234712E-18	0.241410135985987	-0.885588042789591	0.241410135985988	-0.885588042789592	-6.77984190403842E-18	-1.44871680081758E-18
50.5	9.65721000575482E-18	-5.37781620424037E-18	0.131194304533929	-0.940171366046474	0.131194304533929	-0.940171366046474	1.17969069065121E-18	-1.2895329309238E-18
50.6	-1.02278880722502E-17	5.55002169893554E-18	-0.0432879486809174	-0.937518960883165	-0.0432879486809176	-0.937518960883165	-3.32454376821918E-18	-2.7613377216124E-18
50.7	-9.80493164109383E-18	-1.58764859670444E-17	-0.181024991047731	-0.913161095911134	-0.181024991047731	-0.913161095911134	-7.85276772862422E-18	-3.26463287845312E-18
50.8	-3.55552691975616E-18	-8.66072830858674E-18	-0.346510249913504	-0.895605926502129	-0.346510249913503	-0.895605926502129	3.44300024500035E-18	-9.70241094713867E-19
50.9	-1.76473499264126E-18	-5.9859264004685E-18	-0.470306693466515	-0.79167349015543	-0.470306693466515	-0.79167349015543	-7.4048006818374E-18	-1.40824485048506E-17
51	5.47325031736609E-18	4.91137596971356E-18	-0.610010636269919	-0.725664071868393	-0.610010636269919	-0.725664071868393	3.14362740253404E-18	-8.94679861020451E-18
51.1	2.39522471459031E-17	-6.05204903286537E-18	-0.714897010669302	-0.612476986026973	-0.714897010669302	-0.612476986026973	-9.43340388104414E-19	-6.07649994786056E-18
51.2	-1.86656721434396E-18	9.50830669511069E-18	-0.798711643924879	-0.484161409198392	-0.79871164392488	-0.484161409198393	3.38331696035565E-18	-5.83653435247951E-20
51.3	9.80656589328947E-18	3.04564778266111E-18	-0.871527787391822	-0.350514476188726	-0.871527787391821	-0.350514476188725	-5.52249466797261E-19	-5.29928715287056E-19
51.4	1.64331801612096E-17	-2.36321754249417E-18	-0.9325274400493	-0.224173762430447	-0.932527440049299	-0.224173762430446	-1.07550756371517E-17	6.15634020947676E-18
51.5	-2.02075816554311E-18	-1.59662257267791E-17	-0.923446814186803	-0.0382463509283883	-0.923446814186803	-0.0382463509283881	-1.0708054996569E-17	-5.34928138174534E-18
51.6	1.56854043802362E-17	1.53670678822077E-17	-0.940021712522144	0.0782994703462821	-0.940021712522144	0.0782994703462818	2.22075738010681E-18	4.0999530231944E-19
51.7	8.905511019987E-18	-2.0558917628714E-19	-0.930186037781435	0.230951897643767	-0.930186037781434	0.230951897643767	-8.04637567306375E-18	-2.81934135823403E-17
51.8	9.54683496668932E-18	2.6147827309807E-17	-0.821729461775319	0.373620666672033	-0.821729461775319	0.373620666672033	5.0313020818875E-18	-1.43685234019741E-17
51.9	1.89639626540897E-18	6.9093757709737E-18	-0.825536558882332	0.502313777546844	-0.825536558882332	0.502313777546843	-2.15913274918807E-17	4.17224353484908E-17
52	3.29230712151788E-18	8.02623479983776E-18	-0.673587344937869	0.637422763287291	-0.673587344937869	0.637422763287292	-2.02530069656874E-17	-2.55854588570576E-17
52.1	-1.48133325125618E-17	-1.20076560516318E-17	-0.572378063867876	0.719581000567341	-0.572378063867876	0.719581000567341	-1.43702493144097E-17	2.25081895420812E-17
52.2	1.7024645349936E-18	-5.69442646357936E-20	-0.479303035985566	0.805328443465743	-0.479303035985565	0.805328443465743	-9.72991607247419E-19	2.69615783439982E-17
52.3	-1.22425293062478E-17	9.4417346640599E-18	-0.350386827412579	0.870978589269023	-0.350386827412579	0.870978589269023	1.994227315273E-17	2.33820645723981E-17
52.4	7.29247372195546E-18	3.57618655033294E-18	-0.194960676597986	0.947228522781734	-0.194960676597986	0.947228522781734	-2.30120497770666E-17	4.23571272318301E-18
52.5	-5.27301168029665E-18	-2.21328042160457E-18	-0.0680815280352225	0.891575044620282	-0.0680815280352226	0.891575044620282	2.11912360561313E-17	-1.91966943650046E-17
52.6	4.19737253098006E-18	-1.11400099361818E-17	0.0643607437692695	0.961993226913884	0.0643607437692693	0.961993226913885	2.44452917887694E-18	-6.02325259088394E-18
52.7	-3.03628218301751E-18	-1.06911484824234E-17	0.275318564788098	0.930734649027373	0.275318564788098	0.930734649027373	-2.67618618047145E-17	3.68274684910951E-17
52.8	1.09366831799959E-17	-5.18899536535415E-19	0.305377373112679	0.768986597397838	0.305377373112679	0.768986597397838	2.27867119393541E-17	-3.5313070343909E-18
52.9	6.31717945695986E-18	-3.0091639062147E-17	0.579903588543065	0.86748826018243	0.579903588543065	0.86748826018243	-2.76860220660055E-17	-3.18948778724177E-17
53	2.48455131632961E-17	1.1179961199396E-17	0.590027269809253	0.66341051472135	0.590027269809254	0.66341051472135	1.77512920622747E-18	-1.51082689041597E-17
53.1	-1.92010350353252E-17	-1.77671034808889E-17	0.705660847147693	0.630540668893568	0.705660847147694	0.630540668893568	-8.13053153696433E-18	1.10789439945978E-17
53.2	-4.48999149851491E-18	5.75903836727854E-19	0.848714399342226	0.498829413169543	0.848714399342226	0.498829413169542	-2.30174209661842E-17	7.04404007393177E-18
53.3	3.19084166505452E-18	-2.22793550123732E-17	0.859964720620303	0.37358283936915	0.859964720620303	0.37358283936915	-1.60620048421109E-17	-3.50772682478104E-17
53.4	9.07756759268963E-18	5.60958279526277E-19	0.893791650514072	0.173501641447394	0.893791650514072	0.173501641447394	8.4936731552005E-18	1.73825062399784E-17
53.5	-3.49449003575823E-18	-1.19912725311888E-17	0.962565001329167	0.129804783802441	0.962565001329167	0.129804783802441	-1.09683678486446E-17	-6.40728325981064E-18
53.6	6.8253908472699E-18	-2.75188808468523E-18	0.956071563984351	-0.0788528148901202	0.95607156398435	-0.0788528148901202	1.02173485601076E-17	3.22877537997155E-17
53.7	1.72384137685007E-17	-4.17895837157294E-19	0.863560766254231	-0.233615307772261	0.863560766254231	-0.233615307772261	-7.00167625852395E-18	-1.92224293024969E-17
53.8	-2.45426623433956E-17	-1.3422909129581E-17	0.966666548524021	-0.303506652333216	0.966666548524021	-0.303506652333216	1.89462371649906E-17	8.50465972553742E-18
53.9	2.03699080219673E-17	6.37784469336489E-19	0.821462110591908	-0.480541553812876	0.821462110591909	-0.480541553812876	-1.60496275808302E-17	-9.92488114156545E-18
54	-1.53302164335584E-17	2.39133201371697E-17	0.718495393264299	-0.593742053103481	0.7184953932643	-0.593742053103482	3.15458780173678E-17	2.75366017259545E-17
54.1	1.07393956996277E-17	-1.33445247717182E-17	0.644313383808164	-0.664588575944541	0.644313383808164	-0.664588575944541	-3.20143989519211E-18	-7.33607040501778E-18
54.2	5.70125578486156E-18	-1.66603302018537E-17	0.548030359040155	-0.768079920015372	0.548030359040154	-0.768079920015373	-3.28285182122921E-18	1.4195147271014E-17
54.3	-9.50313113651648E-18	-7.99146668568632E-18	0.377120618300913	-0.863472306308525	0.377120618300913	-0.863472306308525	-3.61852664696308E-17	-8.46529123004809E-18
54.4	-2.53724218798685E-18	-9.86268691309589E-18	0.322486880391037	-0.842676777740807	0.322486880391037	-0.842676777740807	7.4685856445348E-18	8.59406581910247E-18
54.5	-8.24223190486798E-18	4.71126827313554E-17	0.120855211369303	-0.983653204815827	0.120855211369303	-0.983653204815827	3.14263178782448E-17	4.29614234321582E-17
54.6	-1.59969764261921E-17	5.42007031805272E-19	-0.0155089433305708	-0.915734919255288	-0.0155089433305709	-0.915734919255287	2.80999443534306E-18	-3.00708790145407E-18
54.7	-2.74370125849982E-18	7.44293168674111E-19	-0.127797539163755	-0.959231079220435	-0.127797539163755	-0.959231079220435	1.99313967267082E-18	1.14251890847183E-18
54.8	-1.73529804635753E-17	-7.5789350816631E-18	-0.29449115219827	-0.921571805040951	-0.29449115219827	-0.92157180504095	-8.29523258875595E-18	-6.05390450953638E-18
54.9	1.2173158654552E-17	-6.29528232657544E-18	-0.42454185659776	-0.840730301654416	-0.42454185659776	-0.840730301654415	6.26253301467609E-18	-5.8973409188491E-18
55	-2.27104906210784E-18	1.58897307705057E-17	-0.532567785729534	-0.797275039601281	-0.532567785729533	-0.79727503960128	4.25890783002442E-18	1.4712466125795E-17
55.1	-2.77598860483744E-19	-8.94258805910827E-18	-0.662657649968426	-0.703396939651444	-0.662657649968425	-0.703396939651444	-5.74453714080812E-18	-1.25147788312329E-17
55.2	4.25173981038699E-18	-8.02179510783527E-18	-0.733964847359696	-0.5956168265245	-0.733964847359697	-0.5956168265245	1.0219115574436E-17	-1.16530079040113E-17
55.3	2.88705073284195E-18	-1.16346067641511E-17	-0.835393421509494	-0.459298077863221	-0.835393421509494	-0.459298077863221	6.70675796372243E-18	3.21312096918778E-18
55.4	6.26982471041857E-18	-2.76616529428801E-18	-0.88636651121178	-0.37293558497579	-0.88636651121178	-0.372935584975791	2.95547460557393E-18	-1.07436475401385E-17
55.5	8.30629955393091E-18	-6.17491277807178E-18	-0.953184550291592	-0.209243225871437	-0.953184550291592	-0.209243225871437	1.48879346710428E-17	1.5054345115521E-17
55.6	-1.96067887103465E-18	4.42026166075514E-18	-0.945908971913483	-0.0817933161597801	-0.945908971913483	-0.0817933161597802	-4.94832093413303E-18	-2.62590063658968E-17
55.7	7.02936778879918E-19	-5.03487887523264E-18	-0.972118475741003	0.0516982175246393	-0.972118475741002	0.0516982175246398	-6.97453101086423E-19	-6.53880855837192E-18
55.8	3.65875791598839E-19	-1.36500899662445E-17	-0.945864751462991	0.20995010266272	-0.945864751462992	0.20995010266272	1.04262276814192E-17	-8.46287032066936E-18
55.9	-1.04027172332721E-17	1.41648986396562E-17	-0.909484044603314	0.333849334465595	-0.909484044603314	0.333849334465595	0	0
56	3.61336131051727E-18	-1.48239636043581E-18	-0.825236968575922	0.468571166388311	-0.825236968575922	0.468571166388311	2.11985585743839E-18	-9.65044228490349E-18
56.1	1.62717023765191E-17	-7.81601648751179E-20	-0.781268757209338	0.575471267674413	-0.781268757209338	0.575471267674413	4.08842798256526E-18	-2.15099380369397E-18
56.2	5.37445839615723E-18	-1.17346109306178E-17	-0.692480921306583	0.696079364532128	-0.692480921306583	0.696079364532128	2.16538542608149E-17	-1.68361680719689E-17
56.3	-2.08840161850727E-17	-3.44366996980488E-18	-0.53258929873088	0.78907856270594	-0.53258929873088	0.78907856270594	-2.80817040914383E-17	-1.91882088981651E-17
56.4	-9.44436141181548E-18	9.83862929819484E-18	-0.472366456882164	0.854545859248176	-0.472366456882164	0.854545859248177	-1.40753674263359E-17	-2.24075646802149E-17
56.5	3.19903714647614E-20	1.35915461449939E-17	-0.326397074491519	0.934004237495798	-0.326397074491519	0.934004237495798	-1.58396465484824E-17	3.08007565874572E-17
56.6	-1.41781322661477E-17	5.86922740259599E-18	-0.177658290137286	0.937064609014713	-0.177658290137285	0.937064609014713	-1.07098376891871E-17	2.29182770369923E-17
56.7	-6.31326980707905E-18	-2.28700484204586E-18	-0.0496694770464394	0.967644731532114	-0.0496694770464391	0.967644731532114	6.48001978126166E-18	6.66999896730444E-19
56.8	-1.21333117971683E-17	2.22096879119757E-17	0.0706982352426327	0.983666988251693	0.0706982352426331	0.983666988251692	-4.68408339259929E-18	1.77239212095987E-17
56.9	2.85159336479986E-18	7.57342697488265E-18	0.219556063022392	0.938171258101195	0.219556063022392	0.938171258101195	-9.30427016308358E-18	-1.51607936554735E-17
57	1.73435923247099E-17	-1.18062190414509E-17	0.376246300879549	0.865273498343811	0.376246300879549	0.86527349834381	2.69406430570335E-17	-1.07757671153273E-17
57.1	4.53477023996642E-18	-2.69530341891894E-17	0.479340553786024	0.832026207761469	0.479340553786023	0.832026207761469	2.51151526183185E-18	-5.21619033446873E-17
57.2	-6.50357068910341E-18	-1.74698631999974E-18	0.599467234357271	0.781746907343205	0.599467234357271	0.781746907343205	2.39992715150335E-17	-1.79582850318627E-17
57.3	2.5740078825082E-18	9.38849137684672E-18	0.742637008942605	0.616897440407848	0.742637008942605	0.616897440407848	4.50861723980171E-17	8.03613184683476E-18
57.4	-8.15600260503139E-18	5.91062226236469E-18	0.751443645158512	0.537703498208866	0.751443645158512	0.537703498208866	1.46801757405502E-17	6.33944496440931E-18
57.5	1.03596361967989E-17	-1.70006779187384E-17	0.877091972056233	0.443106139082777	0.877091972056233	0.443106139082777	-3.0453160444294E-17	-2.43751789922608E-17
57.6	4.94855961273114E-18	-6.36488418386168E-19	0.933976062254067	0.288259737367418	0.933976062254068	0.288259737367418	1.82396950748852E-17	-7.61928030980049E-18
57.7	-2.40478236523214E-19	3.10866239472165E-18	0.921642755362573	0.149766267551668	0.921642755362573	0.149766267551668	2.87747781235851E-18	-1.81730831517635E-17
57.8	-1.58572764533906E-17	-1.11640946210733E-17	0.969333646409305	0.0406582879702945	0.969333646409306	0.0406582879702946	5.14787796349346E-18	6.98694333720567E-18
57.9	2.64510037949442E-19	9.79326373468862E-18	0.977573946781525	-0.0812702704796659	0.977573946781526	-0.081270270479666	-1.08427324078513E-17	-4.10832563653063E-18
58	3.73876063540715E-18	3.74450079470593E-19	0.917850253318917	-0.279663966854812	0.917850253318917	-0.279663966854812	7.69133193997446E-19	-1.71915868063727E-18
58.1	-1.05544662759626E-18	3.14624571690084E-18	0.85487859069534	-0.353143805645707	0.85487859069534	-0.353143805645707	-4.15230461712989E-18	1.05518603490948E-17
58.2	1.16111707907199E-17	2.55528405565812E-18	0.833228158915199	-0.497130453496999	0.833228158915198	-0.497130453496999	1.03752855866843E-18	1.35502901289768E-17
58.3	-7.97726906119279E-18	-1.11358618540543E-17	0.7356463208902	-0.62405270448352	0.7356463208902	-0.62405270448352	-8.4835044235766E-18	6.77933225069655E-18
58.4	1.32475681481328E-17	8.24402193306425E-18	0.634624943715497	-0.654834974187697	0.634624943715498	-0.654834974187697	7.20907029622142E-18	-2.26034679111914E-19
58.5	-1.61529174331224E-17	-1.23900416907001E-17	0.579658909929334	-0.790816770039137	0.579658909929334	-0.790816770039138	-6.36163326010358E-18	2.00802369117646E-18
58.6	-2.86576214899766E-18	4.15089097156031E-18	0.428280032454512	-0.857946132006197	0.428280032454512	-0.857946132006197	-4.46701763684731E-18	-6.32253330574001E-19
58.7	2.61008288374465E-17	4.94679284526812E-18	0.295855876355355	-0.87666702505344	0.295855876355355	-0.87666702505344	1.83942500073442E-17	2.81023427075152E-18
58.8	2.16197180648185E-18	-1.0842397100274E-17	0.191107791499626	-0.923976971700137	0.191107791499626	-0.923976971700136	-3.06316080934477E-18	7.08817775533612E-18
58.9	-4.36830492050501E-18	6.59297753314927E-18	0.0802193636242198	-0.958844504951091	0.0802193636242196	-0.95884450495109	-1.63795739551174E-17	5.38336418470745E-18
59	7.62905972446402E-18	-8.61977356243592E-18	-0.0952114865542035	-0.935781220997512	-0.0952114865542033	-0.935781220997513	-4.84796813675322E-19	-6.16795189010216E-18
59.1	1.03674109743291E-17	-1.60469476558565E-17	-0.189798767817665	-0.914704782290483	-0.189798767817665	-0.914704782290483	1.76379721369026E-17	-1.25993995377771E-17
59.2	-5.43436386101255E-20	8.56883978857831E-18	-0.31471869500724	-0.917377044796823	-0.31471869500724	-0.917377044796823	-5.37615620534404E-18	6.37701375749865E-18
59.3	-5.36908081400126E-18	9.30098250091989E-18	-0.468157308413619	-0.810808527073877	-0.468157308413619	-0.810808527073877	6.17777759298183E-18	1.0589379922363E-17
59.4	5.33516588595002E-18	-6.2065723679973E-18	-0.538290054259615	-0.770563922588504	-0.538290054259614	-0.770563922588503	1.15126490479919E-17	4.2190220245231E-18
59.5	-1.43800772129404E-17	4.66146564918592E-18	-0.669223711452409	-0.683238997518056	-0.669223711452408	-0.683238997518056	9.56342676301404E-18	-1.98396571427663E-18
59.6	7.07670130662373E-18	-2.77280332945879E-18	-0.744200760639738	-0.564002205231575	-0.744200760639738	-0.564002205231575	4.18918688378075E-18	-7.46068502048795E-18
59.7	-2.07003161918947E-18	1.16030905676627E-18	-0.823982321496495	-0.482733651503029	-0.823982321496494	-0.482733651503029	-3.36652386720143E-18	3.70063919299218E-18
59.8	-1.36910255070165E-17	-4.25083724093936E-18	-0.89181135267102	-0.358630233090395	-0.89181135267102	-0.358630233090394	2.34628446049604E-20	1.13309784404972E-18
59.9	-1.41872585203199E-17	2.80732061623322E-17	-0.919137000232176	-0.243433953021012	-0.919137000232176	-0.243433953021013	-2.88998886418745E-19	2.09153887434167E-18
60	-1.28755452689753E-17	-1.51728799766222E-17	-0.94207247635388	-0.0908988565227291	-0.94207247635388	-0.090898856522729	6.39803907088623E-18	-3.3683379295762E-19
60.1	-3.49302583520332E-18	2.00051552370948E-17	-0.936383087749528	0.0252581386186509	-0.936383087749528	0.0252581386186508	-1.85262618064149E-17	-4.33504368715591E-18
60.2	9.62617118455194E-18	8.89279214829846E-18	-0.951122630258641	0.133706127674424	-0.95112263025864	0.133706127674425	-7.04150444519781E-18	-7.13689102201091E-18
60.3	9.40350876599486E-18	-1.09826740396643E-17	-0.901929441497219	0.30091187426192	-0.901929441497219	0.300911874261921	-2.58733149504312E-18	4.71857388323785E-19
60.4	1.02602567116154E-17	7.34225051292789E-18	-0.846348708968392	0.373755206812057	-0.846348708968393	0.373755206812058	5.23733673082487E-18	5.2756922635103E-18
60.5	4.70738813601179E-18	3.02888940874101E-18	-0.804061248298587	0.51591610601762	-0.804061248298586	0.51591610601762	4.43730999971774E-18	5.51762254489392E-18
60.6	3.73419274179631E-18	6.11307955605989E-18	-0.720674691206737	0.613532044511665	-0.720674691206737	0.613532044511666	-6.65520192707298E-18	-2.64994799977013E-18
60.7	-3.09548197539672E-17	-3.2618672759739E-18	-0.627553416832758	0.70906155924134	-0.627553416832758	0.70906155924134	-1.32292618996137E-18	-1.08066959191253E-17
60.8	3.94595045832485E-18	1.77908826729808E-18	-0.529484477396284	0.793608811777367	-0.529484477396284	0.793608811777367	4.43129391455467E-18	2.43224792069276E-18
60.9	-2.22453137653401E-18	1.08707378909952E-17	-0.426207780788614	0.855895990075143	-0.426207780788614	0.855895990075142	-3.48690346646036E-18	6.45717309157554E-19
61	7.52014356650845E-18	-2.34715717934435E-18	-0.292888877394091	0.906906305841652	-0.29288887739409	0.906906305841653	6.3529042099935E-18	2.63868508708402E-18
61.1	3.54175657145702E-18	1.45336764272854E-17	-0.166010518183851	0.922678224077962	-0.166010518183851	0.922678224077963	-1.30734789505958E-17	1.54713508534581E-17
61.2	-3.46925048395835E-18	2.89599324954987E-18	-0.0567091411502627	0.943135683565267	-0.0567091411502625	0.943135683565268	-6.16976780838876E-18	5.88476716871071E-18
61.3	-1.6082977683446E-17	-2.42869758113048E-17	0.0760957568443563	0.959522170980956	0.0760957568443563	0.959522170980957	-9.20013716283496E-18	-1.17551095522792E-17
61.4	-2.96704891565005E-17	-2.36116618925566E-18	0.235089082730801	0.917467348830644	0.235089082730801	0.917467348830644	1.81600616343493E-18	6.54669169081603E-18
61.5	-9.32762340046226E-18	-2.09685204467073E-18	0.30717215294295	0.875414100472111	0.30717215294295	0.875414100472111	7.69769785862439E-18	1.43974395431265E-17
61.6	-7.34358017572978E-18	4.92892757947817E-18	0.454329138754027	0.860428846279507	0.454329138754027	0.860428846279507	-4.95657067597451E-20	4.44091774618801E-18
61.7	1.85917430220306E-18	-6.12385551871786E-18	0.572005662916106	0.771443927084715	0.572005662916106	0.771443927084714	-2.45341373168586E-18	-1.11953017624243E-17
61.8	1.55255051361893E-17	-5.98693020891465E-18	0.648006704991568	0.677411011235855	0.648006704991567	0.677411011235855	7.766978027967E-18	-3.08865087286435E-18
61.9	-3.25585133745802E-18	6.15162604600437E-18	0.741487496317551	0.581998828520417	0.74148749631755	0.581998828520416	5.57694971646045E-18	-3.14904388186791E-18
62	6.7095282996631E-18	-7.75233600391627E-18	0.810877374319618	0.501742621666303	0.810877374319618	0.501742621666303	2.22207289158603E-17	-5.05548660383842E-19
