# GHZ S RI R 50
50	1.05335722911341E-17	-2.33176014787605E-17	0.815864145697272	-0.588369804392497	0.815864145697272	-0.588369804392497	3.87406065107199E-18	1.14631639304552E-17
50.1	-5.3953510049735E-18	1.77142783102032E-18	0.687265839556166	-0.70026547278319	0.687265839556166	-0.70026547278319	5.8440748186071E-18	-1.09514643065847E-19
50.2	6.01797476635613E-18	-7.36748897782556E-18	0.577358412135551	-0.801727352140825	0.577358412135551	-0.801727352140825	1.8786778363441E-18	5.620830566585E-18
50.3	-3.27391197597413E-17	-1.68352266986518E-17	0.444272725827842	-0.916080496862122	0.444272725827842	-0.916080496862122	7.57625410665096E-18	8.95918428094746E-19
50.4	5.28938695092953E-18	-1.57321818124064E-17	0.249823477887837	-0.935837910020296	0.249823477887838	-0.935837910020296	-3.50919116528404E-19	1.8571160812112E-17
50.5	7.16862150615097E-18	1.09399042724688E-17	0.127019573377986	-0.999111717645734	0.127019573377986	-0.999111717645735	-5.75298502284164E-20	7.2549162814936E-18
50.6	-2.42652557720699E-17	-7.15689491693096E-19	-0.055881117206677	-0.993179792430558	-0.0558811172066769	-0.993179792430557	9.35507625753095E-19	-7.01545348914948E-18
50.7	-4.5392431170898E-18	6.62338793823265E-18	-0.202323317726038	-0.969718773590979	-0.202323317726038	-0.969718773590979	-3.60232693009255E-18	-4.00003968456703E-18
50.8	-2.1802047832378E-17	-3.04085557273046E-17	-0.381933420709068	-0.946148637897705	-0.381933420709068	-0.946148637897704	-1.27219170230039E-17	-2.78426302269774E-18
50.9	-1.04956456624494E-17	2.05344495970916E-18	-0.508379063432686	-0.839266218470683	-0.508379063432686	-0.839266218470683	3.02738350862407E-18	-2.18704045002232E-18
51	1.48720334253633E-17	2.05257645317476E-17	-0.660260453402651	-0.764478037767128	-0.660260453402651	-0.764478037767127	2.93546863880342E-18	1.65337040875778E-17
51.1	-1.31583914065446E-17	5.9463922756751E-18	-0.771232603110325	-0.643909015901705	-0.771232603110326	-0.643909015901705	-3.12564049886935E-19	-1.72293993828981E-18
51.2	-1.29402070051223E-18	-3.23615911991717E-18	-0.859897355287706	-0.507330592175372	-0.859897355287706	-0.507330592175373	-8.8805401591234E-18	-8.92246869930746E-18
51.3	1.29570354496777E-17	1.83089353514537E-17	-0.937382741973622	-0.362702008777608	-0.937382741973623	-0.362702008777608	1.99216882037886E-17	1.54372219639366E-18
51.4	-5.50354917008796E-18	-1.37115284587112E-17	-1.00432806350041	-0.222825130476868	-1.00432806350041	-0.222825130476868	2.87345703775602E-18	-5.74995404424881E-18
51.5	7.92697622770183E-18	3.70869035235373E-17	-0.989185413640239	-0.0304635867859411	-0.989185413640238	-0.0304635867859417	1.60055118061533E-17	2.68900931150184E-18
51.6	-2.05478423166214E-17	-6.82060769337784E-18	-1.01087348577795	0.100737504310695	-1.01087348577795	0.100737504310694	-3.88987251371671E-17	2.33530477937989E-17
51.7	5.64197143099443E-18	-1.60937184994968E-17	-0.997255367250851	0.267956199841087	-0.997255367250851	0.267956199841088	2.68473669710956E-18	9.13321382269875E-18
51.8	-7.79775182485434E-18	9.63466628507825E-19	-0.882843876509949	0.410950162177633	-0.882843876509948	0.410950162177633	-5.01329669869386E-17	8.15195230302048E-19
51.9	7.09029599091012E-18	2.75296891685772E-18	-0.881141478763036	0.563554978657339	-0.881141478763035	0.563554978657338	8.48315432018808E-18	-2.61981933585583E-19
52	8.43686303000901E-18	-2.23018000235299E-17	-0.716782997055422	0.696696115129534	-0.716782997055422	0.696696115129534	1.65640981554443E-17	-3.21381292033959E-18
52.1	-2.2405718122171E-17	-2.12802958307174E-17	-0.609214321357083	0.787589391059674	-0.609214321357083	0.787589391059674	-9.49167049044567E-18	1.13488941868557E-17
52.2	1.40609330950856E-17	1.05074944339832E-17	-0.504664248623954	0.88495009541329	-0.504664248623955	0.88495009541329	-4.51876492040579E-18	-1.82447902307344E-17
52.3	-1.13552346995669E-17	1.41648960176948E-17	-0.362879331070323	0.955797137367225	-0.362879331070323	0.955797137367225	2.08243129521405E-17	4.75627010877148E-17
52.4	-1.45201164396322E-17	6.61895251206136E-19	-0.187444669412024	1.0320257102594	-0.187444669412023	1.0320257102594	1.34046092280703E-17	-3.11971565450782E-18
52.5	1.0901544384228E-17	-2.63999010883701E-17	-0.0614594243831787	0.979254238901804	-0.0614594243831787	0.979254238901804	-2.66860880540586E-17	-3.53448057905447E-17
52.6	5.38738336329581E-18	-7.91289874351738E-18	0.0989222592954194	1.05122988669939	0.0989222592954193	1.05122988669939	2.73103325049326E-17	1.94210488246437E-17
52.7	-9.05919015356073E-18	5.89378522318602E-19	0.323109104368592	1.00252658448448	0.323109104368592	1.00252658448448	-4.38553925180683E-18	2.68623837220776E-17
52.8	-1.57351057146429E-17	6.90973474311336E-18	0.3423322640314	0.85392966695219	0.3423322640314	0.85392966695219	2.72531122631566E-18	-5.64934931360731E-18
52.9	2.50823542202455E-17	4.10106799101586E-17	0.663287559576254	0.916897379348147	0.663287559576254	0.916897379348146	-6.45438673992826E-17	2.55154491000643E-17
53	-7.51475315487888E-18	-9.01181025306908E-18	0.659656266567187	0.722112080031728	0.659656266567187	0.722112080031729	-2.70787507194476E-17	4.62849809127357E-18
53.1	1.70650415772199E-17	-1.43973435376177E-18	0.798488987936144	0.674941300499737	0.798488987936144	0.674941300499737	1.58559168857703E-17	-1.99860728218805E-17
53.2	7.25140652948123E-18	1.69209592280658E-17	0.946243648131552	0.517412992113996	0.946243648131551	0.517412992113996	3.63677336330313E-17	6.54099320988099E-19
53.3	1.17337238253045E-18	-7.94994958695719E-18	0.962457000227156	0.388209571909432	0.962457000227156	0.388209571909432	3.0257622468633E-17	-7.16996760086977E-18
53.4	-1.51630705370386E-19	5.4934000386366E-18	0.985664027522923	0.173941468629213	0.985664027522923	0.173941468629213	-9.79714164632365E-18	-3.56897529284865E-18
53.5	1.97222011388364E-18	-9.92665073264415E-18	1.07501144327833	0.105757710549593	1.07501144327833	0.105757710549593	-4.84040364806324E-17	2.03067406349684E-17
53.6	1.63765534034679E-18	1.15951261222506E-17	1.05226203909317	-0.118055447003907	1.05226203909317	-0.118055447003907	4.9564191361895E-18	2.18109568062979E-17
53.7	-3.60864737464556E-18	-3.7527802776598E-18	0.951038787054954	-0.273694548301324	0.951038787054954	-0.273694548301324	1.07195333320904E-17	2.29907515809664E-18
53.8	-3.02242032095048E-18	1.0170276884424E-17	1.06186853943016	-0.38831684894529	1.06186853943016	-0.38831684894529	1.95827165119471E-18	-4.55562775135311E-18
53.9	2.08087475573211E-18	-6.53228392723184E-18	0.89562944670723	-0.561832677878606	0.89562944670723	-0.561832677878605	-2.1305843775905E-18	-1.34141210838019E-17
54	1.1190049500984E-17	-1.30765138580334E-17	0.781136652408723	-0.682314530729317	0.781136652408723	-0.682314530729317	1.10948935127474E-17	1.50526831511834E-18
54.1	7.56487020125147E-18	1.0588108354582E-17	0.700141559839732	-0.76793872220694	0.700141559839731	-0.76793872220694	2.69450857135596E-17	-1.37823171914676E-17
54.2	-1.35785750422181E-17	-5.87134938053563E-18	0.584924249885822	-0.882864449051275	0.584924249885822	-0.882864449051275	-5.79452271185785E-18	-1.86751478336051E-17
54.3	2.23605771888571E-18	-2.16614381962E-17	0.391103850396138	-0.973671927280161	0.391103850396138	-0.97367192728016	-1.45330804252084E-17	1.51715841313046E-17
54.4	-1.77054838269223E-17	4.77619398490177E-18	0.335023566268428	-0.972057020845858	0.335023566268428	-0.972057020845858	5.00752104364077E-19	-6.59300777934181E-18
54.5	5.52705040693019E-18	-2.05076322426296E-17	0.0901805691186202	-1.10007184635207	0.09018056911862	-1.10007184635207	-3.54480924570777E-17	-5.85117644607357E-18
54.6	1.35264602092499E-17	6.15482899350381E-18	-0.0474645915702444	-1.0297185656554	-0.0474645915702442	-1.0297185656554	2.31435033565764E-18	-1.50227750042317E-17
54.7	5.45941475003106E-19	-6.79136415898316E-18	-0.189697716099894	-1.07431727840151	-0.189697716099894	-1.07431727840151	6.12263617935675E-18	-8.82415531826727E-18
54.8	7.34961024328594E-18	-8.21382347591058E-19	-0.372500261653534	-1.02157984597078	-0.372500261653534	-1.02157984597078	2.25477074229856E-17	-8.24405989877637E-18
54.9	-6.93865326986485E-18	-2.96297722795391E-18	-0.511889929442854	-0.929572112114089	-0.511889929442855	-0.92957211211409	-1.57256452631047E-17	-1.16824744702322E-17
55	-3.02972423840665E-18	2.78376258339747E-18	-0.640082655424017	-0.875808888454456	-0.640082655424017	-0.875808888454457	1.28240782685125E-17	-6.62529713912377E-18
55.1	8.29284338539105E-18	1.37141964120447E-18	-0.78095170012509	-0.761494036663878	-0.78095170012509	-0.761494036663878	6.1897368747986E-18	-1.56189592788566E-19
55.2	1.19221120397304E-18	2.25189312454049E-18	-0.860580688427947	-0.641597460114321	-0.860580688427947	-0.641597460114321	6.134108615083E-18	-3.91288414774029E-18
55.3	1.12176571187186E-17	6.52432942510444E-18	-0.964295074972424	-0.480952864534355	-0.964295074972423	-0.480952864534355	3.66533140007955E-18	1.99346105870101E-17
55.4	6.0420058731681E-18	1.05744066560871E-17	-1.0283212793071	-0.377066381439627	-1.0283212793071	-0.377066381439627	4.07889383033841E-18	2.25488563687709E-17
55.5	3.7658783530968E-18	-2.33806060850998E-17	-1.08912266357075	-0.186703286967469	-1.08912266357075	-0.186703286967469	4.44032952412207E-18	-1.89302954392171E-17
55.6	7.42730027093775E-18	8.78719247085286E-18	-1.08186335832873	-0.0452878634452527	-1.08186335832873	-0.0452878634452526	5.06051562823514E-18	1.26708291313111E-17
55.7	-1.1388550608148E-17	-7.44176416513493E-18	-1.10417759327686	0.114472702779645	-1.10417759327686	0.114472702779646	1.83838482134218E-17	-1.25898976230147E-17
55.8	5.83788273899242E-18	-1.81641864209667E-17	-1.06456876358912	0.290726895832005	-1.06456876358912	0.290726895832005	1.92673009293187E-17	-8.91854457700177E-18
55.9	-2.61377836257446E-18	-1.87558309125118E-17	-1.01899363969263	0.433490021962783	-1.01899363969263	0.433490021962784	1.70228566585208E-17	-1.4616364788055E-17
56	1.72608534451891E-18	-5.97088823164925E-18	-0.918373308865535	0.578486885912409	-0.918373308865534	0.578486885912409	-6.33409129659683E-18	3.76448278587051E-18
56.1	-4.412171179244E-18	5.70873768996983E-18	-0.860087665856255	0.707305415982979	-0.860087665856255	0.707305415982979	-7.22978605970306E-18	-1.8962026108808E-17
56.2	1.57846963602261E-17	2.58875513110428E-18	-0.748434020050863	0.840489977605575	-0.748434020050862	0.840489977605575	-5.0249530855668E-18	1.38559741341682E-17
56.3	2.78046125964963E-17	1.92122069021516E-17	-0.566886255023266	0.929308269362286	-0.566886255023266	0.929308269362287	6.67096405002824E-17	4.42708351184078E-17
56.4	1.3485004428371E-17	1.59335481621688E-17	-0.486784196001743	1.01451364039696	-0.486784196001743	1.01451364039696	3.9105606935768E-17	-3.94171629409999E-19
56.5	-1.50726109052237E-17	2.42127482441784E-17	-0.31207532416437	1.09183904651521	-0.31207532416437	1.09183904651521	6.57765238721065E-18	3.17615659306753E-17
56.6	-1.25604596796241E-17	-1.84987397925264E-18	-0.14838867007121	1.0901136371469	-0.148388670071209	1.0901136371469	-9.65871019593707E-18	1.91101360317971E-17
56.7	-4.364053985111E-18	-2.12453136565522E-18	0.00592598985837239	1.11859699828102	0.00592598985837217	1.11859699828102	-2.35998275298085E-17	2.62993151644666E-17
56.8	-2.78001631022406E-17	1.82296715255134E-17	0.153305849000599	1.1312306503544	0.153305849000599	1.1312306503544	4.1548992171407E-18	1.29243290863713E-17
56.9	3.08789093883448E-18	-7.17428783185785E-18	0.31759167765392	1.07140356114261	0.31759167765392	1.07140356114261	1.28046301942985E-17	9.76292579359789E-18
57	-2.18072418740643E-17	1.85083010541395E-17	0.485936495744523	0.977823407771575	0.485936495744523	0.977823407771575	-6.40719059091545E-17	3.31939683571773E-17
57.1	-1.05559606445363E-17	1.89819360973035E-17	0.613063098903912	0.9327331904885	0.613063098903912	0.932733190488501	-4.06520889507473E-18	3.12036156835468E-17
57.2	2.42098902352068E-17	7.79303391296263E-18	0.754755388489622	0.861213186589902	0.754755388489622	0.861213186589903	2.43421612765204E-17	-1.05466658940596E-17
57.3	-7.1865415500239E-18	2.14723258156441E-18	0.891348854806024	0.66396308503991	0.891348854806025	0.66396308503991	-4.10659517144223E-18	1.22699004660823E-18
57.4	-2.3081566231196E-18	1.08434382287268E-18	0.915457700157292	0.581375503496902	0.915457700157292	0.581375503496901	-6.34572856567982E-18	7.28568353027326E-17
57.5	1.63530074067513E-18	-1.57154328901075E-18	1.05198928048563	0.448049572699428	1.05198928048563	0.448049572699428	2.47414656896529E-17	6.10609730234923E-18
57.6	-1.21313775839939E-17	1.25984926366599E-17	1.10286284808754	0.267000524927786	1.10286284808754	0.267000524927786	6.04432394455964E-18	-4.42641872123308E-18
57.7	-7.16204639678576E-20	-2.13383572145049E-18	1.08661111499364	0.115299326115621	1.08661111499364	0.115299326115621	1.69274448436682E-17	-4.84063515464385E-18
57.8	-6.59078042457187E-18	1.43117452712504E-17	1.13517682458889	-0.0272240163383152	1.13517682458889	-0.0272240163383152	-6.70237446802059E-18	3.21660119576206E-19
57.9	5.83913121357015E-18	-8.18775032425639E-18	1.13751584093193	-0.176456231354309	1.13751584093193	-0.176456231354309	1.05034570262394E-17	2.69097183736521E-18
58	5.8882082039562E-18	1.20664440579177E-17	1.04786657292992	-0.387702041976086	1.04786657292991	-0.387702041976086	-8.98435753169528E-18	-4.98057235228481E-19
58.1	5.32586904172475E-18	-1.73010775085906E-18	0.983317557652738	-0.476269784024131	0.983317557652738	-0.476269784024132	2.04823370724886E-17	5.62691592044295E-18
58.2	-1.89674739074612E-17	2.48979662267834E-18	0.93641376359731	-0.648473521590749	0.93641376359731	-0.64847352159075	-1.68606885677148E-17	3.28144258751927E-18
58.3	1.55706416825946E-19	-4.42861704362315E-18	0.813059035716827	-0.784974952765883	0.813059035716828	-0.784974952765883	7.75007982634051E-18	2.72486229445405E-19
58.4	2.22600488689411E-17	-3.47143824338075E-18	0.706656597488534	-0.825400559280651	0.706656597488534	-0.825400559280651	-1.77312002998988E-18	8.56794116734868E-18
58.5	-2.5208481087193E-17	3.31241439767093E-17	0.612347608103292	-0.983064362929566	0.612347608103293	-0.983064362929566	5.67951075457211E-18	6.2838516165652E-18
58.6	1.51030102796038E-18	1.73037011040442E-17	0.435178359988057	-1.04528991104567	0.435178359988057	-1.04528991104567	-5.43884478232822E-18	-1.81041230800886E-17
58.7	-1.66487941090037E-17	-4.76347820122311E-18	0.284792877296306	-1.06275425610038	0.284792877296306	-1.06275425610038	-3.00944891015259E-18	3.11211891213632E-18
58.8	1.16277131790707E-17	-2.18093374076445E-17	0.14921988755651	-1.11388881403772	0.14921988755651	-1.11388881403772	-2.64216104549868E-18	-7.20839896371967E-19
58.9	8.85537293357943E-18	2.63862623963259E-17	0.00628071227676863	-1.14790625902987	0.00628071227676852	-1.14790625902987	-1.4832408428663E-17	-2.44834539501839E-18
59	-2.36128086751858E-17	4.88182958845432E-18	-0.188974029863991	-1.10286575133728	-0.188974029863991	-1.10286575133728	-2.80400784944829E-17	7.02075899497835E-18
59.1	8.33264979593104E-19	-1.20710792308908E-17	-0.307934202699158	-1.07784072995011	-0.307934202699158	-1.07784072995011	2.75629280056723E-18	-2.03274858107207E-17
59.2	-2.16003579920522E-18	-7.15111865060374E-18	-0.466574661109984	-1.06322794085658	-0.466574661109984	-1.06322794085658	1.28135739668617E-17	4.63822709186658E-18
59.3	-1.55433156861342E-17	1.6749501179744E-17	-0.625264276258232	-0.927105013527828	-0.625264276258232	-0.927105013527829	-9.28491144311364E-18	5.60624513749839E-18
59.4	-2.74315887820439E-18	6.03018887715566E-19	-0.721215106404122	-0.874706155951092	-0.721215106404122	-0.874706155951092	3.28305764520403E-18	6.37405830078849E-19
59.5	3.09046866776573E-17	6.93041255144902E-18	-0.864910942731089	-0.752962732571094	-0.86491094273109	-0.752962732571095	3.53463473753864E-19	2.54189523675495E-18
59.6	-4.66925138127147E-18	3.03873883921095E-19	-0.943939934978241	-0.609732527561262	-0.943939934978242	-0.609732527561263	-6.31338651961875E-18	4.65026850969575E-18
59.7	1.31000623686671E-18	-1.57816766943631E-17	-1.0375078910025	-0.497245609839799	-1.0375078910025	-0.497245609839799	7.63936701905261E-18	8.58977833810649E-18
59.8	7.06042536595212E-18	1.99722525684374E-18	-1.10531771506233	-0.340355715725288	-1.10531771506233	-0.340355715725288	-1.24609498409148E-18	-4.35582152559908E-18
59.9	-1.88215138900168E-17	4.78348934136212E-18	-1.13306492831868	-0.198769276338435	-1.13306492831868	-0.198769276338435	-1.57985314126517E-17	-6.93965872784114E-18
60	5.19707507035434E-18	-2.25066781053761E-17	-1.14254946800083	-0.0168763306556625	-1.14254946800083	-0.0168763306556623	-9.28197049222162E-18	7.37356793086702E-18
60.1	-1.4146685637536E-17	-2.21217298873312E-17	-1.13031911573518	0.124943280571104	-1.13031911573519	0.124943280571103	1.02268828659406E-17	4.60781623414654E-18
60.2	-1.90185538013E-17	1.74610063827831E-17	-1.13610702342879	0.268666526260494	-1.13610702342879	0.268666526260494	-2.63304271654545E-18	1.32188463139004E-17
60.3	-5.25846703819684E-18	1.5575454946745E-17	-1.05682929074867	0.454809595690642	-1.05682929074866	0.454809595690641	-1.50529723332417E-17	-1.58310894363027E-17
60.4	2.5287046891705E-17	1.06619941296878E-17	-0.993442975735369	0.548085688545491	-0.993442975735369	0.54808568854549	-1.27256600050078E-17	-7.03271251699769E-18
60.5	4.27329951703761E-18	-2.55479140831154E-18	-0.91738120162499	0.7151019344795	-0.91738120162499	0.7151019344795	1.7012800426429E-18	4.05848600344685E-18
60.6	3.9671530344303E-20	1.73857439664348E-18	-0.808130232344617	0.826780853309451	-0.808130232344616	0.826780853309451	-7.13943139484733E-18	-7.95466106295902E-18
60.7	-2.53009414682918E-17	-2.97773466891038E-18	-0.684165607773217	0.933346013126994	-0.684165607773217	0.933346013126994	-1.34148115006448E-18	3.46851073417446E-18
60.8	-3.35685092308367E-17	8.00189841319163E-18	-0.552892024712497	1.02663404084556	-0.552892024712497	1.02663404084556	-9.18151904626749E-18	-1.12507881672213E-17
60.9	1.4242156841821E-17	-2.95820621507024E-17	-0.41758830929554	1.09468165465713	-0.417588309295539	1.09468165465713	3.44147598715768E-18	8.65937999329369E-18
61	2.10494344935901E-17	5.1769972984595E-18	-0.250896461706079	1.14015127793325	-0.250896461706079	1.14015127793325	-4.02265964912135E-20	-1.32104034614106E-18
61.1	-1.7313872684145E-17	-1.4575778074168E-18	-0.0962902505290676	1.14960497427951	-0.0962902505290672	1.14960497427951	1.8103487818391E-18	-3.79186937398611E-18
61.2	-7.92758734446282E-18	1.91213662430647E-17	0.0467309672346366	1.1650497944462	0.0467309672346365	1.1650497944462	-1.45359445732921E-18	1.13552998578447E-17
61.3	-1.02536276371259E-17	-9.76106259055212E-18	0.215344803776844	1.1649356354212	0.215344803776844	1.1649356354212	-2.0804944814154E-17	-1.09358456438496E-17
61.4	-1.01088829171763E-17	-2.29393646144094E-18	0.395095070118548	1.09455028274924	0.395095070118548	1.09455028274924	1.10768189368583E-19	1.05289611750357E-18
61.5	2.85276868904752E-18	-3.06827047803956E-17	0.491829042968527	1.04516064189247	0.491829042968528	1.04516064189247	-6.40697038932792E-19	-1.3296472888976E-17
61.6	7.88130776045787E-18	4.73044157234703E-19	0.671996315243882	0.99383747413743	0.671996315243883	0.993837474137431	-1.60973432747753E-17	-1.18420170047533E-17
61.7	-2.21639361770635E-17	1.76931903398706E-18	0.801504889809543	0.873129829874456	0.801504889809543	0.873129829874456	-8.5583863581008E-18	1.42471651832582E-17
61.8	2.29752383502904E-17	-2.00480010065107E-17	0.888521658118644	0.754361465849395	0.888521658118644	0.754361465849395	2.05303000453556E-17	-2.03923558410856E-17
61.9	5.20502823178612E-18	1.63004165527868E-17	0.991334741223078	0.623086396223797	0.991334741223078	0.623086396223797	-7.73126528441572E-18	-3.38899666450668E-17
62	-1.00361375201382E-17	-8.39029122459562E-18	1.07355912475711	0.508388518819704	1.07355912475711	0.508388518819703	2.15975801684506E-18	1.32596227645818E-17
62.1	-1.27414915953922E-17	1.25286831821783E-17	1.1489859026307	0.344578280361063	1.1489859026307	0.344578280361063	-5.76979224310908E-18	5.35252313050578E-18
