# GHZ S RI R 50
50	1.90055724003252E-17	1.45978539380432E-17	0.740303854606645	-0.514289701194216	0.740303854606646	-0.514289701194216	-1.04606504701998E-17	6.63330216045669E-18
50.1	1.50037082554109E-17	8.9500385949312E-19	0.624932064339262	-0.615525274429109	0.624932064339262	-0.615525274429109	4.95224255676897E-19	1.13539031087023E-17
50.2	-4.40125907568806E-18	9.02843575788048E-18	0.529398964572532	-0.706183388129351	0.529398964572532	-0.706183388129351	-8.72967035228041E-18	-9.69144015895911E-19
50.3	1.20140939300315E-17	2.1539365930202E-17	0.414734321730257	-0.81153510874163	0.414734321730257	-0.811535108741629	-1.01858245470918E-17	5.58500203554315E-18
50.4	1.94080220067105E-18	3.24768879118004E-17	0.23714935693262	-0.831073373774801	0.237149356932621	-0.831073373774801	-3.0510631943165E-18	-1.10481233894649E-17
50.5	2.165345177682E-19	8.87215618487763E-18	0.133224758611136	-0.889470344188504	0.133224758611136	-0.889470344188504	-8.46102855329898E-18	-1.12511563585185E-18
50.6	-1.21765643241086E-17	2.23238056260067E-18	-0.0313586374119722	-0.887180505973922	-0.0313586374119721	-0.887180505973922	-4.67016515700632E-18	-7.89248993487287E-18
50.7	8.67481173836745E-18	7.52302342995297E-18	-0.160776026740693	-0.867688312852317	-0.160776026740693	-0.867688312852317	5.32399913491188E-18	1.38732339025507E-17
50.8	-3.32306893974326E-18	-3.78944540872746E-18	-0.320926697049986	-0.85271756473151	-0.320926697049986	-0.85271756473151	5.33001678839085E-19	-8.12858782682367E-18
50.9	1.51172506818144E-17	-4.97438657206038E-18	-0.435420441109674	-0.756493250786039	-0.435420441109674	-0.75649325078604	1.51264254921605E-18	-5.23510415153158E-18
51	3.13754332953292E-18	1.31558269658402E-17	-0.571671398533336	-0.695385285719945	-0.571671398533335	-0.695385285719944	-2.75843153046284E-18	-5.43844510032632E-19
51.1	2.35250206862244E-17	-2.03038340468662E-18	-0.672216038065901	-0.589943860696682	-0.6722160380659	-0.589943860696682	4.30776766926395E-18	8.3547321883627E-19
51.2	-2.2011798779928E-17	1.15391819207572E-19	-0.753132401172944	-0.469972777746399	-0.753132401172944	-0.469972777746399	1.22801673895662E-18	-6.00793723579578E-19
51.3	3.12538522444952E-18	1.29933757981381E-17	-0.824840520374852	-0.343827640072379	-0.824840520374853	-0.343827640072379	6.37369471678243E-18	-1.44079696804424E-18
51.4	1.697031297392E-18	8.33674207756223E-18	-0.887253297591701	-0.223682791297666	-0.887253297591702	-0.223682791297666	3.14167827070948E-18	8.66814780740989E-19
51.5	3.5585116465245E-18	1.6392392999196E-17	-0.877099950606882	-0.0487901227375116	-0.877099950606882	-0.0487901227375116	2.66663861765542E-18	-1.18251363510456E-17
51.6	-2.8711824989224E-18	3.60477810118288E-18	-0.898926257496446	0.0629462505235502	-0.898926257496447	0.0629462505235499	9.27604068781487E-18	1.78986776010177E-17
51.7	1.96283516748547E-18	-1.80860686127426E-17	-0.89211925881501	0.210405606513669	-0.89211925881501	0.21040560651367	-7.10713052636221E-18	4.59067753889275E-17
51.8	5.35178706345744E-18	-1.69899696160033E-17	-0.789568748445504	0.342288420348625	-0.789568748445505	0.342288420348625	1.62900636056051E-17	1.17370513508171E-17
51.9	1.07876374479803E-17	8.24025090787657E-18	-0.797531228073933	0.47270735844147	-0.797531228073932	0.47270735844147	-4.49073390558388E-18	-2.28532665927058E-17
52	-8.04667680740579E-18	6.47184595275115E-18	-0.651616298228827	0.598578504233472	-0.651616298228827	0.598578504233472	2.6778829931918E-17	2.16991339346051E-17
52.1	-8.08800780262224E-19	6.31141941340981E-18	-0.558563487124438	0.679188604224441	-0.558563487124438	0.679188604224441	1.12418846075765E-17	1.54755171502446E-18
52.2	1.852622932406E-17	3.22705473859405E-18	-0.471458475157766	0.765970133084919	-0.471458475157766	0.765970133084919	-1.53278727878008E-17	1.32359087066326E-17
52.3	-2.48079805759183E-18	-1.52017190503506E-18	-0.34906180476333	0.831701773367423	-0.34906180476333	0.831701773367422	-1.8055633034068E-17	9.81133433455571E-18
52.4	9.23422099411231E-18	1.57330194949439E-17	-0.197714779677753	0.906880916728377	-0.197714779677754	0.906880916728378	5.20963447323185E-17	3.69986173614312E-17
52.5	-3.47929778181265E-18	1.10983121009711E-17	-0.0829654846740307	0.856465930430832	-0.082965484674031	0.856465930430832	4.27467141393103E-18	-1.78148914115948E-18
52.6	-1.18821349448474E-18	9.94911796445259E-18	0.0501923539953164	0.929163444720402	0.0501923539953167	0.929163444720403	-1.33216888665582E-17	-1.1398565746752E-17
52.7	4.54794128583431E-18	1.31130119181859E-17	0.254090754847075	0.896244390397785	0.254090754847075	0.896244390397785	3.33170804940248E-17	-2.05422927133046E-17
52.8	2.01383954028175E-18	1.27517872052437E-17	0.272814407751289	0.750812398552071	0.272814407751289	0.75081239855207	-5.72525018072154E-18	-2.40822638423362E-17
52.9	9.51962745127611E-18	-1.11798079124088E-17	0.554222932469555	0.838299723908913	0.554222932469555	0.838299723908914	-9.56287743581353E-17	2.78351766107384E-17
53	5.49897776463871E-18	1.37335939095297E-17	0.554560049643714	0.65094292516783	0.554560049643714	0.65094292516783	1.41946167630736E-18	2.31150500512787E-17
53.1	1.34978504966341E-17	2.19091659393174E-17	0.674045789112137	0.62080753244835	0.674045789112136	0.620807532448349	7.03661463905363E-18	-2.10426989852584E-17
53.2	1.45275847158777E-18	1.78340071342963E-17	0.8138814396617	0.490426012476169	0.813881439661699	0.490426012476169	2.27444688499661E-18	7.65597934862708E-18
53.3	2.60381142654515E-17	4.77023145978806E-18	0.826945542885841	0.375115881716187	0.826945542885841	0.375115881716187	2.2068340563311E-17	3.4929345752426E-18
53.4	-6.49581814456609E-18	1.47265506454484E-18	0.857008288042878	0.182916346717347	0.857008288042878	0.182916346717347	1.29609740294492E-17	1.01746289368769E-17
53.5	1.92170480675235E-17	-4.7027082661448E-18	0.934608383317636	0.138246884735971	0.934608383317637	0.138246884735971	-1.20082201234135E-17	-3.51770865811699E-17
53.6	-9.44146108842233E-19	-1.37797586591071E-18	0.925863189638492	-0.0635466127929979	0.925863189638492	-0.0635466127929978	3.92955762477948E-18	1.75563430944761E-17
53.7	6.84891226600435E-18	-3.6266569144201E-18	0.837437354890665	-0.208037986465863	0.837437354890664	-0.208037986465863	1.3228182233884E-17	-2.619972057698E-18
53.8	-2.48838706059943E-17	-5.59439140233505E-19	0.946219814657012	-0.287700986084533	0.946219814657011	-0.287700986084533	-1.22639531084344E-17	-1.22067066656663E-17
53.9	2.02919691447243E-18	-5.04468707184316E-19	0.803675967079734	-0.454336962337169	0.803675967079734	-0.454336962337169	-1.45742383673939E-17	-4.45655900936965E-18
54	9.19851746147231E-18	-1.17160634120481E-17	0.706290522904884	-0.563925269595722	0.706290522904884	-0.563925269595722	1.06141394436822E-17	-1.94970478972717E-18
54.1	-2.89169429964751E-17	-8.2642952340231E-19	0.638999234792894	-0.636329816828569	0.638999234792894	-0.636329816828569	-9.99319975732767E-18	2.81731928363098E-17
54.2	6.66057233711023E-18	-2.059555857568E-18	0.545958796192917	-0.740283075726201	0.545958796192917	-0.740283075726201	4.29906833546281E-18	2.63240403604009E-17
54.3	4.51782272071812E-18	-5.8474014749049E-18	0.379031360880601	-0.831701774113832	0.379031360880602	-0.831701774113832	-2.58629786306338E-17	-1.20809151608642E-17
54.4	-1.9570192682922E-17	8.45930145629007E-18	0.332552298528913	-0.820128332184931	0.332552298528913	-0.820128332184931	-4.74269052849862E-17	4.10626571012119E-17
54.5	6.48427590955623E-18	2.51530821843491E-17	0.128193444636865	-0.955093381375968	0.128193444636865	-0.955093381375968	3.71486721825747E-17	1.68353434613634E-17
54.6	2.14006457146575E-17	-2.68196677882353E-18	0.00162841092419638	-0.891930263229665	0.00162841092419647	-0.891930263229665	5.5604594448301E-18	-1.10201363834125E-17
54.7	4.53567727688229E-18	-2.698396197789E-18	-0.112381418762706	-0.939194771771525	-0.112381418762706	-0.939194771771525	2.70471063215495E-18	-1.02397355913702E-17
54.8	6.00628417574946E-19	-1.15734556778766E-17	-0.275144048738677	-0.902798571539088	-0.275144048738677	-0.902798571539087	-4.06476886148033E-20	-1.11425509663655E-17
54.9	5.49188315297443E-18	1.82546658797193E-18	-0.400836562531399	-0.826472467016942	-0.400836562531398	-0.826472467016941	3.69124222988252E-18	4.77414621882804E-18
55	-8.48753860775119E-18	-1.0913307080272E-17	-0.509838584072601	-0.787298856941571	-0.509838584072601	-0.787298856941571	4.63397812001598E-18	4.58626615283085E-18
55.1	6.41529977334381E-18	-2.35281749931325E-18	-0.638100651362739	-0.696050867043849	-0.638100651362739	-0.696050867043849	1.21935340609862E-17	2.61390903579673E-18
55.2	-4.8043909093639E-18	-3.67226434890065E-18	-0.709478944077155	-0.594302382048543	-0.709478944077154	-0.594302382048543	1.06610210599343E-17	-7.93545891856484E-18
55.3	-7.63669184505559E-18	1.2183974477024E-17	-0.809192854830493	-0.460749791450216	-0.809192854830493	-0.460749791450216	4.73321650974924E-18	-1.85503734904192E-17
55.4	9.05541131655548E-19	-9.25343791495703E-18	-0.864518027479969	-0.377902656277568	-0.864518027479969	-0.377902656277567	-6.4146956851025E-19	-2.57051021076139E-17
55.5	-6.04651218485102E-18	-5.62261293879401E-18	-0.929990251501575	-0.216589287779664	-0.929990251501575	-0.216589287779664	-1.09596484202974E-17	7.73317528932119E-19
55.6	1.96450982294478E-19	4.64693281864521E-18	-0.926369234226752	-0.0942236100676224	-0.926369234226752	-0.0942236100676226	-1.44298583277871E-17	-4.50160558051359E-18
55.7	-5.52718293700975E-18	4.47518330708809E-19	-0.954899754196164	0.0385944407038291	-0.954899754196164	0.0385944407038287	1.29027645666523E-17	2.43880681338666E-17
55.8	2.41948298353222E-18	6.55250467186329E-19	-0.930171202030147	0.19352938989673	-0.930171202030147	0.19352938989673	-4.62276308346868E-18	-1.84804254276362E-17
55.9	-8.64641212000419E-19	-2.32858137305141E-18	-0.897585588633659	0.316140430134961	-0.897585588633659	0.316140430134961	2.1409689629062E-19	-1.22678284976373E-17
56	4.15520119977431E-18	-9.1624260460988E-19	-0.816699863663385	0.447454511873287	-0.816699863663386	0.447454511873288	7.03236692972333E-19	-6.6909231019664E-18
56.1	1.71395899728443E-18	7.26060237231042E-18	-0.776000713492476	0.556349669611343	-0.776000713492474	0.556349669611343	-1.96230655202993E-17	2.34077229704576E-17
56.2	-2.47175790772919E-18	-1.9469869446039E-17	-0.689286231389433	0.676627241306874	-0.689286231389432	0.676627241306874	-8.21055507016572E-18	6.32248299583434E-18
56.3	-9.69071053209115E-18	-7.70633485528688E-18	-0.533849553756719	0.765875187895068	-0.53384955375672	0.765875187895068	7.23354619642348E-18	-2.84509431718276E-17
56.4	1.47737023176552E-18	1.03431053973073E-17	-0.475843126375053	0.836764532443577	-0.475843126375053	0.836764532443576	1.44602502475325E-17	4.0026160978331E-17
56.5	-1.32140834038932E-17	5.57957436390606E-18	-0.331496789942927	0.915530301215728	-0.331496789942927	0.915530301215728	-2.94771328702426E-18	-6.73866183165005E-18
56.6	-9.9448946938399E-18	-8.80983735903603E-20	-0.188260363132894	0.92009143765772	-0.188260363132895	0.920091437657721	-2.45357984076785E-17	-2.04618052756738E-17
56.7	5.26463601345112E-18	8.65676589846053E-18	-0.061248725757038	0.953103540584436	-0.0612487257570378	0.953103540584436	8.10134978203563E-19	-6.27730473620557E-18
56.8	1.99520329359493E-19	1.63392208457182E-18	0.059145453702356	0.972311749785585	0.0591454537023561	0.972311749785585	2.4603229892817E-18	-3.61700474552275E-18
56.9	1.42480808096156E-18	-6.59383165286917E-19	0.204561574206041	0.929080930748637	0.20456157420604	0.929080930748637	-2.15012956277717E-17	-9.07905723770802E-18
57	-1.03868759781024E-18	5.30051394552821E-18	0.357290479489503	0.857855050645488	0.357290479489503	0.857855050645489	1.06010278910564E-17	2.07737519562049E-18
57.1	4.18730496934548E-18	8.08144730839233E-18	0.462448449457009	0.828232106978115	0.462448449457009	0.828232106978115	7.13816564505026E-18	3.00696069906357E-17
57.2	-2.82405997245893E-17	-2.36923559455383E-17	0.584324864070935	0.779553315239797	0.584324864070935	0.779553315239797	-3.92421732608741E-17	-1.83309314211944E-17
57.3	-2.46860898009125E-18	1.93624570391879E-17	0.721420486669629	0.616211190433692	0.721420486669629	0.616211190433692	9.90883652087958E-18	1.26603525358391E-17
57.4	-9.99753162179138E-18	4.55957184080953E-18	0.735127952017958	0.544744294127295	0.735127952017957	0.544744294127295	-1.46404940733185E-17	7.16240005827172E-17
57.5	-6.40799340210764E-18	1.65102745513946E-17	0.862127695318706	0.447862155051166	0.862127695318706	0.447862155051166	-6.69684732922054E-18	4.17279706543078E-17
57.6	-1.9253579155528E-18	6.04782568756125E-19	0.918303541934184	0.295647152920113	0.918303541934184	0.295647152920113	-1.97058604653486E-17	-2.40705825223662E-19
57.7	-8.13609944715879E-18	-1.43397183844432E-18	0.908554454793063	0.162660122362781	0.908554454793063	0.162660122362781	-1.31957935390659E-17	-1.1184342100107E-17
57.8	1.07642001868128E-17	2.69412314103995E-17	0.95937114243558	0.0519627618713011	0.95937114243558	0.0519627618713012	1.22520014299955E-17	2.06599367124025E-17
57.9	-2.42665328810622E-18	5.43529511626005E-18	0.97053703174002	-0.0700854244357546	0.970537031740019	-0.0700854244357546	1.79719008108119E-17	-1.33975956308127E-17
58	2.21326874336176E-18	-2.31875437182949E-18	0.909394191661361	-0.263318218477746	0.90939419166136	-0.263318218477745	-7.4024582906281E-18	2.83963698523581E-18
58.1	-2.14173236660802E-17	-7.97263538643844E-18	0.85352925325046	-0.336361082219315	0.85352925325046	-0.336361082219315	-2.07693006310466E-17	1.28238912285407E-18
58.2	-3.71943250614131E-17	-2.78711812073041E-18	0.831593882167092	-0.482555278289819	0.831593882167092	-0.482555278289818	-3.90359536018842E-17	2.38655103026877E-17
58.3	1.02094859370634E-17	1.80528481817988E-17	0.735803998137449	-0.607899992812547	0.735803998137449	-0.607899992812547	4.20227619997748E-17	2.41646866641236E-17
58.4	2.42465451852438E-17	8.63224563970757E-18	0.642353206736228	-0.640598902282486	0.642353206736228	-0.640598902282486	4.29074472458247E-18	-2.8435777528741E-18
58.5	2.38853256736875E-18	1.98988980110827E-17	0.584388813757592	-0.779848101454552	0.584388813757593	-0.779848101454552	1.03363294177911E-17	-1.16062841191621E-17
58.6	-1.93960040303578E-17	-3.53600096848037E-17	0.436022077308601	-0.845789363523884	0.436022077308601	-0.845789363523884	-2.85846855995877E-17	5.89357069328698E-18
58.7	4.09693806706082E-17	1.82032836977819E-17	0.307918167183234	-0.866428762773198	0.307918167183234	-0.866428762773197	1.96406758628829E-17	-6.71127231901259E-18
58.8	-1.29392991203453E-17	2.41995958328184E-18	0.202838204103527	-0.917050591660625	0.202838204103528	-0.917050591660624	8.87298855703397E-19	7.16339882881338E-18
58.9	5.13104288840723E-19	5.78842056464869E-18	0.09094409016504	-0.954993367789576	0.09094409016504	-0.954993367789576	-1.73041448262796E-17	9.67934583854194E-18
59	1.4330500674618E-17	2.0198623396559E-17	-0.0812317402686827	-0.931573087932317	-0.081231740268683	-0.931573087932317	-1.1590966028445E-17	4.15460002495578E-18
59.1	1.7686506090092E-17	-2.98269539947993E-17	-0.176606280957031	-0.915354430381819	-0.176606280957031	-0.915354430381818	2.68560175657533E-17	-2.82235130644234E-17
59.2	-8.00584666815417E-19	8.45598307781876E-18	-0.304701752444142	-0.919160910709407	-0.304701752444142	-0.919160910709407	3.82164634850189E-18	1.26192260425469E-17
59.3	2.23133629952646E-18	1.14419566382802E-17	-0.454048425929796	-0.813664618227594	-0.454048425929796	-0.813664618227593	4.53392099858476E-18	4.12469582825042E-18
59.4	5.65589991736955E-18	-1.0126076322788E-17	-0.528439211937852	-0.77744059856298	-0.528439211937852	-0.77744059856298	5.67262405032312E-18	1.37849646201916E-17
59.5	-1.7928473259307E-17	-5.74232067138737E-18	-0.659551610987811	-0.689667403575824	-0.65955161098781	-0.689667403575824	1.248423994944E-17	3.72019669980113E-18
59.6	5.4599618521434E-19	-4.02059835414207E-18	-0.734789620150871	-0.573379061584507	-0.734789620150872	-0.573379061584507	-8.39716766132416E-18	1.60858333467552E-17
59.7	-6.12906438791214E-19	3.90420319206795E-18	-0.818034569226752	-0.492029532046929	-0.818034569226753	-0.49202953204693	-3.56961905007401E-19	1.45054947097471E-17
59.8	2.82170725764375E-18	3.96394307698445E-18	-0.886933234268526	-0.368221206910976	-0.886933234268527	-0.368221206910976	7.34852660601822E-18	2.8400220093778E-18
59.9	5.71441471342605E-18	-9.51453527856712E-18	-0.917199094709919	-0.254266664302646	-0.917199094709919	-0.254266664302647	-8.826518472704E-18	1.9824933761807E-19
60	1.48050923633324E-17	-9.44765700719041E-18	-0.940388253522213	-0.102628861146288	-0.940388253522213	-0.102628861146287	1.6307361986376E-17	-1.98467055027592E-17
60.1	-1.72463026295781E-17	1.11777475767261E-17	-0.937987510264096	0.0132577629406515	-0.937987510264097	0.0132577629406514	-1.93331243493364E-17	-8.61633404467362E-18
60.2	8.46310659620389E-18	-8.91192127482147E-18	-0.955367878966198	0.124692575634194	-0.955367878966198	0.124692575634194	6.32882138027097E-19	-1.01647620884243E-17
60.3	1.83169340724164E-19	-7.84150676782152E-18	-0.905602817535165	0.290162589459724	-0.905602817535165	0.290162589459723	-8.11486978357507E-18	-1.91562760327386E-18
60.4	4.40042734907391E-18	-2.01481376641498E-18	-0.85534430117164	0.36480726317528	-0.85534430117164	0.36480726317528	-8.83168749092792E-18	-3.79386807484429E-18
60.5	6.71378466425654E-19	-3.21394158884368E-18	-0.811846847884316	0.508921068427425	-0.811846847884316	0.508921068427425	-2.24088656389842E-18	-8.16301713490686E-18
60.6	9.71670775771054E-19	3.36396681429626E-18	-0.730230887578012	0.607824158479465	-0.730230887578011	0.607824158479465	-1.88369374248282E-18	-2.73606890013531E-18
60.7	8.96795398676053E-18	-1.27112628522832E-17	-0.637829133461076	0.704797533895239	-0.637829133461075	0.704797533895238	1.7156317354843E-18	1.4036814077861E-18
60.8	2.39098946321875E-18	-3.71499079878669E-18	-0.539832182286195	0.791316637781759	-0.539832182286195	0.791316637781759	1.72254363860954E-18	-3.23937096887303E-18
60.9	8.44728625755967E-18	-1.70128003589896E-17	-0.436726879125091	0.856172604951457	-0.436726879125091	0.856172604951457	1.34431049214562E-17	-8.75878889458158E-18
61	-4.61089151880541E-18	-4.85134563348911E-19	-0.303567122174365	0.908055706468157	-0.303567122174365	0.908055706468157	3.03835851135332E-18	-9.65548891716755E-18
61.1	6.06316550653708E-18	-1.31482196647646E-17	-0.177514603054139	0.926022887040513	-0.17751460305414	0.926022887040513	-2.11209773684392E-17	-1.0706914136588E-19
61.2	-1.70134226649557E-17	8.11498704153228E-18	-0.0665943325695794	0.949429598584159	-0.0665943325695795	0.94942959858416	-8.07839087625817E-18	1.79044187069621E-17
61.3	2.4416460985658E-17	6.8109424199886E-18	0.0684058042343697	0.966645853117614	0.0684058042343696	0.966645853117613	1.61462053472553E-17	3.6166193850354E-18
61.4	-3.12893482906011E-17	1.71724858011727E-17	0.226189723798131	0.924430130944731	0.226189723798132	0.924430130944732	-2.28620332524941E-18	-1.38457764198844E-19
61.5	1.01352685101055E-17	-6.80492789633093E-18	0.300831078483139	0.887385629009307	0.300831078483139	0.887385629009307	1.63730988037621E-17	-1.49408861920389E-17
61.6	-3.43728602234946E-18	7.77516369073251E-18	0.451461739670522	0.870204206894404	0.451461739670522	0.870204206894403	-1.25842711001863E-17	-5.29520456404003E-18
61.7	-5.38018072389637E-18	8.21237946449115E-19	0.569254973303211	0.781880154797278	0.569254973303211	0.781880154797278	1.91289441758702E-17	1.48456096297513E-18
61.8	3.47409354712988E-18	-5.60906519253059E-18	0.64697532028492	0.690169470405815	0.64697532028492	0.690169470405816	3.95000618265711E-18	-1.29677011753505E-17
61.9	3.32624188767134E-18	-2.10357366053566E-17	0.742173714437865	0.594379354957753	0.742173714437865	0.594379354957753	-9.51982725549483E-18	4.14045423875693E-18
62	2.90497076868923E-18	-1.39210448204103E-18	0.81539099091802	0.513435165886698	0.81539099091802	0.513435165886697	-8.8817957196672E-18	-7.35299827517846E-18
