# GHZ S RI R 50
50	1.24491249719483E-17	1.66795467172941E-17	0.83055731048464	-0.593710372097233	0.83055731048464	-0.593710372097233	-1.48034628170387E-17	-1.241513647241E-18
50.1	-3.42647569509653E-17	7.55505292065526E-18	0.697222562908768	-0.711039848729429	0.697222562908768	-0.711039848729428	-9.49369341218712E-18	-1.53433697680549E-18
50.2	1.79879740283251E-19	3.18359161316504E-17	0.583080148724993	-0.810139891866709	0.583080148724993	-0.81013989186671	-1.47870859263016E-17	-2.23881987964222E-17
50.3	-4.02910195742941E-18	-1.30672213966031E-17	0.452611670660373	-0.921705520224166	0.452611670660373	-0.921705520224166	1.14800624880834E-17	-3.09167461204111E-18
50.4	-6.88940405703032E-18	-1.15855992353346E-17	0.250091148827843	-0.949334448651309	0.250091148827843	-0.949334448651309	1.5827234374702E-17	-9.29106860660794E-18
50.5	1.69521490263444E-17	2.28228189826926E-17	0.129760725979589	-1.00347182551581	0.129760725979589	-1.00347182551582	-9.03966443044436E-18	-5.41224126613991E-19
50.6	6.06062852722952E-18	7.19650465914414E-18	-0.0560120034975813	-0.999849082156029	-0.0560120034975813	-0.99984908215603	7.57250754609749E-19	-8.83808879091577E-18
50.7	1.10831498366176E-17	8.20869597575741E-18	-0.204174781544277	-0.971831088254391	-0.204174781544278	-0.971831088254391	7.64105253251808E-18	3.78428962159551E-19
50.8	-7.20774204310127E-18	5.58578121075171E-18	-0.3788813030708	-0.950030202527081	-0.3788813030708	-0.950030202527081	1.2542249804501E-17	-1.31465616062636E-17
50.9	2.89765120784963E-18	9.02594515039115E-18	-0.512071093357077	-0.838932012566372	-0.512071093357077	-0.838932012566372	-1.19652202990961E-17	-2.38135811016364E-18
51	-1.1754970118147E-17	-1.69893293783149E-17	-0.658781079587418	-0.765698393475451	-0.658781079587418	-0.765698393475451	-7.52874143624182E-18	2.44336561638627E-18
51.1	2.08525035477844E-17	-2.42469981066103E-18	-0.769706296884176	-0.64347367923475	-0.769706296884176	-0.64347367923475	6.5640141494018E-18	-2.95619278353999E-18
51.2	-2.45976239122913E-19	-5.76253786290265E-18	-0.85791121265754	-0.505254940097049	-0.857911212657541	-0.505254940097049	-6.17950388564588E-18	-5.05963726655912E-19
51.3	-3.27145060152033E-18	-1.41492357859523E-17	-0.933366827986334	-0.361471119743414	-0.933366827986334	-0.361471119743415	-1.62671637626388E-18	-8.53591158707154E-18
51.4	6.83239449773715E-18	-1.7422961349596E-18	-0.995064864391815	-0.225157812482626	-0.995064864391815	-0.225157812482626	-4.73094541892829E-18	7.44166998169703E-19
51.5	1.21750538005588E-17	1.21268918756984E-18	-0.985485299927428	-0.0276995221431184	-0.985485299927427	-0.0276995221431185	1.78651139410295E-17	-2.37237506733875E-18
51.6	-9.07619453662888E-18	-5.32728982214221E-18	-0.998998601582212	0.0981520683439023	-0.998998601582211	0.0981520683439028	-4.33363281000085E-17	9.48965120699772E-18
51.7	1.04752036898099E-18	4.58344680775861E-18	-0.985273204625881	0.260069911682202	-0.985273204625881	0.260069911682202	5.10429974839772E-19	1.83506622211552E-17
51.8	2.77116517956737E-18	-1.22856845479133E-17	-0.870325449419169	0.412553781981267	-0.870325449419169	0.412553781981267	-5.50863019346578E-17	-7.6298725294429E-18
51.9	-2.21418250581136E-18	-3.84213147613371E-18	-0.868130228892874	0.547356998884425	-0.868130228892874	0.547356998884425	7.23546340439209E-18	-6.66770587891425E-18
52	1.05461166011473E-19	-4.23443634444508E-18	-0.707465550348832	0.690065080765045	-0.707465550348832	0.690065080765045	1.22447234902698E-18	1.88854261991852E-17
52.1	-5.95705022228271E-19	1.39384999113585E-17	-0.596948004788871	0.77664908466269	-0.596948004788872	0.776649084662691	3.53814919421073E-18	3.49988999056068E-19
52.2	8.5852913212732E-18	6.94343241755953E-18	-0.494707417699585	0.865198094034398	-0.494707417699585	0.865198094034398	-1.00915158260336E-17	-3.55767488448178E-18
52.3	-9.16881435171582E-18	2.19338827935373E-17	-0.355888787125682	0.932483002433587	-0.355888787125681	0.932483002433586	-3.22384024095654E-17	3.60827621058461E-17
52.4	-1.946812765023E-17	-3.56452923321181E-17	-0.190635699078411	1.00952155697664	-0.190635699078412	1.00952155697664	-2.62275721986804E-17	-5.3531936496747E-17
52.5	-1.47702742564069E-17	1.18014560056659E-17	-0.0529455646397989	0.95070297751449	-0.0529455646397988	0.95070297751449	-1.36351378664177E-17	1.64167678781457E-18
52.6	2.01482387251765E-17	-2.19106242629757E-17	0.0876424576262979	1.01908021699607	0.0876424576262976	1.01908021699607	-7.32075788505987E-17	-3.9809086054338E-17
52.7	-1.21135358518236E-17	8.42957943644464E-18	0.308663563675535	0.983943821727376	0.308663563675534	0.983943821727376	3.37647489683063E-17	-7.74348073081386E-17
52.8	-3.82681649298843E-18	8.05296505814437E-20	0.346567440875318	0.812407424851875	0.346567440875318	0.812407424851875	-8.1420512539231E-18	-3.07226554137986E-19
52.9	1.73413752863058E-17	2.01937242679311E-18	0.628287429804676	0.90868863573314	0.628287429804675	0.90868863573314	4.85867339497159E-17	-8.81694837504695E-18
53	1.2038779317958E-17	5.56457595449826E-18	0.643618084664561	0.693237937969484	0.643618084664561	0.693237937969484	2.66447826721091E-18	6.03514244371327E-18
53.1	1.42308899085179E-17	4.34107433319324E-19	0.762847059763317	0.653003266204364	0.762847059763318	0.653003266204365	7.72246864696084E-18	4.10567456104872E-18
53.2	-6.35083178695335E-18	-4.99567436368787E-18	0.909959664811539	0.512163261679018	0.909959664811539	0.512163261679018	-8.77622453779019E-18	-3.52363472514418E-18
53.3	1.1144756791009E-17	-1.07389884456353E-17	0.921426544776896	0.376694453829385	0.921426544776896	0.376694453829385	-2.16761776670853E-17	2.20800929375786E-17
53.4	-5.37712236228187E-18	-1.40447168056104E-17	0.955476304998269	0.165482406295367	0.955476304998269	0.165482406295367	-2.40303951142322E-17	-1.03133042420705E-17
53.5	5.71488599891142E-19	5.77734893565512E-18	1.02234492033229	0.114545131614077	1.02234492033229	0.114545131614077	-6.10774950824106E-18	-1.45639163527904E-17
53.6	1.08536647762513E-17	-9.61894311115747E-18	1.01291198897696	-0.104707671293865	1.01291198897696	-0.104707671293865	-1.18267532040588E-17	-2.14184117804102E-17
53.7	1.54401654487041E-17	5.05341951811575E-18	0.914442750640902	-0.268990861819946	0.914442750640902	-0.268990861819947	-6.97313287752929E-18	-1.51933146021515E-17
53.8	6.42107455359559E-18	5.1034748594413E-18	1.01408182376185	-0.344096752358996	1.01408182376185	-0.344096752358996	4.68809822152189E-17	-4.3475957019541E-17
53.9	8.35346141648937E-18	-1.06515673126939E-17	0.860276599103749	-0.529294510997367	0.86027659910375	-0.529294510997366	5.09054408066956E-18	1.34758096796998E-17
54	-2.39051235513448E-18	-7.2223207066238E-18	0.74878649326234	-0.648035554446442	0.74878649326234	-0.648035554446441	-5.51341350917541E-18	-9.39409528273298E-18
54.1	8.00690194110328E-19	-4.84684644270427E-19	0.666099878185423	-0.72213471724967	0.666099878185423	-0.72213471724967	-2.20862512817055E-18	-6.54046482842705E-18
54.2	-2.17717163449136E-18	2.74178284450641E-18	0.56098712251801	-0.828621724185839	0.560987122518009	-0.82862172418584	-1.58054082062346E-17	-6.77321699207384E-18
54.3	-1.16507672879638E-17	3.15793621436128E-18	0.379614555559868	-0.926103496951906	0.379614555559868	-0.926103496951905	3.87641846074251E-18	2.57771947953698E-17
54.4	-1.73647227166119E-17	-8.80602350202185E-18	0.316730898228425	-0.902955048941777	0.316730898228425	-0.902955048941776	-1.68679101402347E-17	3.12565182019135E-17
54.5	2.19241923136694E-18	2.77763024451188E-17	0.104610106779657	-1.04507520626593	0.104610106779657	-1.04507520626593	1.01160068175414E-17	7.9027442298086E-18
54.6	-1.6371449415162E-17	1.3859661265375E-18	-0.0410843008661308	-0.972336219830275	-0.0410843008661309	-0.972336219830276	-1.75928045187169E-17	6.43599756373984E-18
54.7	1.09659654419238E-17	-1.66069547561335E-18	-0.161032960224499	-1.01250073200374	-0.161032960224498	-1.01250073200374	7.89620591903207E-18	5.09506592548663E-18
54.8	1.02526193795683E-17	1.21151502410559E-18	-0.336141739045513	-0.969055835122371	-0.336141739045513	-0.969055835122371	-3.77466986899766E-18	9.94974062354187E-18
54.9	1.84904570486401E-18	-1.02531834190495E-18	-0.47300593953008	-0.880734110069875	-0.47300593953008	-0.880734110069875	-1.08173313689924E-17	6.32573368728287E-19
55	-8.41474544426142E-18	1.03224205758767E-17	-0.586307031542924	-0.830109113687082	-0.586307031542924	-0.830109113687082	-1.00490433891932E-17	6.89099140903701E-18
55.1	-2.71967231272427E-18	-1.33238814467686E-18	-0.721274580463383	-0.727576160771136	-0.721274580463383	-0.727576160771136	3.67308416158506E-18	-3.60973171815605E-18
55.2	-1.55244132777389E-17	9.89055259700843E-19	-0.795072112186642	-0.610573177661265	-0.795072112186642	-0.610573177661266	-2.01883414350018E-18	5.952492583285E-18
55.3	3.11273034935747E-18	1.81940986969621E-17	-0.898671610023582	-0.464341275495178	-0.898671610023582	-0.464341275495178	-1.31727271954115E-17	2.13130997071243E-17
55.4	1.93880987621834E-17	-1.16344081141187E-18	-0.94961640505353	-0.369334322083479	-0.94961640505353	-0.369334322083479	1.67611114582434E-17	4.36838966327475E-18
55.5	1.37056807909817E-18	-1.84393646098763E-17	-1.01574293135144	-0.195384814319538	-1.01574293135144	-0.195384814319538	1.9638883761082E-17	-1.41391981970217E-17
55.6	3.92968521600137E-18	4.63087347919554E-19	-1.00513057221075	-0.0590197904728722	-1.00513057221075	-0.059019790472872	-5.54539085714161E-18	-1.30489537349724E-17
55.7	2.73162678139142E-18	-4.44419698059346E-19	-1.02795192745646	0.0830747387560762	-1.02795192745646	0.0830747387560767	2.52206063586255E-17	-1.15803951649508E-17
55.8	1.24465680955862E-17	-8.73608382133197E-18	-0.996201336118147	0.24979682154572	-0.996201336118147	0.24979682154572	-6.22649237919126E-18	1.16334888401388E-17
55.9	-2.33896333716775E-19	9.04737892619825E-18	-0.953509605444482	0.380595971575874	-0.953509605444483	0.380595971575874	-6.62948232851073E-19	6.29534470891534E-19
56	2.6525924905328E-17	1.18851058453276E-17	-0.861196583216978	0.521525376641278	-0.861196583216978	0.521525376641277	-1.04492474011501E-17	1.23947797003725E-17
56.1	-2.04359455449899E-17	1.19228775286645E-17	-0.809829427523415	0.633223299957319	-0.809829427523415	0.633223299957319	-1.06641023117733E-17	4.90608097484569E-18
56.2	1.83744838904788E-17	4.49544793628436E-18	-0.712174643471972	0.75791009876606	-0.712174643471972	0.757910098766059	1.0306298673394E-17	-3.0721062512415E-17
56.3	-6.03532312744171E-18	3.81494597269153E-18	-0.541639464982903	0.853027886075956	-0.541639464982903	0.853027886075956	1.24388948062038E-17	9.81056213296737E-18
56.4	-4.15232702248366E-18	2.96440040077704E-18	-0.473322992876388	0.919477279964599	-0.473322992876388	0.919477279964599	-3.69934589275817E-17	2.64101126614682E-17
56.5	2.7476410309467E-18	-3.89097096817242E-18	-0.317135017473763	0.998885098452002	-0.317135017473763	0.998885098452002	-4.39622564951472E-18	6.22555354907588E-18
56.6	-1.22923052374324E-17	9.06157986568954E-18	-0.158823463643092	0.999069267552774	-0.158823463643092	0.999069267552773	-2.68020865101884E-18	1.96661474646491E-17
56.7	7.02386727284322E-18	-1.43493787500015E-17	-0.0219722481800602	1.02674455870626	-0.0219722481800606	1.02674455870626	-1.3997162271184E-17	-1.52494875292017E-17
56.8	7.72570591293128E-18	-9.32866000823698E-18	0.106522421254644	1.03880189845955	0.106522421254645	1.03880189845955	-3.86285295646564E-18	4.66433000411849E-18
56.9	-8.98003005758588E-18	-1.10292289481436E-18	0.26320136696828	0.986829038997021	0.26320136696828	0.986829038997021	2.06671759818277E-18	2.17663908412061E-17
57	-1.97529819635832E-17	-6.14498402672349E-18	0.427056848095886	0.906094516188955	0.427056848095885	0.906094516188954	1.83093512516035E-18	-1.31577373460876E-17
57.1	-1.9977585288159E-18	2.41257711427581E-17	0.53548281317113	0.865922278267824	0.53548281317113	0.865922278267824	1.69012009031175E-17	2.65283458186119E-17
57.2	-1.98237505516422E-17	2.72787930557714E-18	0.660508096606104	0.807773533466319	0.660508096606104	0.807773533466319	4.40754944006821E-17	1.22280041675444E-18
57.3	3.53817120290864E-18	-8.76686658383592E-19	0.807259340096686	0.631648570694375	0.807259340096685	0.631648570694374	1.55069955109278E-17	-1.69862041666941E-17
57.4	7.05986829528163E-18	6.10235387811226E-18	0.816095760555409	0.54431220159261	0.816095760555409	0.54431220159261	2.85053103897276E-18	1.55385675121067E-17
57.5	-2.39418194595389E-18	4.46456246764629E-18	0.943845938562275	0.440167163829125	0.943845938562275	0.440167163829126	1.71619216873979E-17	1.75286898068609E-17
57.6	4.11534193543234E-17	-2.54045613710579E-17	0.99954102428214	0.274940324767106	0.99954102428214	0.274940324767106	9.15215547936153E-18	-3.36032637914347E-17
57.7	-1.02238918922374E-17	-9.75158593848962E-18	0.983564493020662	0.12738447961527	0.983564493020662	0.12738447961527	-6.11652198716512E-18	-2.36680913481013E-17
57.8	-1.41556697567897E-17	-3.93967420574013E-18	1.02867862863377	0.00971474080353797	1.02867862863377	0.00971474080353792	2.28048830518459E-17	7.77533425744755E-18
57.9	-6.43705091911675E-19	-7.31082249359055E-18	1.03247282977548	-0.12029447228946	1.03247282977548	-0.120294472289461	-9.23553682236091E-18	-6.48487519766007E-18
58	4.34482063807268E-19	-1.46822576884548E-18	0.96493083729318	-0.327436434458517	0.96493083729318	-0.327436434458517	5.26584243602951E-18	3.90601115999231E-18
58.1	-3.93563409090389E-18	-5.67401820615906E-18	0.894876332221815	-0.405767640224958	0.894876332221815	-0.405767640224958	-1.17761615118853E-17	-1.4097115041853E-18
58.2	2.86440344735219E-18	1.14128491122652E-17	0.865977764082285	-0.55626058758598	0.865977764082285	-0.556260587585979	-7.93850809551196E-18	-3.62962320142498E-18
58.3	-3.82717399784983E-17	1.26665969076523E-17	0.758926834204334	-0.687552490040382	0.758926834204334	-0.687552490040383	-3.29447515663594E-17	3.9701038012362E-19
58.4	2.89985878523482E-19	-1.31280771159375E-17	0.649248743335682	-0.719289744614731	0.649248743335682	-0.719289744614731	-2.90788962210073E-18	3.5730090121161E-18
58.5	-1.74452194589874E-17	6.85358115263916E-18	0.585401322646327	-0.858939324561614	0.585401322646326	-0.858939324561614	2.11832766126966E-18	-4.85976012232532E-18
58.6	8.15810719843445E-18	-7.05309154633016E-18	0.423368128315234	-0.925677579875167	0.423368128315235	-0.925677579875166	-1.89571635960891E-17	-1.09343110994459E-17
58.7	5.87130781168067E-18	-2.42340857317088E-17	0.281519943549774	-0.942155313486639	0.281519943549774	-0.942155313486638	-1.24456067171846E-17	-1.41954605863707E-19
58.8	-1.22426372693324E-17	8.62482199757553E-18	0.167909113151801	-0.987601625926399	0.167909113151801	-0.987601625926398	-1.03520876949085E-17	1.90872268618193E-18
58.9	6.42412194206645E-18	-1.02794238766637E-17	0.0484180945001945	-1.01947004821501	0.0484180945001947	-1.01947004821501	3.94023862704841E-18	-3.25521995838996E-18
59	1.96217739440919E-17	2.59665856857655E-18	-0.136152693977362	-0.990075235849238	-0.136152693977362	-0.990075235849238	2.70596224137534E-20	6.5152860645614E-18
59.1	1.31041545182783E-17	-1.36165062940722E-17	-0.237183897590707	-0.963334103479272	-0.237183897590707	-0.963334103479272	1.59822808594177E-17	-2.28364302041117E-17
59.2	1.04447789630329E-17	5.40562413541896E-18	-0.369285886704683	-0.960007869852006	-0.369285886704683	-0.960007869852006	-4.84377253055345E-18	-5.71895546545925E-19
59.3	-5.32199055414181E-18	-3.2975993782096E-18	-0.528257373436972	-0.843371889134389	-0.528257373436972	-0.843371889134389	-6.48848702665071E-18	3.53548996661141E-18
59.4	1.30594628432645E-17	4.22966910769488E-17	-0.60201469895721	-0.795934531538246	-0.602014698957211	-0.795934531538247	1.00292680163563E-17	1.04159630475563E-18
59.5	2.73853794930032E-18	9.74135274358245E-19	-0.73680881630335	-0.698732701558437	-0.73680881630335	-0.698732701558438	-2.96311605651282E-19	-5.5818242253543E-18
59.6	-5.32695534522319E-18	-2.15505947771456E-18	-0.812742610776679	-0.569500282165828	-0.812742610776679	-0.569500282165828	-1.02068521165216E-18	-2.81025205116929E-18
59.7	-4.23935946121333E-18	-1.6451896974936E-17	-0.893539448614683	-0.479132859780713	-0.893539448614684	-0.479132859780713	2.58902498581651E-18	4.70275863438163E-18
59.8	-4.75669794256517E-18	-2.75124147984705E-18	-0.96049737038756	-0.344921131539783	-0.96049737038756	-0.344921131539783	-1.02712146728104E-18	2.66570230671025E-18
59.9	2.727009270379E-18	2.50868774085946E-18	-0.98522420747703	-0.22074916421357	-0.98522420747703	-0.22074916421357	2.09758864446312E-18	-3.40979591296367E-18
60	9.33584033277062E-18	1.08060552696481E-17	-1.0039755776857	-0.0584544026015183	-1.0039755776857	-0.0584544026015185	-1.12701421136412E-17	5.74880188970342E-18
60.1	-1.00686404646478E-18	-2.06751601331727E-17	-0.993300744624359	0.0655544405335579	-0.993300744624359	0.0655544405335581	-9.70169322206196E-18	-1.43203216472834E-17
60.2	-2.53103520365245E-18	-2.90294105818609E-18	-1.00319715984065	0.18166698713718	-1.00319715984065	0.18166698713718	1.81541027380716E-17	-1.06486049524108E-17
60.3	-6.77110956515911E-18	2.71735126414917E-17	-0.945487352767459	0.356447953116579	-0.945487352767459	0.356447953116578	1.3082665683975E-17	1.47057927359166E-18
60.4	1.08004771271418E-17	1.89443421571242E-17	-0.882670169401872	0.433447984172387	-0.882670169401872	0.433447984172387	-9.20095551586429E-18	-1.80964503237044E-18
60.5	-4.58217095074131E-18	2.12930913906942E-18	-0.83165292391518	0.581508335747211	-0.83165292391518	0.581508335747211	-1.06465456953471E-18	-2.29108547537065E-18
60.6	3.04320999001943E-18	-5.03676129298872E-18	-0.738942523330487	0.682171372359024	-0.738942523330487	0.682171372359024	1.25959042446018E-18	-1.57400790911962E-17
60.7	2.317935520683E-18	1.56624386492163E-17	-0.635999836767065	0.779786664313447	-0.635999836767065	0.779786664313447	-5.62590580303809E-18	-5.56959480348162E-18
60.8	1.27042343889202E-17	-4.52812351211489E-18	-0.528045063949747	0.865281256877313	-0.528045063949747	0.865281256877312	1.54096078594925E-17	5.60576030866677E-18
60.9	-1.1445586024138E-19	-1.47219090912319E-18	-0.415171524883896	0.927030892720433	-0.415171524883896	0.927030892720433	4.98243406687804E-18	1.55059268420096E-18
61	7.18556278267082E-18	-5.016666762035E-18	-0.271663795071677	0.975740186627359	-0.271663795071676	0.975740186627359	3.96676086544111E-18	3.15763793872094E-19
61.1	-2.02635001741308E-17	8.42162582537638E-18	-0.135746534544001	0.987615968366338	-0.135746534544	0.987615968366338	1.61644639986151E-17	-1.6955471273725E-17
61.2	1.01205376715567E-17	1.06482334440722E-17	-0.0180392476106067	1.00406406079236	-0.0180392476106065	1.00406406079236	5.51193540973301E-18	-7.24170088401347E-18
61.3	5.12987562811538E-18	-2.46228342204192E-17	0.123492281126307	1.01510344505976	0.123492281126307	1.01510344505976	-2.5711963384124E-18	-4.73687016594539E-18
61.4	-1.18614172029133E-17	1.51204873638028E-18	0.290124991561519	0.964710492912742	0.290124991561519	0.964710492912742	3.10796833910154E-19	1.48323161243467E-17
61.5	-2.29362592682201E-17	1.02090880738884E-17	0.366802298945683	0.915958219475022	0.366802298945683	0.915958219475022	-4.71412154464056E-18	3.62152276830213E-18
61.6	9.85498697595742E-19	1.33280268498E-17	0.521010757217589	0.892697343940288	0.521010757217589	0.892697343940288	-2.98093901364656E-18	1.50896381961825E-18
61.7	-4.24781158258551E-18	-1.47710948638183E-17	0.642313499301458	0.793594947746575	0.642313499301458	0.793594947746574	1.08679712691212E-17	-7.62157436392877E-18
61.8	-3.81268598062356E-18	-8.4722628966693E-18	0.719946177080386	0.690074643181622	0.719946177080385	0.690074643181622	9.93022253337982E-19	-1.73098540881281E-17
61.9	-1.53828615081919E-18	-4.5438235701106E-18	0.814876545936209	0.584435646138417	0.814876545936209	0.584435646138416	-1.40956980111489E-19	-1.5376294296156E-17
62	5.13749420722386E-18	1.5521994655401E-18	0.884735700417992	0.494915757442352	0.884735700417993	0.494915757442352	7.59582742726231E-19	-4.66480719181986E-19
62.1	6.71804563656634E-18	3.45272322285504E-18	0.961819957356634	0.361879129655944	0.961819957356634	0.361879129655945	1.33779874085457E-17	-1.24824669704943E-17
