# GHZ S RI R 50
50	1.64081989834175E-17	-2.32151342374019E-18	0.838794692853824	-0.603712297155411	0.838794692853824	-0.60371229715541	-2.24322845409187E-18	7.06434844103983E-18
50.1	2.90660013809818E-17	-3.06708619191552E-17	0.704755478312887	-0.721276091824257	0.704755478312887	-0.721276091824256	7.47411701511978E-19	1.3216787780935E-17
50.2	-1.04576015142593E-17	-3.49307815989178E-17	0.589525599217778	-0.822863054968539	0.589525599217778	-0.822863054968539	2.19755555540644E-17	9.43021232107899E-18
50.3	1.28463760400979E-18	-2.04512212780678E-17	0.455362414848583	-0.936709894635867	0.455362414848583	-0.936709894635867	-1.36900434889953E-17	1.91281770486567E-17
50.4	1.45343055088972E-17	9.17674424342416E-18	0.252484175338197	-0.962231126512282	0.252484175338197	-0.962231126512283	-1.15431548413524E-17	-7.49095292811657E-18
50.5	-1.19328277982187E-17	-1.25108878991777E-17	0.128371202736326	-1.01978891909145	0.128371202736326	-1.01978891909144	2.22966321442659E-18	-1.32128199639674E-18
50.6	-1.60289542390854E-17	1.88645074977806E-18	-0.0595221279058627	-1.01499583867206	-0.0595221279058628	-1.01499583867206	-3.14277855317941E-18	3.98120110863632E-18
50.7	3.95109551212078E-18	1.76796017818829E-19	-0.209966826078616	-0.987689150328521	-0.209966826078615	-0.987689150328521	3.95109551212078E-18	1.76796017818829E-19
50.8	8.41737803394301E-19	-9.92986980923535E-18	-0.389190294759279	-0.964035538354224	-0.389190294759279	-0.964035538354223	-2.69886694130272E-18	2.60342633097779E-18
50.9	5.30601344368635E-18	1.63269377693438E-17	-0.522441710389414	-0.852490682748089	-0.522441710389414	-0.852490682748089	1.57441776080821E-18	-3.09042160186145E-18
51	-3.16371632369662E-18	-1.66513961630229E-17	-0.673137968988956	-0.776637487917505	-0.673137968988955	-0.776637487917504	-1.57009032157617E-18	2.38393328949568E-17
51.1	2.18123236650785E-17	8.34856829518198E-18	-0.785791019229723	-0.652484351018862	-0.785791019229723	-0.652484351018863	4.33872203195912E-18	-6.33433089321942E-18
51.2	-5.29976412697871E-18	1.42384783080465E-17	-0.875413799916999	-0.512087053531666	-0.875413799916998	-0.512087053531665	-2.62350646774838E-18	-4.66593506977726E-18
51.3	9.72942372665312E-18	5.71167059942721E-18	-0.952402322076845	-0.365113797757948	-0.952402322076845	-0.365113797757948	7.37450792420329E-18	-5.50486744956478E-18
51.4	-1.66167641330911E-17	-7.72282540981431E-18	-1.01632370198397	-0.224635968152262	-1.01632370198397	-0.224635968152262	-1.88128468263474E-17	3.69100258129009E-18
51.5	1.1413837803269E-17	-2.8943819966172E-19	-1.00445327716492	-0.0258295773597362	-1.00445327716491	-0.0258295773597365	2.22231904159723E-17	-5.87103592320942E-18
51.6	-1.08183261172102E-19	1.63280454353269E-17	-1.02024559017489	0.104668607758453	-1.02024559017489	0.104668607758453	1.80086809909903E-17	3.71961143417628E-18
51.7	3.75279720913694E-17	-1.31286592001038E-17	-1.00548287602792	0.271232657658438	-1.00548287602792	0.271232657658438	2.41349752061256E-17	-1.07777783560915E-17
51.8	-9.2993757240387E-18	1.41013690933057E-17	-0.888862280805677	0.422879737179245	-0.888862280805678	0.422879737179245	-3.08262385326049E-17	2.25932471106899E-17
51.9	1.00842530905281E-17	-1.27592769203738E-18	-0.885225276501845	0.566187738176444	-0.885225276501845	0.566187738176444	1.9666460688967E-17	-1.46504310961269E-18
52	-1.44134938881094E-18	-1.77199519205285E-17	-0.720640291214033	0.707425412061003	-0.720640291214033	0.707425412061003	-1.60126127147531E-17	4.79043935560647E-18
52.1	-1.35009370157295E-17	-1.30404163469417E-17	-0.608625055706522	0.796892129712502	-0.608625055706522	0.796892129712501	-1.19698440283389E-17	9.1410494159495E-18
52.2	1.01095848833627E-17	9.7740233775431E-18	-0.502942138192732	0.889588887540344	-0.502942138192732	0.889588887540344	6.18265646940494E-19	-2.48627692893664E-18
52.3	4.83527945886591E-18	-9.76616671519713E-23	-0.360204951118721	0.958696656830592	-0.360204951118721	0.958696656830591	-2.15664856663296E-17	-1.40347118675024E-17
52.4	-5.81277809012353E-18	2.09182790389464E-17	-0.188302936916402	1.0356928466903	-0.188302936916403	1.0356928466903	3.03719986613192E-17	1.15309109497247E-18
52.5	-2.16344801999378E-18	-1.11123747064486E-17	-0.0520002788732983	0.978220760230549	-0.0520002788732979	0.97822076023055	-1.64304038836964E-19	2.509412930601E-17
52.6	1.18746506834665E-17	-1.98376413125814E-17	0.0983593131964067	1.04744538380156	0.0983593131964067	1.04744538380156	1.32846680869502E-17	8.23084295826614E-18
52.7	1.44405399303224E-17	1.34852814259186E-17	0.323495567562393	1.00608580616468	0.323495567562393	1.00608580616468	-1.16162712511484E-18	-1.8240820530919E-17
52.8	-2.37349146916628E-17	-1.28869314117589E-17	0.356522337365373	0.840402705453279	0.356522337365373	0.84040270545328	-1.80845504288239E-17	1.8711428461434E-17
52.9	1.23884140809246E-17	-5.09022309653092E-18	0.65520582082869	0.923609970611105	0.65520582082869	0.923609970611105	-5.47998910991083E-17	-5.04527235425419E-18
53	-2.86683261436311E-17	-1.5208552042565E-17	0.66474085625369	0.712641158025507	0.66474085625369	0.712641158025507	-2.85791003940091E-18	-6.39222482269663E-18
53.1	-2.43763270349612E-17	-2.08516923349657E-17	0.792390052306588	0.667762731825436	0.792390052306588	0.667762731825437	-4.29126447151343E-17	-7.74139137940056E-18
53.2	-8.50970210906515E-18	-4.08893418779916E-18	0.940966858907914	0.518047439766987	0.940966858907914	0.518047439766987	-1.10465555039321E-17	-2.48332926869156E-18
53.3	-4.43377786229046E-18	-9.29323709557036E-18	0.954237551665102	0.382052879184649	0.954237551665102	0.382052879184649	-9.01138602072929E-18	5.72531931773861E-17
53.4	-6.17250282739876E-18	-8.55661769767744E-18	0.984273666840545	0.166498296182409	0.984273666840544	0.166498296182408	-3.81721621237209E-17	-4.80747034435752E-17
53.5	8.64575184733623E-18	6.78288408879796E-18	1.05910769448847	0.107116446414128	1.05910769448847	0.107116446414128	-4.86475156469272E-17	1.71443094116806E-17
53.6	-4.50179619816359E-18	1.47592000261676E-17	1.04385201676923	-0.116923709088003	1.04385201676923	-0.116923709088003	9.92029786393229E-18	1.3449813635312E-17
53.7	-2.71346113297854E-19	4.18623921126397E-18	0.942621990028545	-0.280660809812702	0.942621990028544	-0.280660809812702	1.25905623758864E-17	-1.52425185143263E-17
53.8	-3.897128759932E-18	1.2131600708712E-17	1.04563593881751	-0.371996491827757	1.04563593881751	-0.371996491827757	9.32549889798126E-18	-2.084854779309E-18
53.9	2.79711828870206E-17	2.9994836493518E-18	0.884644903673418	-0.555210692439653	0.884644903673418	-0.555210692439653	2.57973129501246E-17	-1.2023085873421E-18
54	-1.33480832708458E-17	-6.78096827557137E-18	0.769605439110135	-0.676181550855346	0.769605439110135	-0.676181550855346	-6.75328180622255E-18	-4.54819544217613E-18
54.1	-1.53342855097489E-17	-8.47142412176339E-18	0.685165981463204	-0.75550126206103	0.685165981463204	-0.75550126206103	3.32820655173593E-17	-3.04546450695552E-17
54.2	1.43157448095272E-18	2.37903778416752E-17	0.573793522872764	-0.866021167198832	0.573793522872763	-0.866021167198832	1.15461369650435E-17	2.96734273706267E-17
54.3	-5.99956041671224E-18	-3.14554200686136E-18	0.384758203908781	-0.96164256011775	0.384758203908781	-0.96164256011775	1.89957475438467E-17	-3.75064684486834E-18
54.4	6.01565785020584E-18	3.54224072792795E-18	0.322126949018918	-0.945804501043566	0.322126949018918	-0.945804501043566	6.14022560353997E-18	-1.93177716155515E-17
54.5	2.38992718505903E-19	1.04539446211476E-17	0.0947648114043348	-1.08313475674549	0.094764811404335	-1.08313475674549	4.63423935993303E-18	9.14660793780111E-18
54.6	-2.52330953742626E-17	6.09822237975986E-18	-0.0505665456699182	-1.00985574092712	-0.050566545669918	-1.00985574092712	-4.21674204005613E-17	2.38403288144663E-17
54.7	1.08822782000163E-17	-1.77013131670201E-18	-0.180973842133248	-1.0508009692995	-0.180973842133248	-1.0508009692995	6.62591994509123E-18	3.92647024785502E-18
54.8	8.55727758786692E-18	5.69513871914183E-18	-0.361387094155963	-1.00226146094607	-0.361387094155963	-1.00226146094607	6.28324401112327E-18	7.58011192247881E-18
54.9	-1.00157505423753E-17	5.42167137286296E-18	-0.501139399825418	-0.910425850677905	-0.501139399825418	-0.910425850677904	-1.66723273319228E-17	-1.68593288123096E-18
55	-4.14641303256878E-18	1.79369665680438E-19	-0.621483420299048	-0.856640347804892	-0.621483420299048	-0.856640347804893	1.07428915462255E-17	-1.60285612507752E-18
55.1	-4.23895018883743E-20	-2.49402180534575E-18	-0.760077765194126	-0.747268923406753	-0.760077765194126	-0.747268923406753	8.04980521941718E-18	9.71895389169402E-18
55.2	-1.30298659598635E-17	7.77263865836215E-18	-0.836743145385249	-0.626569561972281	-0.836743145385249	-0.626569561972281	5.83282524233762E-18	-3.68625171347817E-18
55.3	4.0519600772821E-19	-7.49837921165341E-18	-0.941052383060873	-0.472143642681896	-0.941052383060872	-0.472143642681896	-8.83069215333154E-18	-5.40851923013154E-18
55.4	-3.4114372166656E-18	9.42155462812324E-19	-0.996858036974657	-0.3714322339845	-0.996858036974656	-0.371432233984501	1.62707552930219E-18	-6.38046516182504E-18
55.5	-2.02945410255036E-17	-3.15385967480734E-18	-1.06087070016447	-0.188428204702931	-1.06087070016447	-0.18842820470293	-1.5196192897127E-17	-1.12050293059467E-17
55.6	2.77912441404979E-18	-9.379061491069E-18	-1.05053870697501	-0.0476608936995014	-1.050538706975	-0.0476608936995014	-2.95283828247979E-18	1.12896165629688E-17
55.7	3.48390645172985E-18	-5.80563593930206E-18	-1.07226545219283	0.10343297183205	-1.07226545219283	0.10343297183205	2.48891140389603E-17	-1.30503206211928E-17
55.8	5.81332156910856E-18	1.13153563589411E-19	-1.03604948435875	0.276142619583007	-1.03604948435875	0.276142619583007	1.1852950265396E-17	-1.14003360110383E-17
55.9	1.0594034344738E-17	-7.62277654968271E-19	-0.990517037125275	0.413341831451504	-0.990517037125276	0.413341831451503	1.69564027779863E-17	-8.92173960834796E-20
56	5.90417236800671E-18	-1.20899612513003E-17	-0.892811600903112	0.557579493110305	-0.892811600903112	0.557579493110304	1.77929789655307E-17	-2.76744280765844E-17
56.1	7.77843922050518E-19	8.38687765998644E-18	-0.836836256313373	0.676988653263893	-0.836836256313373	0.676988653263894	-9.82770549252923E-18	-2.09885306385224E-18
56.2	1.76146863559165E-17	8.61273497876134E-18	-0.731493795952938	0.806033650441275	-0.731493795952939	0.806033650441275	1.21586948140547E-17	4.01170699031511E-17
56.3	-2.29678583364241E-17	-9.01004254282698E-18	-0.553779791625779	0.899457644094834	-0.553779791625778	0.899457644094834	-1.56269644669898E-17	-1.37955989528407E-17
56.4	2.92640043791595E-18	5.47303432374864E-18	-0.478890687664687	0.973137607282373	-0.478890687664687	0.973137607282374	-2.27651680192061E-17	7.2269505105613E-18
56.5	-7.16955798586218E-19	-1.41891537559581E-17	-0.312913583807376	1.05183441831774	-0.312913583807376	1.05183441831774	-7.86041962620278E-18	-3.38206322027808E-17
56.6	-8.88466261741471E-18	6.05842633607649E-18	-0.14985536227325	1.05046935625718	-0.149855362273251	1.05046935625718	9.0671007255977E-18	1.07780772962829E-17
56.7	-1.08273269156992E-18	1.0065535975931E-17	-0.00403459691060389	1.07766560464763	-0.00403459691060386	1.07766560464763	-9.9825686458572E-18	-1.21631189981014E-17
56.8	-1.72210727311743E-17	8.59813663453907E-18	0.13372708937094	1.08886599905297	0.13372708937094	1.08886599905297	-1.67072036929876E-17	-4.44024530114045E-18
56.9	3.00649564991797E-17	3.30912657725715E-17	0.295489439928578	1.03213373695761	0.295489439928577	1.03213373695761	-1.14383737966598E-17	-7.0048281965695E-18
57	-3.90776064248298E-19	-5.76448288583798E-18	0.463114681446343	0.944403593568042	0.463114681446343	0.944403593568042	0	0
57.1	1.88614113635506E-17	1.62205822941104E-17	0.579946550551342	0.900503467192735	0.579946550551342	0.900503467192735	3.62379487221752E-17	1.6464902112883E-17
57.2	-3.51489002377239E-18	-1.11479846397869E-17	0.712549285918037	0.835251549087439	0.712549285918037	0.835251549087439	-7.47043274750223E-19	-8.58893134445013E-18
57.3	-1.58266218384807E-17	6.55592780645272E-18	0.856686801272801	0.648010895807179	0.856686801272802	0.648010895807179	-5.10705055929396E-18	7.68453673867443E-18
57.4	1.96710485337071E-18	3.19261513838893E-18	0.871065327954978	0.560138058029213	0.871065327954979	0.560138058029213	-2.58553397984062E-17	4.19517725578953E-17
57.5	1.54917336560661E-17	-2.62307734025058E-20	1.00277866412061	0.442584372758955	1.00277866412061	0.442584372758955	2.93629563942997E-17	-4.92156643960292E-18
57.6	-1.58841508265906E-17	1.95160880471386E-17	1.05640594149895	0.268513741957207	1.05640594149895	0.268513741957207	8.58208802700736E-18	1.87383364028992E-17
57.7	6.13589057931483E-18	7.23444942200038E-18	1.03924394590894	0.116819623552593	1.03924394590894	0.116819623552592	7.31697755766102E-18	-2.22553521365285E-18
57.8	-1.07922267053567E-18	-2.5289505655798E-18	1.08498061109977	-0.0123927891785739	1.08498061109977	-0.012392789178574	-3.1881466582984E-17	-9.48602778087054E-18
57.9	3.08360484554168E-17	-2.6435530756079E-17	1.08702790265006	-0.151760637881551	1.08702790265006	-0.15176063788155	2.47170420822369E-17	-3.52855875454588E-17
58	1.12442283109722E-17	3.08262562753232E-17	1.00909536447687	-0.363064653577296	1.00909536447687	-0.363064653577296	8.61981773086376E-18	3.23484521842409E-17
58.1	1.454569730179E-18	1.18379759770896E-18	0.939018408651873	-0.446478127165044	0.939018408651872	-0.446478127165044	1.65555291404787E-17	1.38367128235171E-18
58.2	1.45913688688826E-17	-2.503253947232E-17	0.901542718791543	-0.606866901304015	0.901542718791542	-0.606866901304015	-6.88010579849394E-18	2.3742135453638E-17
58.3	5.51048205903346E-18	1.8572927147653E-17	0.785779795827286	-0.741389625732322	0.785779795827287	-0.741389625732322	-2.54045078891773E-17	-3.39266641339247E-17
58.4	1.76157144099488E-17	1.97666586736542E-17	0.674797405491158	-0.776495803199314	0.674797405491159	-0.776495803199315	3.16982689154871E-17	-1.18802785624831E-17
58.5	-1.0341442691801E-17	-2.29789418250759E-17	0.597378190777736	-0.923930204246192	0.597378190777737	-0.923930204246192	-8.56965153792144E-18	-8.80844122119297E-18
58.6	1.68830460047587E-18	-3.34047469218579E-17	0.426669238055388	-0.988945990451579	0.426669238055389	-0.988945990451578	-9.74864436469869E-18	-7.40287423958602E-18
58.7	8.49204945061986E-18	5.10719924265843E-18	0.278962424702462	-1.00511912541848	0.278962424702462	-1.00511912541848	-1.03556325414089E-17	-2.92409936356029E-18
58.8	-6.39268747428082E-18	4.22371984727731E-18	0.154820201059111	-1.05217312924973	0.154820201059111	-1.05217312924973	1.40915794561643E-18	4.23873580556518E-19
58.9	6.38714521154205E-18	-5.83814088145675E-18	0.024328543530066	-1.08404711509513	0.0243285435300652	-1.08404711509513	-8.07095590957851E-18	-2.48623254335616E-17
59	2.03215728710127E-17	5.66546075150507E-18	-0.166897741761949	-1.04711984083276	-0.166897741761949	-1.04711984083276	2.32648467105974E-17	-1.04311392435179E-17
59.1	-6.68115301871578E-18	3.90847529773488E-18	-0.276274656259168	-1.01940340864003	-0.276274656259168	-1.01940340864003	-1.14205915438202E-18	5.71238622189507E-18
59.2	1.6751218438458E-18	8.25709151271465E-18	-0.420144244124904	-1.01037374493144	-0.420144244124904	-1.01037374493144	7.46207540851485E-18	9.61807885374217E-18
59.3	1.03381456999115E-17	-2.53111969113401E-18	-0.580737302177234	-0.883645151329474	-0.580737302177234	-0.883645151329474	1.05145776198127E-17	7.44964816243124E-18
59.4	-2.97096124039802E-18	6.37875153825421E-18	-0.663566186398414	-0.832417581460032	-0.663566186398414	-0.832417581460032	-1.3414787059459E-17	-3.06732525376913E-18
59.5	7.40361627361725E-18	-7.13813063016812E-18	-0.802846828884965	-0.723453214031029	-0.802846828884965	-0.723453214031029	8.18375729593808E-18	-1.91872395158973E-17
59.6	1.60597071106508E-17	-2.19536352135215E-17	-0.880211479598191	-0.58620167738556	-0.880211479598191	-0.58620167738556	9.3488550721806E-19	2.23771281797037E-18
59.7	5.61723207400726E-18	1.60363973615071E-17	-0.966018600812506	-0.485240355694171	-0.966018600812506	-0.485240355694171	-3.87865859186526E-19	-4.76558377094461E-18
59.8	7.85074772433972E-19	-4.5205320015198E-18	-1.03312461204271	-0.339846599852963	-1.03312461204271	-0.339846599852963	-1.94693159255075E-17	-9.90083501670229E-18
59.9	3.91998233460816E-18	-1.50059701807606E-17	-1.0582219280291	-0.206767910982714	-1.0582219280291	-0.206767910982714	2.30059762176073E-17	-1.24214913218992E-17
60	-2.0059916644261E-17	7.11403321889783E-19	-1.07246130383022	-0.0344483508435566	-1.07246130383022	-0.0344483508435567	-2.44307957512421E-17	6.43457106884792E-18
60.1	-1.96780653729919E-17	1.6823537471132E-18	-1.05980682129019	0.0982887019769338	-1.05980682129019	0.0982887019769341	-2.54278891313375E-17	3.00801806424411E-18
60.2	-4.14552630847629E-18	-2.07441859855233E-17	-1.06694512499284	0.226606381094131	-1.06694512499283	0.22660638109413	1.26729698218785E-17	-1.46727899663368E-17
60.3	-2.65374508297668E-18	-2.00213540395709E-17	-0.998944898744319	0.407867281112149	-0.998944898744319	0.407867281112148	-1.27005505642305E-17	-1.51244009140832E-17
60.4	1.44347188040183E-17	2.87039961727279E-18	-0.933836488841314	0.491883755104232	-0.933836488841314	0.491883755104232	-1.22945410515563E-17	-2.57417483546573E-18
60.5	8.04335500170587E-18	8.81827482171616E-18	-0.871324873488118	0.648666685292071	-0.871324873488118	0.648666685292072	-1.69012011198256E-18	1.63068715008764E-18
60.6	1.68768884945786E-17	1.24412411340004E-17	-0.7699349264209	0.754250275446736	-0.769934926420899	0.754250275446736	1.99405440805685E-18	1.04886575681748E-18
60.7	4.16012265319717E-18	-7.07357095507478E-20	-0.656550322359005	0.855793312383207	-0.656550322359005	0.855793312383207	6.9043689861208E-18	1.01635246718609E-17
60.8	1.39273080703991E-18	-7.67849861913375E-18	-0.537317495056897	0.944477411833984	-0.537317495056897	0.944477411833984	-5.23303181144271E-19	-8.80344819723894E-19
60.9	8.17238542001239E-18	-2.30540656831518E-17	-0.413578734358027	1.00842209512293	-0.413578734358027	1.00842209512293	6.50119795113829E-18	-8.06022036596284E-18
61	1.78460967179954E-17	1.45051245452628E-17	-0.258677195344226	1.05538195333663	-0.258677195344226	1.05538195333663	1.13625837047933E-17	1.86315436444284E-17
61.1	-2.70130760800322E-18	7.81904481236162E-18	-0.113353502675361	1.06527876303786	-0.113353502675361	1.06527876303786	-2.83022514267312E-17	6.12680455308912E-18
61.2	-3.20747610418519E-18	-5.72973276382419E-18	0.0159058248246314	1.08029664987523	0.0159058248246315	1.08029664987523	4.45679521195631E-19	-1.92583234875231E-17
61.3	-1.67335909193445E-19	-1.42504504430209E-17	0.169809568168091	1.08590051765011	0.169809568168091	1.08590051765011	-1.5531806194873E-17	-7.26161580683032E-18
61.4	2.22152529096316E-17	1.18530517550508E-17	0.343562461915498	1.02586035130052	0.343562461915499	1.02586035130052	-9.48949141032572E-19	5.48467995824176E-18
61.5	3.98779561307512E-18	3.6579505983843E-18	0.428695197715027	0.974970167996608	0.428695197715027	0.974970167996609	-2.61740385123931E-17	1.07041438381355E-17
61.6	-1.04011377702523E-17	6.93488397711298E-18	0.594506677118368	0.939384523883598	0.594506677118367	0.939384523883597	-1.6749991796381E-17	-9.7122855051925E-18
61.7	2.37666858567848E-18	1.30208035435236E-17	0.719936608638263	0.829517574642562	0.719936608638264	0.829517574642562	9.62342008075128E-19	6.65258434865318E-19
61.8	-3.93949791100895E-18	-1.73663282325818E-17	0.801432502797257	0.717733225655369	0.801432502797257	0.717733225655368	2.22675064996194E-18	-1.64065669256976E-17
61.9	8.05424525592786E-18	1.66981233229546E-17	0.89974882996064	0.599902294896065	0.89974882996064	0.599902294896065	-9.79423182691994E-18	2.00122522234921E-17
62	-1.01920763803473E-17	-1.05855539002131E-17	0.974286135877348	0.498728502669802	0.974286135877348	0.498728502669802	-1.34267641783911E-17	-4.4112864440248E-18
62.1	8.29320856022006E-18	4.9140031346381E-18	1.05063192749792	0.351417757901515	1.05063192749792	0.351417757901516	7.45125187747755E-18	1.31091767532234E-17
