# GHZ S RI R 50
50	3.64094203917569E-17	9.44043768656297E-18	0.826816847022852	-0.593626500872022	0.826816847022852	-0.593626500872022	-1.47183773907725E-17	8.31092826047501E-18
50.1	1.99095666441086E-17	1.30270874403371E-18	0.694826546843046	-0.709198725761295	0.694826546843046	-0.709198725761295	7.49805416324096E-19	-5.14642158938778E-18
50.2	-1.25991944856971E-17	-2.66775324333125E-17	0.581873705456143	-0.809322731376956	0.581873705456143	-0.809322731376956	1.39070159338565E-17	3.50991567163174E-18
50.3	-2.76655889747689E-17	2.76586820255962E-18	0.450077732545367	-0.922058489633017	0.450077732545367	-0.922058489633017	-1.43981352635018E-18	1.12344490129358E-18
50.4	3.66737277103597E-18	-1.65687314909006E-17	0.250012273074325	-0.946809702651505	0.250012273074325	-0.946809702651506	7.17313151661475E-18	1.93753115694247E-17
50.5	2.06659684975085E-18	-3.620980009288E-17	0.128441151106615	-1.00427946081777	0.128441151106615	-1.00427946081777	1.02913466808841E-17	6.35089332163385E-18
50.6	6.9124872093839E-18	-7.86844790435367E-19	-0.0567148483629078	-0.999705440755994	-0.0567148483629079	-0.999705440755993	2.71167779039018E-18	8.44389781412103E-18
50.7	-9.59441965177368E-18	3.75222983155946E-18	-0.204598023785897	-0.973174673504202	-0.204598023785897	-0.9731746735042	9.23303348543116E-18	-3.13428037601289E-19
50.8	4.27699957250702E-17	1.57496186464269E-17	-0.381454029707689	-0.950555351481821	-0.381454029707689	-0.950555351481822	3.61360400873123E-17	-4.34791408371402E-18
50.9	7.51935243147135E-18	9.21424152878541E-20	-0.512463133445579	-0.840656241454314	-0.512463133445578	-0.840656241454314	-1.63951474847764E-17	-1.22336772039874E-17
51	6.90398021335039E-18	1.405530057456E-17	-0.661320144020694	-0.766578944270273	-0.661320144020694	-0.766578944270273	1.40708027959193E-17	2.0858168652129E-18
51.1	-2.03359749362129E-17	1.57460285518808E-17	-0.772442910042257	-0.644595821450984	-0.772442910042257	-0.644595821450983	-5.49672305758416E-18	-7.84674609174119E-19
51.2	7.3133012336869E-18	7.8180711139554E-18	-0.860931019782164	-0.506589645704086	-0.860931019782164	-0.506589645704085	-7.22928786207757E-18	-5.88461414925326E-18
51.3	-2.45749953655148E-18	3.68201872770926E-18	-0.937193162393071	-0.362113976920436	-0.93719316239307	-0.362113976920437	2.11732881696955E-18	-7.53963027103056E-18
51.4	4.36053126585268E-19	1.2143607027983E-18	-1.0008202325692	-0.224148031937491	-1.0008202325692	-0.224148031937491	-2.95424311940967E-19	-6.19166918774021E-18
51.5	-2.91069107555461E-18	2.87554561193157E-17	-0.989102045046834	-0.0280928883637351	-0.989102045046833	-0.0280928883637357	5.81895627849158E-18	1.73431240168534E-17
51.6	-1.42821398689832E-18	5.25495815646237E-18	-1.00548497052932	0.100008439458484	-1.00548497052932	0.100008439458484	-1.09846659300483E-17	4.00417028218844E-19
51.7	-1.2724659249097E-17	1.36165916879195E-17	-0.991643697586962	0.264195199025215	-0.991643697586962	0.264195199025215	-7.1695352369183E-18	-6.41840225365366E-18
51.8	-3.43680573842359E-18	-1.76112498762298E-17	-0.876552649769222	0.413547985480282	-0.876552649769222	0.413547985480282	-3.22562830301278E-17	-2.23532240402086E-17
51.9	2.22844801134508E-17	5.08209121308307E-18	-0.874385325009703	0.555051922662622	-0.874385325009704	0.555051922662622	-9.01222723128814E-19	-3.7435431050673E-17
52	-2.27856162994236E-18	2.26886890499729E-17	-0.71195185900973	0.694536728163099	-0.711951859009731	0.6945367281631	-2.39275590224074E-18	-7.35486905698549E-18
52.1	1.87755151702489E-17	2.12763697988081E-17	-0.602165677578071	0.78280409522579	-0.602165677578071	0.78280409522579	2.17790881186606E-18	1.61028421115044E-18
52.2	-1.51980103923209E-18	-1.03393531208091E-17	-0.498773834248335	0.874641457844783	-0.498773834248335	0.874641457844782	-2.3992768131949E-17	1.47064333099638E-17
52.3	-2.56733849610612E-18	-1.09966423373667E-18	-0.358514508174682	0.943256023998392	-0.358514508174682	0.943256023998392	-1.01733052368681E-18	4.63549310892015E-17
52.4	1.68686204296518E-17	2.89804475634378E-17	-0.189176716032884	1.02004661234254	-0.189176716032884	1.02004661234254	4.69307106209731E-17	3.40279925610287E-17
52.5	8.82190218978946E-18	-2.01123753339862E-17	-0.0553769465190864	0.963190584390043	-0.0553769465190862	0.963190584390043	-1.85086796115178E-17	-2.97670262918347E-17
52.6	-6.61919754014672E-18	3.153026884328E-17	0.0926665215111556	1.0328690291976	0.0926665215111554	1.0328690291976	1.74897785628854E-17	3.38044916891303E-17
52.7	7.86786457795817E-18	1.35292877539189E-18	0.315291021906073	0.992629172473625	0.315291021906073	0.992629172473624	1.17601788545384E-17	1.0122745870278E-17
52.8	-1.69313447464318E-17	-1.47402570787134E-17	0.346583917984078	0.828918184447824	0.346583917984078	0.828918184447824	-2.04835377702887E-17	4.66753453519792E-17
52.9	-6.68956710438785E-18	-6.99271059992039E-18	0.642969559964247	0.913229001454016	0.642969559964247	0.913229001454015	-2.38399267793702E-17	-3.611958032316E-17
53	-1.03967200931879E-17	-1.04329798914678E-17	0.651423118273274	0.704686365424951	0.651423118273274	0.704686365424951	5.63852047825449E-19	-7.16690752947119E-18
53.1	2.13780360096612E-17	-2.63843876731003E-17	0.777878199546027	0.661751603337234	0.777878199546028	0.661751603337234	-1.55008026282118E-17	-2.77279500695326E-17
53.2	1.51325738799519E-17	7.77067873365528E-18	0.925446027570271	0.51451037371614	0.925446027570271	0.51451037371614	4.73144342950027E-18	3.92946103383535E-18
53.3	2.88885008773924E-17	-4.18756209091412E-18	0.938536768138519	0.380942742361101	0.93853676813852	0.380942742361101	-5.24865042995769E-18	-1.50285962371707E-17
53.4	8.57461285083827E-18	-4.05416066428699E-18	0.968643212326356	0.168138745196012	0.968643212326356	0.168138745196012	1.79968104866549E-17	-1.047621636266E-17
53.5	6.06734607297295E-18	8.14364474387938E-18	1.04361891691595	0.110853406273157	1.04361891691595	0.110853406273157	-3.07993121909857E-17	1.14594237642997E-17
53.6	2.79178923015652E-17	1.54250396252938E-18	1.02924733484136	-0.110537199465781	1.02924733484136	-0.110537199465781	1.19259476510962E-17	-6.39600327377999E-18
53.7	-3.14980487714143E-18	1.16762551764273E-17	0.929460294093102	-0.272052700191805	0.929460294093103	-0.272052700191805	2.56077840677964E-18	-1.03331712729578E-17
53.8	-1.07400960817194E-17	1.65382319533092E-17	1.03323771334453	-0.361479917999729	1.03323771334453	-0.361479917999729	1.55278038478557E-17	3.28131080828926E-17
53.9	-4.48441237831546E-18	9.0584420607934E-18	0.874475027617793	-0.542854144709701	0.874475027617793	-0.542854144709701	1.49203470521855E-18	1.35550749805856E-17
54	-1.02310302219508E-17	-1.61534353207416E-17	0.761552439310375	-0.662411978334556	0.761552439310375	-0.662411978334556	-8.75101133795083E-18	-1.22447615223053E-18
54.1	-5.1971744830328E-18	-9.22106722107352E-18	0.679191186652891	-0.740720403365475	0.679191186652891	-0.740720403365474	1.16119034259841E-17	-8.04267849101155E-18
54.2	-3.94844424855376E-18	-7.22422540912899E-18	0.570145532859276	-0.850370492249052	0.570145532859275	-0.850370492249052	-4.50631974638517E-18	5.78107684777857E-18
54.3	-8.27543099940053E-18	2.03375544716033E-18	0.383833982830453	-0.945568812605081	0.383833982830453	-0.945568812605081	-1.6713896460631E-18	1.72710564913158E-17
54.4	-1.84030514008984E-17	-3.83287569961612E-18	0.323199598327385	-0.929929477114675	0.323199598327385	-0.929929477114674	4.29492000066646E-18	1.62555914005652E-17
54.5	-4.04670499488288E-18	-1.0892493568421E-17	0.0988456566293151	-1.06723902681355	0.0988456566293153	-1.06723902681355	6.26341649993506E-18	3.15794846113647E-17
54.6	1.95964909904946E-18	-7.08603413935009E-18	-0.0442903751680395	-0.995044525896334	-0.0442903751680394	-0.995044525896334	1.18785437750065E-17	-2.17932581355788E-17
54.7	-2.58892299581412E-18	-1.12660898627055E-17	-0.172460873876523	-1.03677475104368	-0.172460873876523	-1.03677475104368	-5.15300300279807E-18	-2.62192582736902E-19
54.8	-3.89467569307903E-18	-1.76787351163142E-18	-0.350699574231745	-0.989777553375153	-0.350699574231745	-0.989777553375153	-2.6903801181737E-18	-2.81788968363047E-19
54.9	6.72143868681753E-19	-2.70618888034363E-18	-0.488723100148488	-0.899808666392479	-0.488723100148488	-0.89980866639248	1.19730648773087E-18	-5.18590450597006E-18
55	-1.48373419853128E-18	-1.50027887353377E-18	-0.607531806908451	-0.847850572899348	-0.607531806908451	-0.847850572899347	7.51793904267134E-18	-1.04026840647215E-17
55.1	-9.3256245047144E-19	4.49187803406595E-18	-0.744842463653177	-0.740772045978539	-0.744842463653176	-0.740772045978538	1.14752905740669E-17	-1.97723674379553E-18
55.2	-1.07215384781541E-17	7.78343189311595E-18	-0.820779611034162	-0.62238386878179	-0.820779611034161	-0.62238386878179	-9.74782734922684E-18	2.73174919097342E-18
55.3	1.15279916196766E-17	-6.37000753106901E-18	-0.924558592290737	-0.470591476302741	-0.924558592290737	-0.470591476302741	7.48070053149295E-18	-8.26379440634944E-19
55.4	-9.02506911362557E-18	1.5518127090216E-18	-0.980168648512424	-0.372173453256086	-0.980168648512424	-0.372173453256086	-1.04563636453894E-17	-5.45429458188076E-18
55.5	1.15761238526475E-17	-2.92247501507552E-18	-1.04443851295454	-0.19191035302392	-1.04443851295454	-0.19191035302392	1.9324504088072E-17	-1.28360434391971E-18
55.6	-1.3479565410073E-17	-1.45041851484673E-17	-1.03485173903223	-0.0534284774726565	-1.03485173903223	-0.0534284774726563	-1.02000276281884E-18	-2.63227833372781E-17
55.7	4.46037853973162E-18	-2.79789590785342E-18	-1.0574387823546	0.0952829125056411	-1.0574387823546	0.0952829125056413	-8.37268939336471E-18	-6.42873235452902E-18
55.8	1.73608117997729E-17	-2.85253221225031E-17	-1.02268042735865	0.265779251669683	-1.02268042735865	0.265779251669683	1.46714237170177E-17	-1.52584785757017E-18
55.9	-1.721127936697E-17	7.41852035605485E-18	-0.978747790160601	0.401092833517822	-0.978747790160601	0.401092833517822	-6.28425431589671E-18	1.436307009744E-17
56	2.6684308986021E-17	5.09667216749964E-18	-0.88312659751401	0.543743143770131	-0.883126597514011	0.543743143770132	3.08281892203132E-17	1.34548962078732E-17
56.1	-4.58678500489405E-18	6.96444715899514E-18	-0.829106627619583	0.661714849152434	-0.829106627619584	0.661714849152435	-2.02439878374443E-17	-1.66155303141333E-17
56.2	-6.72122742315338E-18	-1.14564238413246E-17	-0.726155123182847	0.789646366570006	-0.726155123182847	0.789646366570006	-4.63960212317256E-18	4.39617668940193E-18
56.3	-6.65393133539635E-18	-7.20258843077843E-18	-0.551176525697252	0.882637126107674	-0.551176525697252	0.882637126107673	-4.20792332344437E-17	8.0104217884767E-18
56.4	5.93536296502688E-18	1.04114624055024E-17	-0.478510620255178	0.955805312422549	-0.478510620255178	0.95580531242255	2.6950335505797E-17	4.58598737632015E-18
56.5	-5.6253516664068E-18	-7.23995097859831E-19	-0.315300826752526	1.03456854538249	-0.315300826752526	1.03456854538249	2.35531689876609E-17	2.31605751198215E-17
56.6	8.14821624174133E-18	-3.94994884545953E-18	-0.154671579298267	1.03391080018976	-0.154671579298267	1.03391080018976	3.70702327803395E-17	-4.51615789031395E-18
56.7	-6.13747417716841E-18	1.25869469676668E-17	-0.0112960840721455	1.06183278725963	-0.0112960840721458	1.06183278725963	-9.27892671460619E-18	-2.36759929775424E-17
56.8	3.4859567400438E-18	-2.89976134540808E-18	0.124174997568657	1.07403261091141	0.124174997568657	1.07403261091141	-3.2077767033108E-18	-4.92348919229972E-17
56.9	-5.46893793485012E-18	7.83958678265638E-18	0.283910778866308	1.01899351581986	0.283910778866309	1.01899351581986	1.0867931697262E-17	1.61123220781549E-17
57	7.79685353488292E-18	-2.77148028045651E-17	0.449732408836119	0.933354266832409	0.449732408836119	0.933354266832409	6.92659791229635E-18	-2.66225523927823E-17
57.1	-1.22290323489216E-17	-5.77012902725954E-18	0.564967191281996	0.891272638303337	0.564967191281997	0.891272638303337	-2.17512260774684E-17	-4.44381568754194E-17
57.2	3.54336945808145E-17	1.54610119296266E-17	0.696141780624575	0.828191344285712	0.696141780624575	0.828191344285712	-9.04861489370161E-18	4.60409746192403E-18
57.3	3.42678798415735E-17	-7.18643527714578E-18	0.83958904320659	0.643961352717297	0.83958904320659	0.643961352717297	3.7516024730534E-17	-1.00691516818583E-17
57.4	-4.12591986785432E-18	1.75664352393118E-17	0.853668547106412	0.55807063136806	0.853668547106412	0.55807063136806	-3.57142896440603E-18	-1.71500901564147E-17
57.5	1.3231749638855E-17	4.43934896420025E-19	0.98481836841241	0.443315660789615	0.98481836841241	0.443315660789615	1.11225139932019E-17	-1.79594132466891E-17
57.6	-1.54723522478332E-17	5.07031413936858E-18	1.03882501993821	0.272002652590413	1.03882501993821	0.272002652590413	1.66735967624772E-17	7.0793456495842E-18
57.7	1.19470811127872E-17	-1.60284156823817E-17	1.02252851400607	0.122600762113447	1.02252851400607	0.122600762113447	8.23811216437924E-18	-2.72946914534172E-18
57.8	-2.6296071563381E-17	-4.25721808810926E-18	1.06891138225545	-0.00411735023004258	1.06891138225545	-0.00411735023004284	-1.49261993204068E-17	-7.81354516554176E-18
57.9	5.9059011787741E-19	-1.05277938879467E-17	1.0721133110748	-0.141206087047019	1.0721133110748	-0.141206087047019	1.08369312087219E-17	-6.58027580978537E-18
58	-8.14897251631925E-19	1.05791928402056E-17	0.996394120248804	-0.350374599642197	0.996394120248804	-0.350374599642197	-4.65547561087891E-18	1.89341029185E-17
58.1	-3.9537480883303E-18	-9.46974384447932E-19	0.927982407896645	-0.432386173985551	0.927982407896645	-0.432386173985551	-9.51711684110978E-18	-3.24622866712942E-18
58.2	8.67951017110991E-18	-1.79114823163699E-17	0.89261690708573	-0.590906562264721	0.89261690708573	-0.590906562264721	1.39052082223271E-17	1.58111249110886E-18
58.3	-1.87823958363616E-17	-1.91009080427735E-17	0.779411432869058	-0.724311765877575	0.779411432869058	-0.724311765877575	-1.87239278608512E-17	-1.31890833851944E-17
58.4	-1.14715081529373E-17	-5.74647858169277E-18	0.670525538859266	-0.758987364233655	0.670525538859267	-0.758987364233655	1.36866419944611E-17	-5.28629260502947E-18
58.5	-2.8758685657342E-19	-1.09696136273781E-17	0.595805058782404	-0.905358425893367	0.595805058782404	-0.905358425893366	-1.0307298037126E-17	-3.32574083905549E-18
58.6	3.32714411832311E-18	1.81091031536935E-17	0.427901932060949	-0.970552870341649	0.427901932060949	-0.970552870341648	-1.17757944825755E-17	1.6046077487937E-17
58.7	-2.05663851476676E-17	-1.2827221459054E-17	0.282638260346375	-0.987246293052777	0.282638260346375	-0.987246293052777	-6.6927661373734E-18	-3.09627873678355E-18
58.8	1.88891662286041E-17	-2.79190446326483E-17	0.161030949340772	-1.03472912149995	0.161030949340772	-1.03472912149995	2.43737457369627E-18	-9.20614044640433E-18
58.9	-4.89149219248468E-19	7.897825121107E-18	0.0330220893996591	-1.0673738853405	0.0330220893996592	-1.0673738853405	-7.897825121107E-18	-4.89149219248468E-19
59	-1.30620221086644E-17	2.55262390293257E-18	-0.155861790065866	-1.03222823908366	-0.155861790065866	-1.03222823908366	-1.02131797131903E-17	2.16690074238424E-18
59.1	3.62799498585156E-18	-3.11523935471174E-18	-0.263351113845977	-1.00592079270833	-0.263351113845977	-1.00592079270833	1.09855691610718E-17	-7.25115535814882E-18
59.2	-5.92528025611919E-18	3.29678191856865E-18	-0.405091311892973	-0.998626316717157	-0.405091311892973	-0.998626316717156	-2.35464564910057E-17	-1.55719317908601E-17
59.3	-1.53741851825483E-17	5.48906207077281E-18	-0.564387616358216	-0.874608311756515	-0.564387616358217	-0.874608311756515	-1.20104701699459E-17	1.28759890391918E-17
59.4	5.21628778494462E-18	7.17955256777552E-18	-0.645974430241718	-0.82530761892295	-0.645974430241719	-0.825307618922951	4.61943675397015E-18	-8.19818882627414E-19
59.5	2.29908394884267E-17	3.67294675864504E-18	-0.78425581298119	-0.719147572419624	-0.784255812981189	-0.719147572419623	3.99840686755248E-18	6.38773349329572E-19
59.6	8.91919642754421E-18	-8.09624845294146E-18	-0.861355143972811	-0.584552417579991	-0.861355143972811	-0.584552417579991	2.44118201132561E-18	1.05260125001423E-18
59.7	3.71619257619369E-18	1.90968864189375E-17	-0.946786629947228	-0.48621134990214	-0.946786629947228	-0.48621134990214	4.97897380651147E-18	6.10224784220463E-18
59.8	6.42121836427221E-19	1.55215508151633E-17	-1.01415663813	-0.343634278119375	-1.01415663813	-0.343634278119375	1.27706816899676E-18	1.6039344520579E-18
59.9	3.54618939008378E-18	1.64954460571464E-18	-1.03988083438791	-0.213041207574945	-1.03988083438791	-0.213041207574945	3.52096493134538E-18	-1.07177108020241E-17
60	-1.84934279121311E-18	-1.12315503163543E-18	-1.05533004429378	-0.0433676750752185	-1.05533004429378	-0.0433676750752186	-1.40172111730477E-17	5.15688443651848E-18
60.1	1.59581002131992E-17	-2.68343085489664E-18	-1.04396272715304	0.087161809693342	-1.04396272715304	0.0871618096933414	-1.2627909905396E-18	-7.50969421797608E-18
60.2	7.75224591317929E-18	1.19255756499202E-17	-1.05245685697038	0.213180867387606	-1.05245685697038	0.213180867387605	-1.18982238240235E-17	-1.0174135519049E-17
60.3	-1.43850189267377E-17	-5.25205173925582E-18	-0.98687368047151	0.39250054378322	-0.98687368047151	0.39250054378322	-1.36347258211298E-18	-7.3070544430755E-19
60.4	1.95025527885308E-17	-2.28677477342048E-17	-0.923600276375405	0.475205011391251	-0.923600276375405	0.47520501139125	1.32179414108384E-17	-7.23168160956435E-18
60.5	-1.06503491632335E-17	-2.52751316142497E-17	-0.863673684446082	0.63035744270484	-0.863673684446082	0.63035744270484	-3.83540701475151E-18	7.10186906634861E-18
60.6	-1.03341017548728E-17	1.42418589095602E-17	-0.764850135953683	0.735066599319632	-0.764850135953683	0.735066599319633	-6.90451748553815E-18	1.67934535935949E-18
60.7	-2.13259053531201E-18	-4.78786419019757E-19	-0.654216542420422	0.836026266735889	-0.654216542420422	0.836026266735888	-3.91267576144227E-18	4.65617408853619E-19
60.8	-3.21300194381467E-18	6.39193527451212E-18	-0.537787732440297	0.924435952884668	-0.537787732440297	0.924435952884668	3.75828820108194E-18	-2.42230106948841E-18
60.9	1.51414971171809E-17	6.23505886053919E-18	-0.416771292414163	0.988486203884115	-0.416771292414163	0.988486203884115	3.39514867923108E-18	1.0630807675107E-17
61	-4.27084651638642E-18	-4.59538571321993E-18	-0.264696952828261	1.0361288752447	-0.26469695282826	1.0361288752447	-9.44161343140939E-18	-2.09872100101933E-17
61.1	-1.51192830571517E-17	-3.07272592607151E-18	-0.121869541775424	1.04706066951205	-0.121869541775423	1.04706066951206	8.5530190116503E-18	1.52321258199331E-18
61.2	-5.70838022503608E-18	1.88043892985439E-17	0.00493073019232657	1.063169348907	0.00493073019232669	1.063169348907	-6.77174396619819E-18	9.86748733110459E-18
61.3	-9.87024291973603E-18	2.4164383154731E-18	0.156329751213728	1.0703586468113	0.156329751213728	1.0703586468113	-7.28641180359838E-18	-3.12093788040424E-18
61.4	-1.5485206270449E-17	-2.7432466241604E-18	0.328098390322164	1.01267831030025	0.328098390322164	1.01267831030025	-1.3815086140356E-17	6.05823558406551E-18
61.5	3.03852873042575E-17	1.85178755676396E-17	0.411749942307432	0.963518894564807	0.411749942307432	0.963518894564807	3.81855558557227E-20	9.26022344269084E-18
61.6	3.71987059729593E-18	6.49818769258365E-18	0.575576583979638	0.930503624759747	0.575576583979638	0.930503624759746	-6.90123176635687E-19	8.35901421066886E-18
61.7	-1.66959805387735E-17	-1.09349419008769E-17	0.700067601132703	0.82345108694281	0.700067601132703	0.82345108694281	-6.2514956050914E-20	-5.91315057502316E-18
61.8	2.09507508037492E-18	-2.01852557163959E-17	0.781047432795167	0.714253762543239	0.781047432795167	0.714253762543239	1.21396090549877E-18	-1.91308831634434E-17
61.9	5.66255574898753E-18	-1.69447057385994E-18	0.878985292332558	0.599344663877271	0.878985292332557	0.599344663877271	9.72028300216791E-18	-8.82302724700399E-18
62	-5.59599466396076E-18	-1.03080956497347E-18	0.953314883368796	0.500895954975496	0.953314883368796	0.500895954975495	-1.60793773646339E-17	-2.06811415379761E-17
62.1	1.0078471143159E-17	-7.8077874744637E-18	1.03008965274679	0.356688716987933	1.03008965274679	0.356688716987933	2.31180736343053E-17	-1.77119254178538E-17
