# GHZ S RI R 50
50	3.4471652458995E-17	4.13420745087156E-17	0.842775966546105	-0.601593176534795	0.842775966546105	-0.601593176534795	-1.64891521368065E-17	4.16849641978657E-18
50.1	-2.65763529014084E-17	-4.14180312409549E-19	0.70809523619185	-0.720767952097531	0.708095236191851	-0.720767952097531	7.85290983858043E-20	4.42677451362187E-18
50.2	1.23876400009902E-17	1.46351174751764E-17	0.592267565612686	-0.821868037583187	0.592267565612685	-0.821868037583187	-4.50592621442734E-18	-1.3510464465912E-17
50.3	-5.30358211805559E-17	-1.82307100795064E-17	0.45940632186169	-0.935147795664812	0.459406321861689	-0.935147795664812	9.93831961740198E-18	3.62727208325408E-18
50.4	2.65671152131805E-17	-1.70893966812896E-17	0.25484519630766	-0.963336093085505	0.25484519630766	-0.963336093085505	8.55725308184004E-18	5.85912236455924E-18
50.5	1.1412606176504E-17	1.05742511634619E-17	0.131800738042131	-1.01871447477705	0.131800738042131	-1.01871447477705	2.981209104957E-18	1.02481263937437E-17
50.6	1.48534004059868E-17	3.75366751590938E-18	-0.0565186333101817	-1.01511813848053	-0.0565186333101814	-1.01511813848053	2.18013599968485E-18	3.36500754110357E-18
50.7	8.59213236939907E-18	2.00850292123494E-18	-0.207228973587236	-0.987100275767446	-0.207228973587236	-0.987100275767446	-1.25333508456335E-17	-2.20487361702639E-18
50.8	4.16336848525251E-18	1.79724023464221E-17	-0.384879615077789	-0.964506582684411	-0.384879615077789	-0.964506582684411	-8.27853298131714E-18	1.30169902919353E-17
50.9	-1.6963163394373E-17	-4.83814558235059E-18	-0.520041192958624	-0.852447053916205	-0.520041192958623	-0.852447053916205	-7.51092138570424E-18	-1.94270460167547E-17
51	-1.5338945717731E-18	-2.07752453760822E-18	-0.669312089513556	-0.777604875697807	-0.669312089513556	-0.777604875697807	5.41712866407197E-18	8.15444948752686E-19
51.1	7.18660845851822E-18	-1.0911996871784E-17	-0.782137379546875	-0.653573705344086	-0.782137379546874	-0.653573705344086	2.90666296000981E-18	-4.18744602411058E-18
51.2	9.53296884820791E-18	-9.35346562265108E-18	-0.87191613584875	-0.513256661246378	-0.871916135848749	-0.513256661246378	-1.20722778751482E-17	-3.45407887973525E-18
51.3	-2.13813581662548E-18	-1.16520878704288E-17	-0.948681899607987	-0.36699889724691	-0.948681899607987	-0.36699889724691	1.75208158041891E-18	-3.25916988383638E-18
51.4	9.0984052670494E-18	6.38377567784508E-18	-1.01151694361476	-0.227908981398682	-1.01151694361477	-0.227908981398682	7.40238364288497E-18	2.48186917185258E-18
51.5	-1.15787307830439E-17	1.20029686728339E-17	-1.00178977125456	-0.0280328060034781	-1.00178977125456	-0.0280328060034786	-7.73776057695096E-18	1.35268730836467E-17
51.6	-7.53448530822763E-18	-5.40280650876488E-18	-1.01575760953147	0.100772837089629	-1.01575760953147	0.100772837089629	-3.04369787085274E-17	7.94268353583304E-18
51.7	-1.28788590958256E-17	9.17357312106442E-19	-1.00150454511965	0.265687111674678	-1.00150454511965	0.265687111674678	-1.07075295561639E-17	3.18439286585332E-17
51.8	2.34736558530167E-17	8.89509312223364E-19	-0.885414827372903	0.420016911155704	-0.885414827372902	0.420016911155704	2.59392754877686E-17	-3.04390350373562E-17
51.9	-7.90672776674998E-18	3.44649992020784E-18	-0.882076488643384	0.558317723355235	-0.882076488643384	0.558317723355235	-7.99181738227856E-18	6.10572297718628E-17
52	9.70210054293655E-18	-2.40158606704135E-18	-0.719204958241571	0.702431007987446	-0.719204958241572	0.702431007987446	3.62440286399227E-18	-4.95638307255216E-18
52.1	-1.05073736139602E-17	-9.23166390513643E-18	-0.606840679070122	0.790960861967832	-0.606840679070122	0.790960861967832	-1.99745686288806E-17	1.20487463401158E-17
52.2	-2.48944078014721E-18	-6.82636332964198E-18	-0.502218538893935	0.881475901095916	-0.502218538893935	0.881475901095915	6.20080335284879E-18	-4.31972570511903E-20
52.3	-1.46256531761142E-19	2.86358234684529E-18	-0.360705227608426	0.949971976272646	-0.360705227608426	0.949971976272645	1.66813386858695E-17	2.43806180651432E-17
52.4	2.50864321180862E-18	4.02114985641624E-18	-0.192047844864867	1.02760585092104	-0.192047844864866	1.02760585092104	-8.88961702187961E-18	-4.00374752783653E-17
52.5	-1.1175980868915E-17	4.53551274903591E-18	-0.0525843234350821	0.969043315034365	-0.0525843234350816	0.969043315034364	2.29828077508439E-18	-2.11144259358615E-17
52.6	5.76086979505064E-18	1.61810843741082E-17	0.092011223537014	1.03764583159205	0.092011223537014	1.03764583159205	3.26309049765938E-17	1.13780222345615E-17
52.7	4.99391670370314E-18	-1.28403616930683E-17	0.316082927941103	1.00072932852979	0.316082927941103	1.00072932852979	7.2155207645055E-18	1.36089630634526E-17
52.8	-5.05606630283505E-18	-2.87778598510259E-18	0.354682006053485	0.829207098679156	0.354682006053485	0.829207098679155	2.81122781473371E-17	7.33794071270832E-18
52.9	1.02708676120938E-18	3.80109383574106E-19	0.642030019859643	0.922192403366246	0.642030019859644	0.922192403366247	1.24865819946536E-17	4.19894015644786E-17
53	3.73816255009272E-17	-2.18894913516639E-18	0.657426634767476	0.705993442357417	0.657426634767476	0.705993442357417	2.84298587035386E-18	-3.9855055371169E-17
53.1	4.65616843540821E-18	-5.36056276798172E-18	0.779749174662735	0.663419733836724	0.779749174662735	0.663419733836724	-2.65826299831887E-17	-4.89651279442294E-18
53.2	1.04083993615372E-17	2.81552076504003E-17	0.928410303983176	0.518889633091742	0.928410303983176	0.518889633091742	4.36850968788103E-18	1.45916884691622E-17
53.3	7.82891618909529E-18	-4.85994500872081E-18	0.940850047704493	0.381399381290388	0.940850047704493	0.381399381290388	-8.75308304517368E-18	6.45442153393933E-18
53.4	-1.26044807548715E-17	4.37184583205305E-20	0.97448717682334	0.16705440337507	0.974487176823339	0.16705440337507	-3.42377179966294E-17	-4.90028611509671E-18
53.5	-1.35033691371359E-17	-9.79209323110681E-18	1.04330204478893	0.112590133614692	1.04330204478893	0.112590133614692	-6.78002526806178E-17	1.50110233871199E-17
53.6	-1.12354014197374E-17	-3.31760430651173E-18	1.03239544925652	-0.109962877148469	1.03239544925652	-0.109962877148469	7.56935808625862E-18	5.28846650164938E-17
53.7	-1.67891615302706E-17	5.0304862402916E-18	0.932593259341669	-0.276189065440107	0.932593259341669	-0.276189065440107	-2.16733626724295E-17	4.28832764581273E-18
53.8	4.88906363057881E-17	2.54672004822613E-17	1.03264305550374	-0.356429515436469	1.03264305550374	-0.35642951543647	1.67558879669319E-18	-3.81359573467006E-17
53.9	-1.56900923518581E-17	-1.19009927129567E-17	0.875853280208794	-0.543092750491837	0.875853280208794	-0.543092750491837	-4.27589757983106E-18	1.69035366514536E-17
54	1.79106204068356E-17	1.27683296894763E-17	0.76214994599417	-0.663842163373708	0.76214994599417	-0.663842163373708	1.67024275507637E-17	8.57559180925425E-18
54.1	-1.25666814548286E-17	-3.27132432855577E-18	0.677571923227582	-0.740251223958182	0.677571923227582	-0.740251223958182	1.09757810696545E-19	2.10363512289495E-17
54.2	-1.02794950968219E-17	1.7920728094171E-17	0.569390855231952	-0.848718773011393	0.569390855231951	-0.848718773011392	6.41807926470244E-18	2.28267870280954E-17
54.3	1.33480015619555E-18	3.82251649773494E-18	0.384260455659426	-0.946649991213744	0.384260455659426	-0.946649991213743	6.74675436931844E-18	2.42335223484348E-17
54.4	1.81594057505405E-17	-1.59707093098285E-18	0.319728015075461	-0.925243216285438	0.319728015075461	-0.925243216285438	2.49298138625452E-17	5.46762630303814E-19
54.5	5.80009185010445E-18	-9.02817099511091E-18	0.101952058684593	-1.06690681310004	0.101952058684592	-1.06690681310004	2.34093797149966E-17	-5.63172081087975E-18
54.6	1.54706168699172E-17	8.9147245014098E-18	-0.0456873637772482	-0.99358039213492	-0.0456873637772483	-0.99358039213492	7.15059073927075E-18	2.78783380115871E-18
54.7	2.2106551261089E-18	7.28976948401744E-18	-0.169823363202637	-1.03365145936997	-0.169823363202638	-1.03365145936997	-3.94680703827306E-18	-8.71254224431215E-18
54.8	2.38723380618207E-18	2.96802000132254E-18	-0.348122708803474	-0.988262587469377	-0.348122708803474	-0.988262587469376	1.63881990328941E-17	1.12592492973396E-17
54.9	2.0398678969076E-17	-4.90681179384906E-18	-0.48737531396774	-0.897978293375706	-0.48737531396774	-0.897978293375706	2.30399591346442E-17	-5.54404392594707E-18
55	7.59472991965807E-19	-2.2137086136044E-18	-0.603762135975308	-0.845442969501585	-0.603762135975308	-0.845442969501585	1.11162020747646E-18	8.29902435067937E-18
55.1	3.80057673574056E-18	-2.02674790787063E-18	-0.740975879450967	-0.739808276389826	-0.740975879450967	-0.739808276389826	1.5207555685719E-17	-4.77869859312E-18
55.2	-1.28052166881228E-17	1.35012772257791E-17	-0.816412790135001	-0.62023115933362	-0.816412790135001	-0.62023115933362	-2.05015725641458E-17	-5.65163243802413E-18
55.3	-6.09006065276129E-19	-2.4223359034744E-18	-0.921088661058618	-0.470191113582842	-0.921088661058618	-0.470191113582842	8.73088619042794E-18	-5.96502078105991E-19
55.4	-8.90662118658943E-18	-4.17818631095044E-18	-0.973626726926155	-0.372093666309646	-0.973626726926154	-0.372093666309645	-9.94706505265994E-18	2.52419439989439E-17
55.5	-4.54632633195633E-18	1.17624649782646E-17	-1.03960261283562	-0.193918675135949	-1.03960261283562	-0.193918675135949	4.10740356054152E-19	4.31865481361317E-18
55.6	-1.86520439105769E-18	-2.05019840692167E-18	-1.02884702132482	-0.0545637428895245	-1.02884702132482	-0.0545637428895245	-5.76620705262907E-18	-1.54277526253503E-17
55.7	-7.44170155203761E-18	2.28682849214885E-18	-1.05114671135424	0.0915671946441581	-1.05114671135424	0.0915671946441581	-1.41753748206969E-17	-5.35460032412353E-18
55.8	6.62588210354362E-18	-5.83519478184072E-18	-1.01765172212043	0.261671922291891	-1.01765172212043	0.261671922291891	-9.82262538347064E-18	-9.89631345435434E-18
55.9	8.89961368127271E-18	-7.3316671278642E-18	-0.97335954028308	0.395695284818973	-0.97335954028308	0.395695284818973	7.61680675067967E-18	-1.27658556994778E-17
56	-3.32526756019796E-18	4.51142040792969E-18	-0.878460901599806	0.539051727221174	-0.878460901599806	0.539051727221174	-1.39778651359712E-17	-5.03392916855613E-18
56.1	-4.61847937820356E-18	2.86596477394596E-18	-0.824730546787297	0.653923927537299	-0.824730546787298	0.653923927537299	-7.6030405859293E-18	-9.67508740747151E-18
56.2	-1.26731111903003E-18	6.01252706335517E-18	-0.723657235830952	0.780900503330781	-0.723657235830952	0.780900503330782	4.71898970202473E-20	3.94360944762219E-17
56.3	-1.5924943078307E-18	-5.4171211759815E-18	-0.54939645869942	0.876565633200241	-0.54939645869942	0.876565633200242	-1.56638461317862E-18	-7.49259556838913E-18
56.4	-3.83260510231053E-18	-6.84667686999737E-18	-0.477897292012936	0.945339191375948	-0.477897292012936	0.945339191375948	-2.0988191244319E-17	-3.88369526762262E-18
56.5	1.03939739276204E-17	-1.16441530445936E-17	-0.317316861795037	1.02505903429675	-0.317316861795037	1.02505903429675	1.39651158739522E-18	-2.32518562063296E-17
56.6	1.12524996307124E-17	-4.79391879224331E-18	-0.155797955268943	1.02478180016204	-0.155797955268943	1.02478180016204	1.96586926965508E-17	-1.92580965569247E-17
56.7	9.68191364547148E-18	-2.60887178781973E-18	-0.014863024748518	1.05218172974645	-0.0148630247485181	1.05218172974645	-1.13036040124069E-17	-8.00596597471558E-18
56.8	1.228203581924E-17	3.01754136299107E-19	0.117695296062777	1.06361622351129	0.117695296062777	1.06361622351129	1.57725394863884E-17	2.49664104868787E-17
56.9	5.05840978404692E-18	-7.95375813763025E-19	0.277493157774093	1.00958862331654	0.277493157774093	1.00958862331654	3.54759203920107E-17	1.87305287077762E-17
57	2.19921673486305E-17	4.75119634334225E-18	0.444085396674766	0.925962955449222	0.444085396674766	0.925962955449222	1.82553489782506E-17	1.8173583564556E-17
57.1	-5.11891168227149E-18	2.37630104150698E-17	0.555950652962463	0.883729653363931	0.555950652962463	0.883729653363931	-9.53316238803678E-19	-6.75094426609308E-18
57.2	-1.51486002501888E-17	-1.08828097070863E-17	0.684160607132546	0.822503932498776	0.684160607132546	0.822503932498775	-3.36958664153109E-17	-1.43178247137723E-17
57.3	-1.47646073922051E-17	7.82801236341991E-18	0.83156923839096	0.641650191903715	0.83156923839096	0.641650191903715	-1.57804495881178E-17	1.80468817260394E-19
57.4	6.14906885732924E-19	3.2348567549439E-17	0.842171654552025	0.552476416797128	0.842171654552025	0.552476416797128	7.6608982226936E-18	4.41582470943622E-17
57.5	2.12119486348563E-17	2.55130420223378E-18	0.971725804972728	0.4432798427536	0.971725804972729	0.4432798427536	8.40213113273951E-18	-2.95657459074698E-17
57.6	1.79588279987455E-17	-1.45573078612644E-17	1.02719874202228	0.273770361389403	1.02719874202228	0.273770361389403	-3.52619619076812E-18	2.36854515810055E-19
57.7	-5.60544395069896E-18	2.64000103517974E-17	1.01066461262133	0.123168281445811	1.01066461262133	0.123168281445811	1.29935625245656E-17	5.23048847263133E-17
57.8	1.44245374869507E-18	4.83647310407434E-18	1.05578255451469	0.000850380847386802	1.05578255451469	0.000850380847387235	-6.78336631670686E-18	9.65737156130972E-18
57.9	6.82081878141368E-18	1.54547043127229E-17	1.05862179376249	-0.1332806666869	1.05862179376249	-0.1332806666869	3.2847656487559E-17	-1.50293937951011E-17
58	1.92030268258223E-18	-2.72970471312424E-18	0.987464535858467	-0.343580515454866	0.987464535858468	-0.343580515454866	2.91847640657304E-18	-2.0753011826013E-17
58.1	-1.3447509506262E-17	-3.28104580613286E-18	0.916158969139554	-0.424521732829646	0.916158969139555	-0.424521732829646	-2.95174665079889E-18	-2.50120013981596E-18
58.2	-1.45021042784595E-17	2.11522653351304E-17	0.884014332297528	-0.579042500039401	0.884014332297528	-0.579042500039401	-2.67842748190242E-17	4.32720534397482E-17
58.3	-6.71497413407834E-18	-1.78649914164445E-17	0.773153852612152	-0.712474309354459	0.773153852612152	-0.712474309354458	-9.03696866316513E-19	3.4557128853342E-17
58.4	-8.07896162736851E-18	-9.44316379566605E-18	0.661374992425583	-0.745685672509544	0.661374992425583	-0.745685672509543	-4.72158189783302E-18	4.03948081368426E-18
58.5	-5.18828047924511E-18	2.35821329651365E-17	0.592616187209718	-0.888323645386079	0.592616187209718	-0.88832364538608	-5.02671673915308E-18	8.51802941525005E-18
58.6	1.60790552786356E-17	8.72331521648217E-19	0.42629529406019	-0.955109572679041	0.426295294060191	-0.955109572679041	5.60919196403791E-18	2.0462290565648E-17
58.7	3.27636687662108E-17	-8.69487067346374E-18	0.280954998394937	-0.971531282643975	0.280954998394937	-0.971531282643975	5.82339634242994E-18	1.57735002608087E-18
58.8	-7.49871338033108E-18	1.6920087492648E-17	0.162880000929938	-1.01737332620417	0.162880000929938	-1.01737332620417	-3.69988244511955E-18	2.01068914934744E-17
58.9	-5.08312211400719E-18	-9.00208342151219E-18	0.0388167647724944	-1.04900112669161	0.0388167647724947	-1.04900112669161	5.15375802428931E-18	8.04894253708781E-18
59	-1.88720596536337E-18	8.88381531847227E-20	-0.149550482211459	-1.01696685088696	-0.149550482211459	-1.01696685088696	-8.03072360746706E-18	1.93565109985717E-18
59.1	9.48955153025906E-19	-6.71769568664844E-18	-0.254223824171011	-0.989083500509634	-0.254223824171011	-0.989083500509635	7.05566796022013E-18	4.37689297680224E-18
59.2	8.94365920399109E-18	1.15956245543619E-17	-0.390899376824399	-0.983449388326322	-0.390899376824398	-0.983449388326321	6.7215009797941E-18	1.41945848049052E-17
59.3	-8.6720067833198E-18	1.06492752509715E-17	-0.551923957023794	-0.862613193374936	-0.551923957023794	-0.862613193374936	-1.81381511991303E-17	2.19338522442441E-17
59.4	-3.80884026750618E-18	-2.18116164722662E-17	-0.628953498239141	-0.812870077770982	-0.628953498239141	-0.812870077770981	-1.32371129715812E-17	-1.10051716793789E-17
59.5	-7.8604847570986E-19	2.19652718849316E-18	-0.766083246986381	-0.710988911258362	-0.766083246986381	-0.710988911258361	1.85796390044919E-17	-5.66357415045063E-18
59.6	-3.35230269191819E-18	-1.13167892102461E-18	-0.843063201022988	-0.577778591573814	-0.843063201022987	-0.577778591573815	-3.37996206644357E-18	1.30772982733682E-18
59.7	-5.16380411258029E-18	-1.48432141393867E-17	-0.925669109981256	-0.482993458198821	-0.925669109981256	-0.482993458198822	5.42906843100464E-18	-3.78608979547393E-18
59.8	-4.46738023852766E-18	2.57797216275022E-18	-0.992953464081766	-0.343945948893949	-0.992953464081766	-0.343945948893949	-2.71406919757437E-18	-2.7460737280674E-18
59.9	-2.21030818349926E-17	8.16249982647413E-18	-1.01763953821483	-0.215603114440011	-1.01763953821483	-0.215603114440012	2.38651554745996E-19	6.19260734017452E-19
60	-2.16154121876175E-17	1.10548894021619E-17	-1.03490937262051	-0.0486636783481169	-1.03490937262051	-0.0486636783481168	-1.7776673386588E-17	1.00139651896318E-17
60.1	4.53838820855742E-19	-1.48603758401557E-17	-1.02306222584341	0.0793523949556134	-1.02306222584341	0.0793523949556136	6.73906350375749E-18	1.72130054719905E-18
60.2	4.98617837122035E-18	2.11981765639927E-18	-1.03158595470872	0.200218950066222	-1.03158595470872	0.200218950066222	-9.25576656373543E-18	-2.46313630589364E-18
60.3	2.23918711790504E-17	-1.03901000261174E-17	-0.970017933884332	0.378550601711365	-0.970017933884332	0.378550601711365	1.44525869598451E-17	4.5897880247602E-18
60.4	1.01906980674814E-17	8.32475755818509E-19	-0.905252473800997	0.458490135855159	-0.905252473800997	0.458490135855158	3.79151841841926E-18	3.89073467824697E-18
60.5	2.99189650524612E-18	3.01365493935024E-18	-0.849922315535033	0.610252904197724	-0.849922315535033	0.610252904197725	-2.36060477721618E-18	9.22510395285155E-18
60.6	8.23448999301556E-18	3.25490666816638E-18	-0.753284951556817	0.713183273780882	-0.753284951556817	0.713183273780882	-3.20389900111693E-18	7.30254410477513E-18
60.7	-1.10034352997787E-17	-6.08420728559308E-18	-0.645850835277688	0.812635226360758	-0.645850835277688	0.812635226360758	-1.371422604826E-18	-5.91795260051278E-18
60.8	-1.89992982879483E-18	-5.44689959559352E-18	-0.533135267167563	0.899538865392093	-0.533135267167563	0.899538865392094	4.49272888536239E-18	-7.59415676579837E-18
60.9	-7.6344655472955E-18	-1.36668478868138E-17	-0.415578545587637	0.962126643873242	-0.415578545587637	0.962126643873242	-4.57175535196888E-18	-4.85527302273389E-18
61	-1.04821481712869E-17	-1.03163434781442E-17	-0.267072594734541	1.01040672221075	-0.267072594734541	1.01040672221075	-1.96578885716341E-18	1.06213482823648E-18
61.1	2.47593506104971E-17	-1.17616528076803E-17	-0.126770545666181	1.02139829879151	-0.12677054566618	1.02139829879151	6.22151801157734E-18	9.1490770362967E-18
61.2	-5.77179867285794E-18	2.10559879369178E-17	-0.0043131249678533	1.03699511629797	-0.00431312496785361	1.03699511629797	1.04809271097462E-17	-2.64968589374231E-17
61.3	-3.41157789003518E-18	-5.07211318060844E-18	0.142261844104195	1.04597550733732	0.142261844104195	1.04597550733732	4.95170585262766E-18	3.39160629216745E-18
61.4	-9.7908479889772E-18	2.23109776521431E-17	0.312627283055738	0.991889866111531	0.312627283055738	0.991889866111531	1.26811272319068E-17	-3.15011839559358E-18
61.5	-4.85962041016988E-18	-1.49691429176183E-17	0.392653903210046	0.941316962293195	0.392653903210046	0.941316962293196	-3.65049085118401E-19	-9.24938852079866E-18
61.6	1.49050207802787E-17	5.61676095593346E-18	0.551449996743919	0.913667241989464	0.551449996743919	0.913667241989465	6.1181833615698E-18	3.22210583841711E-18
61.7	1.56969969432984E-17	-6.3217244793751E-20	0.674999287459949	0.809999845688795	0.674999287459949	0.809999845688794	6.53252366487337E-18	-1.4242687490094E-17
61.8	-8.75065579170981E-18	6.86060955426501E-18	0.754362450838119	0.702501338721304	0.754362450838118	0.702501338721304	-1.19855088564101E-17	1.33280202167024E-17
61.9	-2.6743038343191E-18	-7.20663581228753E-18	0.850867112251628	0.591815906258554	0.850867112251628	0.591815906258553	5.7990387337653E-18	1.02708290890856E-17
62	-1.71376854062162E-17	-5.2641296944974E-18	0.922317418494529	0.497509093885253	0.922317418494529	0.497509093885253	-1.46808802294613E-17	2.80973085997336E-18
62.1	-2.03427443253418E-17	1.23856866766073E-17	0.999462708263516	0.358704292042564	0.999462708263516	0.358704292042564	6.45114684360071E-18	-2.44660436975344E-18
