# GHZ S RI R 50
50	-1.81502242176745E-17	3.28995670415385E-18	0.732659778986468	-0.503028694304716	0.732659778986468	-0.503028694304716	3.86847224462219E-19	1.61707039606994E-18
50.1	-1.24116839045796E-17	5.58645286521807E-18	0.616814219104405	-0.604938272959309	0.616814219104405	-0.60493827295931	6.66162660694762E-18	-9.58342882938664E-18
50.2	1.54678042125174E-17	9.12860515066989E-18	0.521884448758425	-0.691572200090997	0.521884448758425	-0.691572200090998	-3.21676638155885E-18	-6.5298804740976E-18
50.3	-8.64886403130728E-18	8.81569276861621E-18	0.412803157695942	-0.793435633090713	0.412803157695942	-0.793435633090713	-1.04846819694794E-17	4.3831339307129E-18
50.4	-1.62488212010686E-17	8.33198793809746E-18	0.233434463310589	-0.817078967973705	0.23343446331059	-0.817078967973705	-2.8948118868539E-18	1.29521474188895E-17
50.5	2.11556123241369E-18	-1.7639895686784E-17	0.135504620282893	-0.869066451738023	0.135504620282893	-0.869066451738024	2.22082383021276E-18	-9.15269160370483E-18
50.6	1.65081963081596E-17	1.20991944509923E-17	-0.0270497259934497	-0.868675188555138	-0.0270497259934499	-0.868675188555138	4.0761536208378E-19	6.5387356599967E-18
50.7	1.84352652807393E-17	-2.40804960758762E-17	-0.153631539301285	-0.847140727349928	-0.153631539301285	-0.847140727349928	-1.5048715543549E-18	3.31103141418974E-18
50.8	1.81538177028981E-17	4.40140084210757E-18	-0.306829304919752	-0.835192069395829	-0.306829304919752	-0.835192069395829	4.44542670256807E-18	5.23367434828022E-18
50.9	-1.73715648063066E-17	7.26461543307369E-18	-0.422525860010182	-0.738308083054686	-0.422525860010182	-0.738308083054686	-9.79540356552659E-18	1.17159073061675E-17
51	-3.28803622640768E-18	-2.31958648550008E-17	-0.552450148154808	-0.68118688557735	-0.552450148154808	-0.681186885577349	1.30562850759435E-18	2.75499079948997E-19
51.1	-2.98095106923823E-17	5.19460201488565E-18	-0.650614583486804	-0.577904108582697	-0.650614583486803	-0.577904108582697	-8.3961856428361E-19	4.06841786463817E-18
51.2	1.03237146220216E-17	3.6602357565539E-18	-0.729464636870534	-0.460451756212531	-0.729464636870534	-0.460451756212532	-3.38648882003719E-18	-4.10602688740286E-18
51.3	1.02802357335245E-17	6.40659183953426E-18	-0.798708331118969	-0.3387617873755	-0.798708331118969	-0.3387617873755	-5.50772838069487E-18	-1.93980941640572E-18
51.4	1.38811000577761E-17	-3.11948074640837E-18	-0.857137565185333	-0.225054341836263	-0.857137565185333	-0.225054341836263	8.8723863115319E-18	-3.59833218097829E-18
51.5	-8.66503318709024E-18	6.10620817693984E-18	-0.850977240027071	-0.050669443285216	-0.850977240027071	-0.0506694432852158	-8.20360527915301E-18	1.55249908194619E-17
51.6	-1.23666860451987E-17	-5.08261486620669E-18	-0.868201568299575	0.0535103264816839	-0.868201568299576	0.0535103264816837	-1.12170210538726E-17	-1.31602703107404E-17
51.7	7.27519307010703E-18	3.12020064660939E-19	-0.862853350001681	0.193682938399855	-0.862853350001681	0.193682938399855	-1.21800244781512E-17	-1.52497280526968E-17
51.8	3.01093490405516E-18	-2.75560796838661E-17	-0.762101012270088	0.328586418845179	-0.762101012270087	0.328586418845179	4.38980645918493E-18	-9.00100996229608E-18
51.9	1.21654168918481E-17	-2.08945399740305E-17	-0.772307076400455	0.444013537014336	-0.772307076400456	0.444013537014336	4.54747837553995E-18	-1.32826325138221E-17
52	2.21156120889475E-17	1.1883472986469E-18	-0.632108021351265	0.573866848732971	-0.632108021351265	0.573866848732971	6.96277069146352E-18	-6.31268868442166E-18
52.1	1.23061634805692E-17	1.81991127119869E-18	-0.540548932330189	0.649637351080019	-0.54054893233019	0.649637351080019	2.71003352509498E-17	-1.69796602233922E-17
52.2	3.2137648980305E-18	-2.97145078231823E-18	-0.458681185662575	0.729132018034017	-0.458681185662575	0.729132018034018	8.12024247403459E-18	-1.28247064497964E-17
52.3	-1.37650125095692E-17	2.31929609313331E-18	-0.342171686112399	0.791737872540021	-0.342171686112399	0.791737872540022	1.07282211044659E-17	-2.249686043002E-17
52.4	6.72669790797664E-18	1.7486481367551E-17	-0.201743496505076	0.867268656615469	-0.201743496505076	0.867268656615469	6.90334702008956E-17	2.16923848490554E-17
52.5	-7.72149175223917E-18	-2.77596822554269E-18	-0.0829645989954125	0.813662725910355	-0.0829645989954125	0.813662725910355	-1.08351668128079E-17	2.38325920334794E-17
52.6	6.61524495118432E-20	-8.18660308994956E-18	0.0332198952421509	0.884730288203658	0.033219895242151	0.884730288203658	-2.9167800560182E-17	1.10569110792504E-17
52.7	-1.52123666401335E-18	5.67238428619461E-18	0.231105264703065	0.862872915032817	0.231105264703065	0.862872915032817	-7.46866253011382E-18	2.02916634947091E-17
52.8	-1.60757558869516E-19	-1.52948300074136E-17	0.259475276908775	0.705085788965984	0.259475276908774	0.705085788965984	-1.11731412912838E-17	-2.52095881465237E-17
52.9	3.65810894821122E-18	5.36226137339484E-18	0.510887726225827	0.816853463340602	0.510887726225827	0.816853463340602	-2.70868039725748E-17	2.62154039481822E-17
53	-2.48391638020723E-17	-1.69474805165923E-17	0.522569427190549	0.619272576477308	0.522569427190549	0.619272576477308	1.11146633543431E-17	1.61225280672645E-17
53.1	-1.24059713096116E-17	1.23290807688164E-17	0.62709301905138	0.596810823132216	0.62709301905138	0.596810823132215	1.4141887217594E-17	2.27293660843191E-17
53.2	6.84306514184168E-18	7.72110729843249E-18	0.76484877417802	0.481608636930755	0.76484877417802	0.481608636930754	6.94930659771554E-18	1.38423921762312E-18
53.3	-7.63530671222548E-18	8.752568393338E-18	0.774590156648141	0.365834150771172	0.774590156648141	0.365834150771172	4.5029191324151E-18	9.48244102034473E-18
53.4	-1.68188165966034E-17	1.33439284429032E-17	0.812049869776841	0.180077060886028	0.81204986977684	0.180077060886028	-1.30520020447229E-17	-6.0881114250911E-18
53.5	1.68204368315999E-17	1.39142112151045E-17	0.874727184582895	0.150006598675822	0.874727184582894	0.150006598675822	5.7686596018609E-17	-2.38144280101728E-17
53.6	-2.04724336245863E-17	-3.29308790049491E-18	0.876362153101573	-0.0443439588741591	0.876362153101573	-0.0443439588741591	6.56774595717126E-18	3.82677178056872E-17
53.7	-9.43088181380869E-18	-2.93506140837363E-18	0.792179506252033	-0.19107956482664	0.792179506252033	-0.19107956482664	6.12084202574257E-18	2.01619381088795E-17
53.8	9.4601477292295E-18	-1.03608392735146E-17	0.894061096887802	-0.241636175007369	0.894061096887803	-0.24163617500737	-2.35638163352109E-17	6.85106711294837E-18
53.9	9.7298110989494E-18	-7.70086206439516E-18	0.76384173243612	-0.412969241297897	0.763841732436121	-0.412969241297897	-1.37693058988083E-17	1.93060703951066E-18
54	9.44650295964634E-18	1.08636018298625E-17	0.671874044815196	-0.519181282381858	0.671874044815196	-0.519181282381857	1.15747411997127E-17	-4.73747588601161E-18
54.1	1.33464357983441E-17	-1.11239773656941E-17	0.606651308079129	-0.582499090209361	0.606651308079129	-0.582499090209361	1.44825761811143E-17	-2.39721898351364E-17
54.2	-6.47957684530597E-18	-1.08381112264745E-17	0.523872334113215	-0.679388453628474	0.523872334113215	-0.679388453628474	1.29845057257925E-18	4.93928252426219E-18
54.3	1.05625312240891E-18	1.14659536442952E-17	0.369748537060586	-0.774382420084798	0.369748537060586	-0.774382420084798	2.72215026844354E-17	1.74167132082181E-17
54.4	3.26191265209425E-18	8.20270821039112E-20	0.321519555619902	-0.749429537464916	0.321519555619901	-0.749429537464915	2.59312470525462E-17	7.1800419610198E-18
54.5	2.37768163186773E-17	4.01198488429658E-19	0.143964054431279	-0.892774383806127	0.143964054431279	-0.892774383806127	1.69807009510375E-17	-3.3230557848544E-17
54.6	3.58547930515938E-18	1.34069689122523E-19	0.0155158430451692	-0.830182775412888	0.0155158430451692	-0.830182775412888	-1.01307793662397E-17	-1.7134445824778E-17
54.7	-3.87385276137416E-18	2.08142698317421E-18	-0.0804636504915584	-0.875299474445915	-0.0804636504915583	-0.875299474445915	-2.55311973407546E-19	4.13674129539058E-18
54.8	1.43655057185642E-17	1.48452685610575E-17	-0.23442264594222	-0.847453452038938	-0.23442264594222	-0.847453452038938	1.08052708369071E-17	7.59758947362903E-18
54.9	-2.65256510077869E-18	-1.39404169377615E-17	-0.355657052072086	-0.776666640268529	-0.355657052072087	-0.776666640268529	-9.84630599703497E-18	-1.18404200470159E-17
55	3.63744740757617E-18	-9.92058697551605E-18	-0.452468453434989	-0.742147559156034	-0.452468453434989	-0.742147559156034	5.17380894089944E-18	-1.57635528835254E-17
55.1	6.73943695813649E-18	-9.47756137116023E-18	-0.574519662161396	-0.66227176954678	-0.574519662161396	-0.66227176954678	4.24047355682326E-18	-1.08441667052751E-17
55.2	-2.04715769967447E-18	4.09080137945477E-18	-0.641028076265856	-0.566084136907625	-0.641028076265856	-0.566084136907625	-6.9226243329316E-18	-4.25124845010941E-18
55.3	1.59577429413698E-18	-6.69060926323829E-18	-0.739457230861318	-0.446324711065489	-0.739457230861317	-0.446324711065489	-1.2382394194045E-17	1.67584793142098E-17
55.4	-7.04032104028643E-18	7.45265038302657E-18	-0.785847346633835	-0.372498642072292	-0.785847346633835	-0.372498642072293	-1.94774815505327E-17	-1.01955325678771E-18
55.5	-3.19466432254843E-18	2.86284100193759E-18	-0.854763375722268	-0.226640519969845	-0.854763375722269	-0.226640519969845	-1.67181943607784E-18	1.38824887482262E-17
55.6	-6.68189974951832E-18	-8.37631678128021E-18	-0.850274883656238	-0.111120472429322	-0.850274883656238	-0.111120472429322	2.54394282118475E-18	-4.60311056632842E-18
55.7	5.82599286412995E-18	7.97713880359594E-18	-0.880007191862769	0.00638019770959081	-0.880007191862768	0.00638019770959101	-2.11978141414813E-18	-1.87797123453823E-17
55.8	-6.508645346872E-18	1.7210701171684E-17	-0.862629483904045	0.151219866013318	-0.862629483904045	0.151219866013318	-2.64042000790444E-20	1.55734066001665E-17
55.9	-1.84855525521344E-18	-3.26029880518257E-19	-0.834241572909276	0.263016178826084	-0.834241572909275	0.263016178826083	5.43804173774422E-18	1.23954510533537E-17
56	9.15285344055948E-18	3.60174169198442E-19	-0.762258192368372	0.388863035503463	-0.762258192368372	0.388863035503464	1.08494648085365E-17	1.10042760242744E-17
56.1	4.40204305597806E-19	-1.13348747798329E-17	-0.728584500521688	0.484252947619577	-0.728584500521688	0.484252947619578	2.49219537088499E-17	-1.0537079896189E-18
56.2	5.93507720342934E-18	6.01774464700037E-18	-0.654606687813987	0.596739933662497	-0.654606687813987	0.596739933662497	8.88530155936341E-18	-7.37793717390051E-18
56.3	7.97121415737377E-18	7.59586838586111E-18	-0.511354478705547	0.689072375905125	-0.511354478705547	0.689072375905125	-4.14981814863449E-18	3.92531550260277E-18
56.4	-8.58148231342773E-19	-1.00434968106405E-17	-0.463637054615367	0.746771557490111	-0.463637054615367	0.746771557490111	3.47501205696999E-17	3.73812324182162E-18
56.5	-2.74991268053967E-18	-5.08881360877053E-18	-0.336022934164063	0.826285269004977	-0.336022934164063	0.826285269004978	-1.51278285681754E-19	-1.17108149696897E-17
56.6	-1.68660220784531E-19	3.13369735373088E-18	-0.200415872503785	0.833406027764041	-0.200415872503785	0.833406027764041	-5.74736738197054E-18	5.65222057726476E-18
56.7	2.1573858188676E-17	-3.60656860089023E-18	-0.0885542472188033	0.866482070245376	-0.0885542472188038	0.866482070245377	7.73286979612277E-18	1.5972778820255E-18
56.8	1.51075374066554E-18	4.03623784266281E-18	0.0161326232333712	0.886210525946517	0.0161326232333712	0.886210525946517	-3.88743082886266E-18	5.59659392126173E-18
56.9	-3.64568210005131E-18	1.35465917669857E-18	0.152967875172183	0.850840791718948	0.152967875172183	0.850840791718948	1.22917054768525E-17	-4.1829543004439E-19
57	5.38824505543981E-18	3.52722215282876E-18	0.299180290579181	0.791456488817338	0.299180290579182	0.791456488817338	1.02449989492289E-17	-9.03676441092963E-18
57.1	-9.70738152004747E-19	1.44002117017184E-17	0.389776626557272	0.767166338250218	0.389776626557272	0.767166338250219	-3.90171469766957E-18	1.6236415052066E-17
57.2	-1.3599272092726E-17	-2.41238776212634E-18	0.49812024378475	0.729793402803303	0.49812024378475	0.729793402803303	-2.58831987998478E-17	-3.04878288713144E-17
57.3	1.57014945594679E-17	-3.01956352609475E-17	0.639491849934714	0.586015959379104	0.639491849934714	0.586015959379104	1.5765534648536E-17	-1.44797458370861E-17
57.4	8.19843691424961E-18	-9.10621279604608E-18	0.643866855735207	0.514127359448574	0.643866855735207	0.514127359448574	-1.30310333860943E-19	-5.74244760034172E-19
57.5	-1.60931892707736E-17	-7.00352766652879E-18	0.762724269348007	0.439905238848392	0.762724269348007	0.439905238848392	-5.70314779585219E-17	3.47430594731462E-18
57.6	1.16047638219231E-17	6.39511433925466E-18	0.822015033227208	0.302852446416342	0.822015033227207	0.302852446416342	1.9332788396744E-17	-6.26004494127946E-18
57.7	-1.09107006538365E-17	-3.63883567326947E-18	0.814216204122457	0.176434758834234	0.814216204122456	0.176434758834233	-1.34987950716792E-18	2.9146358554061E-17
57.8	-4.47172518738618E-18	5.75382994724061E-18	0.862663165979096	0.0852564970305859	0.862663165979096	0.0852564970305862	3.58238542098233E-18	8.6907833761065E-18
57.9	-5.00683775701816E-18	-1.92664365382473E-18	0.875790565021582	-0.0209081777528188	0.875790565021583	-0.0209081777528194	7.47050479529114E-18	-1.10195011323512E-17
58	9.18911510994929E-19	6.01112733175226E-18	0.832646741801372	-0.206364369974625	0.832646741801372	-0.206364369974625	4.38290578352795E-18	3.01674148368051E-17
58.1	-5.687410273525E-18	6.03076752094131E-18	0.775991793619178	-0.271355146315137	0.775991793619178	-0.271355146315137	-1.54732551258626E-17	1.27436240532071E-18
58.2	9.36762406571524E-18	2.11934402786196E-19	0.767636905895578	-0.39972471649361	0.767636905895578	-0.39972471649361	-8.62094861637249E-18	1.45845421319324E-17
58.3	1.1001617768576E-17	-1.29088766865745E-17	0.686497199544183	-0.519044956859094	0.686497199544183	-0.519044956859093	1.62779958277731E-17	1.79654728425175E-17
58.4	2.44362077371281E-18	-2.06455875318394E-18	0.594398167213148	-0.546516776325684	0.594398167213147	-0.546516776325684	7.33086232113842E-18	-6.19367625955183E-18
58.5	4.85561109006368E-18	4.48318396809807E-18	0.5586654974493	-0.670695654663046	0.5586654974493	-0.670695654663046	-3.64697902426359E-18	9.40555077002535E-18
58.6	-1.53826265431717E-17	-6.37857410823026E-18	0.425263630456101	-0.739170612896891	0.425263630456101	-0.739170612896892	-8.48391718720607E-18	-4.55252981223415E-18
58.7	-3.95555403456556E-18	9.13983060437636E-18	0.306793311190593	-0.760139496553764	0.306793311190593	-0.760139496553764	-5.27410323155587E-18	4.62986211428847E-18
58.8	-1.00966909468374E-17	-1.15461564851194E-17	0.2191830808876	-0.806823914315995	0.2191830808876	-0.806823914315994	-2.36358625470945E-18	2.83094496806586E-18
58.9	-9.85766964909413E-18	-1.09187323425698E-17	0.125745618196968	-0.843405854471652	0.125745618196968	-0.843405854471651	-2.05838736868012E-17	-1.68273395752057E-17
59	-2.1211750775279E-17	6.59001508563327E-18	-0.0343871683116083	-0.832602113655398	-0.0343871683116084	-0.832602113655398	-1.24396288011817E-17	-4.2588763327911E-18
59.1	-8.37288047360206E-18	6.11507045819423E-18	-0.115971337486866	-0.816945352153611	-0.115971337486866	-0.816945352153612	-9.32993076089847E-18	-3.70783640029555E-19
59.2	-5.52510495239574E-18	3.21206888345928E-18	-0.223410496838298	-0.828802438208418	-0.223410496838298	-0.828802438208418	1.93029748617842E-18	9.04245030710082E-18
59.3	8.82266597080607E-18	4.09473092327658E-18	-0.369215899095512	-0.740889365717707	-0.369215899095512	-0.740889365717707	8.11350942711331E-18	1.09575998611266E-17
59.4	9.04731101400798E-18	6.78693091513163E-18	-0.428130026309128	-0.709516079752192	-0.428130026309128	-0.709516079752191	-1.40247305965302E-18	3.30052003843055E-18
59.5	1.23615857676716E-17	9.26477105279481E-18	-0.550243104252214	-0.641351685526951	-0.550243104252213	-0.641351685526951	1.19140790174823E-17	4.02593376306045E-18
59.6	8.67018344829667E-18	-5.7164830193897E-18	-0.622572252781815	-0.538499306637897	-0.622572252781815	-0.538499306637897	8.62784981747519E-18	-6.00727014159653E-18
59.7	4.61943904381653E-18	-8.42715093755696E-18	-0.696013030052079	-0.474213383781349	-0.69601303005208	-0.47421338378135	2.24856801314529E-18	-3.52845051669804E-18
59.8	-2.11145384286223E-17	1.35323768229643E-17	-0.76344605217848	-0.369339326668647	-0.76344605217848	-0.369339326668646	-7.78536417398198E-18	-1.79362282516452E-18
59.9	3.45324446733549E-18	7.46094293079419E-18	-0.792217520761489	-0.270088457166063	-0.792217520761489	-0.270088457166063	7.01725999938745E-18	2.34416590321831E-18
60	-1.53316129195944E-17	1.5141835019535E-17	-0.82212699981423	-0.136041521424227	-0.82212699981423	-0.136041521424227	3.15384238153874E-18	-1.78979012544218E-18
60.1	8.29183313294959E-18	-4.75802127355825E-19	-0.822121693812795	-0.0347873997406526	-0.822121693812794	-0.0347873997406527	8.56021374181258E-18	-1.75454303690058E-17
60.2	-9.06677959364668E-18	-2.53288100478822E-18	-0.842286379848504	0.0558740088449091	-0.842286379848504	0.0558740088449091	5.88146971083316E-18	-2.6543104998612E-18
60.3	-5.75817949599077E-18	-7.90459919070845E-18	-0.80967240072968	0.208994542420426	-0.80967240072968	0.208994542420425	-9.60831715312066E-18	-1.2359449730334E-17
60.4	-1.03479912082922E-17	-1.44300002427547E-17	-0.762201943106297	0.272264009873087	-0.762201943106297	0.272264009873087	1.15958001920647E-18	5.19209594831398E-19
60.5	3.58066365029702E-18	-1.22190588689441E-17	-0.736980349088349	0.399882087995587	-0.736980349088349	0.399882087995587	5.11435994945138E-18	-1.12218504316532E-17
60.6	8.78903058904809E-18	7.80129246532081E-18	-0.669394707501907	0.489650980790081	-0.669394707501907	0.48965098079008	4.98483725838293E-18	-7.80605483563897E-18
60.7	-1.16182508562324E-18	-1.22425806668777E-18	-0.594126295797666	0.578784047587484	-0.594126295797665	0.578784047587485	0	0
60.8	-1.32339921748792E-17	8.91350202292856E-18	-0.514677592302963	0.658501106522154	-0.514677592302963	0.658501106522153	1.06507816948714E-17	2.65575500498822E-18
60.9	2.19389177369449E-18	9.85553803873619E-18	-0.429409086191274	0.718319993319931	-0.429409086191274	0.718319993319932	5.22375348670731E-18	2.01990780867522E-18
61	-8.16670276183247E-18	-7.18079247333014E-18	-0.31580073108843	0.771838172064889	-0.315800731088431	0.771838172064889	-5.83742656174415E-18	-9.12045032735286E-18
61.1	7.61318518800102E-18	-8.89579271501601E-18	-0.205678862045112	0.792214822024637	-0.205678862045112	0.792214822024638	-2.15005732928939E-17	-1.99539810102375E-18
61.2	-6.07265551995842E-18	-2.34404423235981E-18	-0.114092892433417	0.816353560102507	-0.114092892433417	0.816353560102507	-6.14970778668209E-18	4.37490082976253E-18
61.3	3.97471374734275E-18	6.44673943302207E-18	-0.000761123820872631	0.840876553105252	-0.000761123820872631	0.840876553105252	-6.74318302646741E-18	-1.66042387404902E-18
61.4	-4.44354539258656E-18	1.04559741437274E-17	0.14356251010716	0.814533020542508	0.14356251010716	0.814533020542509	-4.43392422213284E-18	1.12417055745382E-17
61.5	6.08693336169878E-18	1.0801154538312E-17	0.204566258441304	0.779671408987628	0.204566258441304	0.779671408987628	1.14115672446837E-17	8.77080900151563E-18
61.6	-2.44914285200973E-18	9.78917133489574E-18	0.333317368808963	0.781287555139921	0.333317368808963	0.781287555139921	-1.68019105332476E-19	-7.96349860891493E-18
61.7	7.85549482337817E-19	-4.35891280152537E-18	0.442812060666696	0.710873505530007	0.442812060666696	0.710873505530007	-1.55004741498952E-17	1.19754707265821E-18
61.8	-1.95632565824445E-17	9.1234578470476E-18	0.513407068210866	0.632509090172775	0.513407068210866	0.632509090172775	7.14380804345723E-19	7.79673574271222E-18
61.9	-2.50096982092159E-18	-2.14421114435407E-18	0.601176733045641	0.556775646543747	0.60117673304564	0.556775646543747	-5.43673927890986E-18	-9.94973659013785E-18
62	1.66554873780159E-17	9.90890214997229E-18	0.66481294932828	0.494276356593858	0.66481294932828	0.494276356593858	2.65885447807294E-17	2.74341054197083E-17
