# GHZ S RI R 50
50	1.33071111363149E-17	3.58093121620369E-18	0.741579149812721	-0.510460034444304	0.74157914981272	-0.510460034444304	6.78457156468647E-18	7.1087726436838E-18
50.1	3.47063935898553E-17	2.44171214052803E-17	0.623288548071279	-0.614479344377352	0.62328854807128	-0.614479344377352	-8.84520658677582E-18	1.44937538925517E-17
50.2	1.79508169168109E-17	2.11499470984961E-17	0.526153118710799	-0.701029808780962	0.526153118710799	-0.701029808780962	-6.63121777059291E-18	-8.48092123885937E-18
50.3	-9.43879000458109E-19	5.43592885779384E-18	0.416522212710075	-0.802687484232492	0.416522212710075	-0.802687484232492	7.30301911825962E-18	-6.87711942901856E-18
50.4	-2.45775480078241E-18	-8.28562950452223E-18	0.233534820525203	-0.828303125604623	0.233534820525203	-0.828303125604623	1.04223355882621E-17	-7.17555706722646E-18
50.5	-7.56359620190254E-18	-1.24328503534759E-17	0.135137037961494	-0.878020152569265	0.135137037961494	-0.878020152569265	8.23320874592731E-19	-2.61130481574427E-18
50.6	1.02917224352489E-17	1.33914815868238E-17	-0.0295297166494423	-0.8778622254736	-0.0295297166494421	-0.8778622254736	-4.00601470094304E-18	2.69815657061483E-19
50.7	-2.02982968195834E-17	-9.07714328728937E-18	-0.15767925243585	-0.854656222866382	-0.157679252435849	-0.854656222866382	-1.21295536881855E-17	-2.37949884483381E-18
50.8	-2.27628444938544E-17	-7.97609405041154E-19	-0.310870951038423	-0.842570486397411	-0.310870951038423	-0.84257048639741	-2.55330871590979E-17	2.18101110857574E-17
50.9	1.16615312088457E-17	1.55983380664751E-17	-0.429143883672867	-0.743585451632859	-0.429143883672867	-0.743585451632859	6.64271031006957E-18	3.83812618131666E-18
51	-2.79119478498332E-18	2.02186437491484E-17	-0.558696701473618	-0.68593506112923	-0.558696701473618	-0.68593506112923	-3.9887848865342E-18	-8.24157949432277E-19
51.1	1.67797057986322E-17	-5.77902078661548E-18	-0.657474872363467	-0.581073187486382	-0.657474872363467	-0.581073187486382	-8.2075976721452E-19	-6.62735525792314E-18
51.2	-3.19575212821372E-18	-2.46780727073817E-17	-0.736628723278959	-0.461964918784667	-0.736628723278959	-0.461964918784668	-6.32044046370228E-18	-1.00546810808893E-17
51.3	5.48031713518755E-18	2.28988616986977E-18	-0.805638121949831	-0.339203195787008	-0.805638121949831	-0.339203195787008	8.04807157994168E-18	-6.93659848040426E-18
51.4	-2.40749866412777E-18	-1.34793925054388E-18	-0.862898990408705	-0.225123126537616	-0.862898990408705	-0.225123126537616	1.25719267669109E-17	-7.98152432508822E-18
51.5	-7.24193067010551E-18	-3.01236725974775E-17	-0.857735751086818	-0.0480658200209701	-0.857735751086819	-0.0480658200209704	-6.440298039216E-18	5.71756449139913E-18
51.6	-6.8324838502977E-19	-1.83035012119514E-17	-0.872707151469016	0.0559171095944026	-0.872707151469016	0.0559171095944025	1.10778641880237E-18	-1.21805629600818E-17
51.7	-2.20100558466332E-17	1.35263711769848E-17	-0.86680956293372	0.196015326605215	-0.86680956293372	0.196015326605215	-5.72853550914802E-18	1.94254111289277E-17
51.8	-5.37860226558788E-18	-8.62442814430803E-19	-0.764895283297155	0.33417668210938	-0.764895283297155	0.334176682109381	-1.77365183604948E-18	-1.64240405839608E-18
51.9	-2.28341222945501E-17	-4.819058434036E-18	-0.774387919336692	0.446344230514022	-0.774387919336692	0.446344230514022	-1.65402970046552E-17	6.43451226242334E-18
52	-4.35970235668438E-19	-2.28608765712108E-18	-0.633747856969052	0.5792148280871	-0.633747856969052	0.579214828087101	-8.94054794093223E-18	-1.47678373464631E-17
52.1	-1.94599416651751E-17	-1.18388907825779E-17	-0.540383755719471	0.654439408805566	-0.540383755719471	0.654439408805566	-5.5686203874838E-17	8.18415029040075E-18
52.2	-4.34766563253641E-18	6.77333643344149E-19	-0.457951327745492	0.732275076294824	-0.457951327745492	0.732275076294824	1.43178606660556E-17	-2.67592622575293E-17
52.3	-7.29533716407E-19	-7.35133573569477E-18	-0.340880924620929	0.794231229704153	-0.340880924620929	0.794231229704152	-2.00122220802554E-17	-6.00881184168376E-18
52.4	7.8991482855393E-18	3.73650386242312E-17	-0.201455396233217	0.870012544473742	-0.201455396233217	0.870012544473742	3.92095895870135E-17	2.68881459490597E-17
52.5	3.04473185624559E-17	7.73003223916053E-18	-0.0788988909832678	0.814510807680187	-0.078898890983268	0.814510807680186	8.57355031142005E-18	-1.96293307642479E-17
52.6	1.98101117058136E-18	-8.34266523634093E-19	0.0340028142673503	0.884604819551716	0.0340028142673502	0.884604819551715	3.66507888648329E-17	1.55854104138522E-17
52.7	-1.16053072597544E-17	-6.14874963965421E-18	0.23245576992243	0.865151149194034	0.23245576992243	0.865151149194033	9.57199361610921E-18	-1.68056208142608E-17
52.8	1.73374266630398E-18	1.66810473407241E-17	0.26540809476968	0.701060713182038	0.26540809476968	0.701060713182038	2.10634237483004E-17	-5.60704410013163E-18
52.9	1.15754175248376E-17	2.11129182220415E-18	0.509484377514682	0.819831154195882	0.509484377514682	0.819831154195882	-3.00576390153656E-17	6.08646082874926E-17
53	-7.33114327364983E-18	-4.62810865167803E-18	0.525758059018751	0.616295397564666	0.525758059018751	0.616295397564666	3.80166222175421E-18	5.07366116097751E-18
53.1	2.07378941499383E-18	1.47929815613091E-17	0.626554103023653	0.59446958572211	0.626554103023653	0.594469585722111	-6.73209031021353E-18	-2.94500442226389E-17
53.2	-3.08552284843847E-18	-4.80541332613125E-18	0.764605297369563	0.481691269664597	0.764605297369562	0.481691269664597	8.83566846562918E-18	2.05296832378681E-18
53.3	1.12697094579246E-17	-2.96630868809818E-19	0.773299907661538	0.363351977685349	0.773299907661539	0.363351977685349	-7.65312971879806E-18	-5.28776008779591E-17
53.4	4.74741326486739E-18	1.2729006047338E-17	0.812978427164162	0.176860281059829	0.812978427164161	0.176860281059829	1.0613066739632E-17	1.14475756219172E-17
53.5	2.79018474975784E-18	-1.19378552969014E-17	0.870670040078802	0.149573569649362	0.870670040078802	0.149573569649362	-1.67654029487073E-17	-1.95792307378084E-17
53.6	-1.03160355556253E-17	3.74038370237645E-18	0.874680885962277	-0.0450239496365311	0.874680885962276	-0.0450239496365312	-1.53374210024415E-17	6.93423808076695E-18
53.7	-3.87634715738925E-18	2.5388972223466E-17	0.790259829246609	-0.194665247828407	0.790259829246609	-0.194665247828407	1.4874806297428E-17	1.1661596845747E-17
53.8	-4.73824518608774E-18	-1.41252595096998E-17	0.889268008816204	-0.237638106943355	0.889268008816204	-0.237638106943355	-1.71007516662694E-17	1.15383341330784E-17
53.9	2.40800822604895E-18	-1.08308550999778E-17	0.760691876616008	-0.412243096730189	0.760691876616007	-0.412243096730189	-7.23689764162162E-18	-3.16598589764759E-18
54	-5.56797585559567E-19	-7.83218490171646E-18	0.668310954694627	-0.51868869796011	0.668310954694626	-0.518688697960109	-7.52409529446457E-18	-6.4587002897588E-19
54.1	1.73074045088427E-17	-9.06236910093224E-18	0.601717303956606	-0.579978951058234	0.601717303956606	-0.579978951058234	3.73928620220086E-17	-2.77218489331516E-17
54.2	-2.04126173663194E-18	-1.51039709745458E-17	0.519933431796657	-0.675412543240681	0.519933431796657	-0.67541254324068	-7.45448941230082E-18	1.37056831375612E-17
54.3	-8.345194715626E-18	-2.83394250830183E-17	0.367170225019489	-0.771914204349239	0.367170225019489	-0.771914204349239	-6.3916074817997E-18	5.19852246454727E-18
54.4	1.59754053160602E-17	3.31471105577811E-19	0.316561856620928	-0.742372624269838	0.316561856620928	-0.742372624269838	1.79375640638018E-17	-1.72083276315306E-17
54.5	1.64480646078762E-17	-4.87612990966979E-18	0.144523701901061	-0.888423298164817	0.144523701901061	-0.888423298164817	8.44676771722146E-18	-3.10455339593037E-18
54.6	1.07715897561768E-17	-4.37531931298587E-18	0.0133600800112047	-0.824813016977641	0.0133600800112046	-0.824813016977641	-1.86482314399334E-17	-7.6908172543356E-18
54.7	2.49566780972999E-18	-1.65535488233884E-17	-0.0790146845138483	-0.868487623634058	-0.0790146845138481	-0.868487623634058	-4.8034488923066E-18	-1.52143217428743E-17
54.8	-1.21594437040167E-18	-1.62234655694869E-17	-0.232275360376246	-0.841797077930349	-0.232275360376246	-0.841797077930349	-1.361293281704E-17	4.27027452718239E-19
54.9	4.68578943387989E-18	2.92485726026753E-18	-0.353727042229707	-0.770883684134577	-0.353727042229707	-0.770883684134577	8.50429416575093E-18	1.30771137792923E-17
55	7.30278187118266E-18	1.39254525920461E-17	-0.448106192820844	-0.73605821963339	-0.448106192820844	-0.73605821963339	1.0697102956956E-17	1.85801652430597E-17
55.1	-1.77701100586727E-17	-9.08540102553382E-19	-0.569396761020564	-0.657525740554208	-0.569396761020563	-0.657525740554208	-2.59787349243266E-18	-3.75142375603525E-19
55.2	-5.7808886470076E-19	-2.1238093075086E-18	-0.634994573290745	-0.560842243031581	-0.634994573290745	-0.560842243031581	2.16351060349828E-18	-2.77881068202523E-18
55.3	9.79167068147133E-19	-7.71076420044606E-18	-0.73349143492448	-0.442863847532158	-0.733491434924481	-0.442863847532158	4.71498868177588E-18	7.59249451019608E-18
55.4	5.28441427300966E-19	-2.91408317944137E-18	-0.777194203514676	-0.369701152450579	-0.777194203514676	-0.369701152450578	-2.52525311833351E-18	-2.08682380344685E-18
55.5	1.42126908303813E-17	2.01983744475982E-18	-0.846905471535607	-0.226055253078295	-0.846905471535608	-0.226055253078296	-2.84933499858654E-17	2.28251841783664E-17
55.6	8.90916152347251E-18	2.0483962742787E-17	-0.841356381059086	-0.110515128739673	-0.841356381059085	-0.110515128739673	6.5119393534693E-18	9.49892650712574E-18
55.7	3.02540142580191E-18	6.54393716083871E-18	-0.870610728718905	0.00443972128219045	-0.870610728718905	0.0044397212821906	-2.84763831915231E-18	-5.2307913663237E-18
55.8	5.12224680778221E-20	1.17499109824096E-17	-0.854093646808683	0.148217026668956	-0.854093646808683	0.148217026668956	-3.59171608624397E-18	5.43879659744377E-18
55.9	-5.83234185744188E-18	-3.85090003363632E-18	-0.825454891849774	0.258390347185668	-0.825454891849774	0.258390347185668	-6.68432234106968E-18	-3.01159044278231E-17
56	-5.49777028560523E-19	1.3429429470022E-17	-0.754216766234691	0.384007933253801	-0.75421676623469	0.384007933253801	1.0048393423832E-17	7.30979231428859E-18
56.1	-5.00967995982228E-18	3.49804648382806E-18	-0.720870824705047	0.476504069422185	-0.720870824705047	0.476504069422185	-1.20940690752409E-17	-7.96684995939975E-18
56.2	-2.29526824358597E-17	-1.42864005408996E-17	-0.648573321674997	0.587584568204202	-0.648573321674997	0.587584568204202	-1.58948068746672E-17	-2.82745202420703E-17
56.3	6.03424946774513E-19	6.34552855622726E-18	-0.506475217486018	0.6812502068675	-0.506475217486018	0.681250206867501	5.52807448897972E-18	2.70560807283138E-17
56.4	-2.34631949147097E-18	1.14194161392906E-18	-0.459881183330609	0.735277473956347	-0.459881183330609	0.735277473956348	-2.11168754232388E-17	1.02774745253615E-17
56.5	-6.91238275088527E-18	-1.62698003081911E-18	-0.334842527558558	0.814924922123834	-0.334842527558557	0.814924922123834	-9.70527813140278E-18	-3.23181485666669E-17
56.6	-4.84051224662812E-18	-1.44628145256333E-18	-0.199308648631845	0.822113086570604	-0.199308648631846	0.822113086570603	-2.98289391888174E-17	-1.25734994162509E-17
56.7	3.39792432798429E-18	-5.86629591982443E-19	-0.0898576135624678	0.854491847748869	-0.0898576135624676	0.854491847748868	1.09390589731692E-18	1.3325304160485E-17
56.8	-4.18918947732257E-18	-7.82846534783948E-18	0.0120982968362455	0.873411124920663	0.0120982968362456	0.873411124920664	1.67600399311568E-17	-1.63534879309661E-17
56.9	7.31744354871352E-18	5.3705883420738E-18	0.148162157285856	0.838840565674559	0.148162157285856	0.838840565674559	7.51365313909825E-19	-1.61376177252467E-18
57	1.18113933542625E-17	-8.75338085992976E-18	0.294039899715161	0.78110539587593	0.294039899715161	0.78110539587593	-1.13790227382544E-17	-9.30729367365244E-18
57.1	-5.64395183617041E-19	-9.71538580515946E-18	0.38159253223838	0.756750684610882	0.38159253223838	0.756750684610881	-2.87014676766444E-17	-4.29185545823983E-17
57.2	-4.03762086681636E-18	8.28174747278518E-18	0.487069998359934	0.720822849392663	0.487069998359935	0.720822849392663	2.1951255263226E-17	-5.32377288914796E-18
57.3	1.26239795886623E-18	2.28951924592244E-17	0.630401676259429	0.580221111278896	0.630401676259429	0.580221111278896	-9.31357038641596E-18	2.63290120004163E-17
57.4	1.29769229429601E-17	-3.32167533597329E-17	0.632087619328352	0.506358818493791	0.632087619328352	0.506358818493791	3.17168694054846E-19	-4.02966561351178E-17
57.5	-5.02991731266198E-18	1.55846422776868E-17	0.748959926412826	0.436499313976029	0.748959926412826	0.436499313976029	6.5683827336187E-19	4.08297822256305E-17
57.6	1.67670618336753E-17	-2.57900279413674E-18	0.808823981773108	0.30153127479336	0.808823981773108	0.30153127479336	3.73176295564073E-18	-3.09655375760298E-17
57.7	3.53353424787672E-18	-3.50754084364397E-18	0.800758493668384	0.174999689157178	0.800758493668384	0.174999689157179	-6.94566874074535E-18	-1.28058489237447E-17
57.8	-4.9617806032434E-18	2.18334691198871E-18	0.847864887349607	0.0875181238558171	0.847864887349606	0.0875181238558169	1.67577792889857E-17	6.07175790317402E-18
57.9	1.4765542589923E-17	-1.58138616584969E-17	0.860497810239178	-0.0158750219031512	0.860497810239178	-0.0158750219031509	2.760928091971E-17	-1.83773462223528E-17
58	-2.31166061828242E-18	2.6006266565014E-18	0.820781273593676	-0.200935723443276	0.820781273593676	-0.200935723443276	-6.48578576425451E-18	2.24071377883283E-17
58.1	4.05971984714665E-18	-3.27178830413899E-19	0.762307082198058	-0.264700291499001	0.762307082198058	-0.264700291499001	2.3167475746064E-17	-8.93917597478891E-18
58.2	-4.23418251541171E-18	-9.18791722688267E-18	0.756152894715333	-0.389336959616828	0.756152894715334	-0.389336959616829	1.31857079070206E-18	1.32735139355235E-17
58.3	1.05380244408466E-17	8.25150863495891E-18	0.6771069191546	-0.507829048334582	0.677106919154601	-0.507829048334582	-4.07602705707589E-18	-3.77779751932254E-18
58.4	-2.35389412902442E-18	1.97044434652055E-18	0.583484813404995	-0.534035195423551	0.583484813404995	-0.534035195423552	-1.29730154266349E-17	-1.15034934751161E-18
58.5	1.35765877033534E-17	-3.6151368134098E-18	0.552044548188935	-0.654601291150844	0.552044548188935	-0.654601291150844	1.86348730629616E-18	-4.19059540278034E-18
58.6	-2.73991331658162E-19	-2.01245910599242E-17	0.420613388651873	-0.723653273089102	0.420613388651873	-0.723653273089102	-5.74130867885913E-18	9.56434895543428E-18
58.7	-3.61594503633674E-17	-1.02399155663495E-17	0.302836545120806	-0.744199723211059	0.302836545120806	-0.744199723211059	-1.77213610020993E-17	7.74406707115315E-18
58.8	1.37508606469731E-17	-1.61721929931461E-17	0.218230229984014	-0.789280381578601	0.218230229984014	-0.789280381578601	4.19554233305424E-18	6.57972865900633E-18
58.9	-1.34733823280661E-17	-2.14107401318494E-17	0.128135973056857	-0.824729951009546	0.128135973056857	-0.824729951009546	1.14659249952981E-17	-1.41036418315174E-17
59	2.05944161738188E-17	-3.86060562964503E-18	-0.0304751376335298	-0.816090672909261	-0.0304751376335298	-0.816090672909262	-1.94072442556607E-18	5.07589061927154E-18
59.1	-7.77226860533707E-18	1.62402784888847E-17	-0.109570641020624	-0.79930976988188	-0.109570641020624	-0.799309769881881	-8.17607130058528E-18	1.8990969013448E-17
59.2	7.07361324590382E-19	1.88098280937089E-18	-0.212690017261518	-0.812013409481743	-0.212690017261518	-0.812013409481743	-6.10037567860313E-18	-5.85950433430806E-18
59.3	-5.82224869964269E-19	-1.77243267600842E-19	-0.358577991437798	-0.726925232000944	-0.358577991437798	-0.726925232000945	1.87011810320801E-18	-4.31099120621284E-18
59.4	-7.34264819029425E-18	-4.6272713740991E-18	-0.41391898016059	-0.695279991594328	-0.413918980160589	-0.695279991594327	-7.53067666425322E-18	-2.79120171754398E-18
59.5	-3.45549871306277E-18	6.3299400387493E-18	-0.534201492231496	-0.630477510774641	-0.534201492231496	-0.630477510774641	1.13933941370771E-17	3.69793198514737E-18
59.6	-6.03294870265069E-19	-4.45011861899439E-18	-0.605863113080681	-0.529269456986103	-0.605863113080681	-0.529269456986103	-4.65770596834538E-18	7.42929651632292E-18
59.7	3.04350624633225E-18	8.88894511412629E-18	-0.676675862508942	-0.467760459097805	-0.676675862508942	-0.467760459097805	-1.28429216651165E-19	3.81291568180712E-18
59.8	-5.70102163991903E-18	1.37998934613308E-18	-0.743407036316345	-0.36604523088773	-0.743407036316346	-0.36604523088773	3.70408667937418E-18	1.06757754308716E-17
59.9	6.2710510318948E-18	-1.53371157007018E-17	-0.771147132690451	-0.268986363953763	-0.77114713269045	-0.268986363953763	1.02540264867323E-17	-3.5219744485935E-19
60	4.64643541066549E-18	4.08319752714642E-18	-0.801961825180957	-0.137852470362649	-0.801961825180956	-0.137852470362648	5.13797584575342E-18	-7.62388621397431E-18
60.1	-7.68712190805601E-18	-7.48446936238762E-18	-0.801505593889774	-0.0390242992853517	-0.801505593889774	-0.0390242992853515	-1.18086238661077E-17	-1.12538335524421E-17
60.2	-7.43574908265789E-18	1.74083550170697E-17	-0.821280534806497	0.0474681386030206	-0.821280534806496	0.0474681386030205	-1.34950238939162E-17	1.10200119824759E-17
60.3	-1.9202956159151E-17	-2.1175042227994E-17	-0.791618310956413	0.198602975696288	-0.791618310956413	0.198602975696288	-3.33685735595803E-18	-3.78383822689882E-18
60.4	5.7868081067285E-18	-4.81847327727063E-18	-0.743351289937302	0.259620878456873	-0.743351289937302	0.259620878456873	1.02529605927797E-17	-2.65957171084284E-18
60.5	-3.96326264404309E-18	2.24610913846493E-17	-0.721264107338767	0.38375056462548	-0.721264107338767	0.38375056462548	-2.0467195809086E-18	-8.35984211737514E-18
60.6	1.46419283435961E-17	1.32650186624748E-17	-0.655580567882702	0.471551226977715	-0.655580567882702	0.471551226977715	8.59075245164428E-18	-2.48758271260038E-18
60.7	2.26063359196965E-18	9.55924694851794E-20	-0.58297435853059	0.558843850522817	-0.58297435853059	0.558843850522817	1.76716954609113E-18	-1.62378084186336E-18
60.8	-5.91502283294361E-19	-1.34183436043917E-17	-0.506562083882673	0.636758607380779	-0.506562083882673	0.636758607380779	4.49803052279655E-18	-6.04728579096342E-18
60.9	5.88533207630207E-18	-5.53011198450693E-18	-0.424192401303443	0.694969178327677	-0.424192401303444	0.694969178327677	3.87122736070249E-18	1.24274862827392E-18
61	-1.09158733773662E-17	1.11406454998543E-18	-0.313906157936546	0.748346610414085	-0.313906157936547	0.748346610414086	-9.30754364187789E-18	1.93630446706898E-18
61.1	2.87101598587578E-19	-2.68919260444739E-18	-0.20632708868308	0.768510629485134	-0.206327088683081	0.768510629485135	7.09024326179263E-18	-7.31844959173859E-18
61.2	5.28783058631253E-18	7.43070685506124E-18	-0.118314586339364	0.791895912954742	-0.118314586339364	0.791895912954743	1.42570157644002E-18	-2.76225977954291E-18
61.3	-1.66899474567858E-17	-5.0115340644753E-18	-0.00920960415050221	0.817166498476813	-0.00920960415050234	0.817166498476813	-1.52291001859328E-17	-5.55801304593811E-18
61.4	-2.98812043158207E-17	-5.73635246082177E-18	0.132839954689512	0.79343666033447	0.132839954689512	0.79343666033447	-2.62802531556518E-17	8.1630586840128E-18
61.5	-6.52553483425811E-18	1.91573062444939E-17	0.191103890095833	0.757715957948547	0.191103890095833	0.757715957948547	2.7270349041864E-18	3.94555052759555E-18
61.6	-5.03680680676596E-18	1.50241174192403E-17	0.31510934811635	0.76259805818378	0.31510934811635	0.762598058183781	-1.2945450158639E-20	7.51637385967302E-18
61.7	2.16187261337208E-18	1.08147625788917E-17	0.422946559214755	0.695015053102741	0.422946559214755	0.69501505310274	-1.01826778520549E-17	1.21851794057099E-17
61.8	1.29871928445699E-17	6.33192825404174E-18	0.491876141092494	0.618339954795581	0.491876141092494	0.618339954795581	-2.41549395064232E-18	1.52804544723916E-17
61.9	2.49869952392459E-18	5.3480743178514E-18	0.577763145626432	0.545969437488001	0.577763145626432	0.545969437488001	-7.95234836349613E-20	1.79828739022943E-17
62	-9.70367287209806E-18	2.67443629905882E-18	0.638751447999954	0.486520885694804	0.638751447999954	0.486520885694804	2.34360991190817E-17	1.55823984039325E-17
