# GHZ S RI R 50
50	7.28774464021152E-18	-3.42941496542132E-19	0.740608158452138	-0.517237331799518	0.740608158452137	-0.517237331799518	-3.47774210818064E-18	2.32395534962115E-19
50.1	-2.04228710798402E-17	-2.16112249292367E-17	0.624061362722624	-0.6188745760984	0.624061362722624	-0.6188745760984	2.75819428021739E-18	-9.35731747537469E-18
50.2	-2.46178490579773E-18	-3.50366431781253E-18	0.527648144799804	-0.708644326517753	0.527648144799804	-0.708644326517753	-2.7273262378964E-18	5.05634047764479E-18
50.3	3.45380247956434E-18	3.50957763138874E-18	0.413282707798444	-0.813113722297386	0.413282707798445	-0.813113722297386	4.17882523280238E-19	-4.32450766462614E-18
50.4	4.41592958031153E-18	2.02055284550265E-17	0.234212834544532	-0.833272517973212	0.234212834544533	-0.833272517973211	-2.65089352425266E-18	-3.1406581287714E-18
50.5	7.65361837516379E-18	1.10909921767599E-17	0.130844546545791	-0.889752299253597	0.130844546545791	-0.889752299253597	-9.00136482433929E-18	-4.17098328885967E-18
50.6	9.435871374003E-19	-5.55979697735272E-18	-0.03411722720057	-0.887287594871794	-0.0341172272005701	-0.887287594871794	1.16447258452206E-17	8.70563752386271E-18
50.7	-2.84186375214875E-18	-2.20678200103514E-17	-0.163541047194823	-0.866580597919393	-0.163541047194823	-0.866580597919394	-1.30548446751693E-17	3.66063726323834E-18
50.8	-1.88169691952372E-17	-2.56057700349684E-17	-0.322661715749525	-0.851526291243651	-0.322661715749524	-0.851526291243652	4.30895903589205E-18	-3.81299067512422E-18
50.9	-8.18163049738354E-18	-1.63395681234258E-18	-0.437804918142624	-0.75417463887387	-0.437804918142624	-0.754174638873871	-1.04727239653643E-17	-2.94230690578371E-18
51	-1.25865631435606E-17	-8.83876530323285E-18	-0.572849175846768	-0.693074292197199	-0.572849175846768	-0.6930742921972	-5.45248083436167E-18	6.09526835627319E-18
51.1	6.56078724102048E-18	7.13203484769219E-18	-0.67290023880182	-0.587147008118005	-0.67290023880182	-0.587147008118004	-9.10305006130441E-18	-1.55117708195516E-17
51.2	-6.70909952166079E-18	3.33418888469234E-18	-0.75322492041884	-0.466784700473426	-0.75322492041884	-0.466784700473426	-4.85713324178452E-18	-6.71280149914044E-18
51.3	1.00003694964645E-17	1.20670226743752E-18	-0.824108282782439	-0.340745433975386	-0.82410828278244	-0.340745433975386	2.93266413754657E-18	4.87376820611724E-18
51.4	-1.29690417535499E-18	-1.21488016544713E-17	-0.885221300622497	-0.221254988649993	-0.885221300622497	-0.221254988649993	-6.57627614526857E-18	-2.32929559031953E-19
51.5	1.23902420273467E-18	9.67160168128964E-19	-0.875371730177673	-0.0456432688011791	-0.875371730177673	-0.0456432688011796	3.39222810216653E-18	1.24161358492094E-17
51.6	2.32080577758365E-17	2.34673121390684E-17	-0.895511793916106	0.0649562587406346	-0.895511793916105	0.0649562587406344	8.41826909111346E-18	-4.05422238544768E-18
51.7	-1.96454136542223E-18	-7.10821786162961E-18	-0.888306931773326	0.21129247357581	-0.888306931773327	0.211292473575811	-6.7485461118958E-18	-1.11749584908086E-17
51.8	1.31796086684046E-17	7.80708381125649E-18	-0.785213402345058	0.344257100065514	-0.785213402345058	0.344257100065514	4.85238334815078E-17	1.69615273213434E-17
51.9	1.42743827575981E-17	1.56272002665255E-18	-0.792954077169043	0.471498561552498	-0.792954077169043	0.471498561552498	-1.10822680600961E-17	-4.34369343635853E-18
52	-1.70999258716535E-18	-1.26422508557626E-17	-0.647308979127154	0.598393676197801	-0.647308979127155	0.598393676197801	-3.76114426490522E-17	-2.03677924365679E-17
52.1	-2.95899417971817E-18	-7.87299133787118E-18	-0.553707500137112	0.677800819097799	-0.553707500137112	0.677800819097799	-1.32860561048237E-17	1.3489430967179E-18
52.2	1.99408278403145E-17	1.00712445561689E-17	-0.466980373007799	0.762721735034605	-0.466980373007799	0.762721735034604	1.79588037317117E-17	-2.27992679523994E-17
52.3	5.4392170048145E-19	-1.03487218256668E-17	-0.345110972831084	0.827399466992891	-0.345110972831084	0.827399466992891	7.73113283264106E-18	3.15852291056065E-17
52.4	3.48735160863873E-18	-4.09877080515254E-18	-0.195458456302325	0.902251113278798	-0.195458456302325	0.902251113278797	-8.93158610853825E-18	-8.93243976457978E-18
52.5	1.41461967085262E-17	8.30961727505976E-20	-0.0791959315654391	0.850365546092604	-0.0791959315654389	0.850365546092603	-2.31676948929193E-17	1.36710750335926E-17
52.6	1.00397560871016E-17	1.00588414457129E-17	0.0506358138602416	0.922178606761977	0.050635813860242	0.922178606761977	1.56798829867585E-17	7.20463809650834E-18
52.7	-2.26415764116963E-18	-6.47858739443684E-18	0.25373633836545	0.890970478613365	0.25373633836545	0.890970478613365	-2.44500443684936E-17	3.96770404096353E-17
52.8	2.88340070664325E-17	-4.73014770673422E-18	0.274691525647861	0.741693546798779	0.274691525647861	0.74169354679878	4.23350492636838E-18	-5.06452009895631E-18
52.9	1.5107077282974E-17	3.28579804197804E-17	0.549823341872667	0.834157131181012	0.549823341872666	0.834157131181012	3.1919974981716E-18	-2.50076753945264E-17
53	-1.05203001653719E-17	1.10115982696694E-17	0.552454784715773	0.643432797677053	0.552454784715773	0.643432797677053	2.14569855239153E-17	2.4740427522441E-17
53.1	-2.03598636866907E-17	-2.01630776587137E-17	0.668480475800665	0.614354838285203	0.668480475800665	0.614354838285203	-3.29316129392555E-17	1.78516770942131E-17
53.2	-2.66474818410306E-17	-3.38896202231851E-17	0.807718475981817	0.486543483299802	0.807718475981816	0.486543483299802	-4.09824925362744E-17	1.81849189186234E-17
53.3	1.42625012767843E-17	2.39992619628401E-18	0.819529757570228	0.370423188440641	0.819529757570228	0.370423188440641	1.6094678760699E-17	-2.95125545569942E-18
53.4	-1.19514448609189E-17	7.6318927289296E-18	0.850722522314567	0.178877262434572	0.850722522314567	0.178877262434572	-1.65595984849625E-17	-1.44472211677306E-17
53.5	-2.85186414063007E-18	-1.67003454577618E-17	0.92451750443465	0.137133546524579	0.92451750443465	0.13713354652458	-6.39664314970877E-17	9.89210028974117E-18
53.6	7.34792938048793E-18	4.90071891508809E-18	0.917387673297445	-0.0636040974793007	0.917387673297445	-0.0636040974793007	5.47850010401112E-18	-2.44614571140717E-17
53.7	-1.93638946873296E-19	2.98423055718315E-18	0.829021225028438	-0.208949718230969	0.829021225028438	-0.208949718230969	-1.12757102857061E-17	3.05495038009676E-17
53.8	6.70051024197738E-18	1.00999353185479E-17	0.935864163349961	-0.282207744314277	0.93586416334996	-0.282207744314277	-1.28417754938594E-17	-1.33604469087279E-17
53.9	6.4548491524389E-18	8.94044094337347E-18	0.795053830990958	-0.45006939833318	0.795053830990958	-0.450069398333181	4.46823180686148E-18	9.43676383563028E-18
54	8.79817104155168E-19	1.19244815722829E-17	0.698039546462988	-0.558848944706472	0.698039546462988	-0.558848944706471	2.64860726381293E-17	-4.01126027702425E-18
54.1	-7.59909464820793E-18	1.30530244739709E-17	0.630507930395326	-0.628989518190517	0.630507930395326	-0.628989518190517	-3.30586513169402E-17	1.50555347263011E-17
54.2	1.4455530371897E-17	-8.96906955290038E-18	0.539065321816003	-0.73113097597904	0.539065321816003	-0.731130975979041	2.07066370438783E-17	-1.53989089999177E-17
54.3	-3.39867246199859E-18	-1.73911283276975E-18	0.37420004183387	-0.823001993189777	0.374200041833869	-0.823001993189777	2.90992495982476E-18	1.62772352238055E-17
54.4	-1.02003867375007E-17	2.96045413845497E-18	0.32695255296095	-0.807798127498317	0.32695255296095	-0.807798127498317	1.15802420142624E-18	1.39563108662122E-17
54.5	9.94916624585973E-18	-5.23862691728514E-19	0.12785238786429	-0.944320457251401	0.12785238786429	-0.944320457251401	-9.11140842879231E-18	-2.51327345120226E-18
54.6	3.15897033844171E-17	1.07945508018427E-17	0.000506951533289734	-0.880458580096846	0.000506951533290034	-0.880458580096845	3.90138122680526E-17	-1.34027897334108E-17
54.7	-1.71871507681202E-17	-3.63951823668924E-18	-0.10974107552322	-0.926704113125521	-0.10974107552322	-0.926704113125521	-3.30492434055152E-18	7.93876730495885E-19
54.8	-2.4827432935008E-18	1.25334920521647E-17	-0.270805591711317	-0.891454726189774	-0.270805591711317	-0.891454726189774	-7.08434582519425E-18	8.36564266683156E-18
54.9	-2.66539595143742E-18	5.17941601527582E-18	-0.395560709265559	-0.815547137152704	-0.395560709265558	-0.815547137152704	-2.23847609900642E-18	-1.76473023070812E-18
55	-5.60789098560023E-18	-7.41084493645864E-18	-0.501786127951194	-0.776746118919947	-0.501786127951194	-0.776746118919947	1.23823549232386E-17	-5.80676946366648E-18
55.1	1.12949616304576E-17	8.84725474738189E-18	-0.62855847835157	-0.687279756779388	-0.62855847835157	-0.687279756779388	2.00447307777283E-17	1.23680321208855E-17
55.2	6.91437423926778E-18	-8.54254640858106E-18	-0.698521621455539	-0.58608712366346	-0.69852162145554	-0.58608712366346	2.57326052191199E-17	1.30356129442636E-17
55.3	-1.74643677667112E-18	-1.51597521747379E-18	-0.797627912543183	-0.454905457054027	-0.797627912543183	-0.454905457054026	2.05682185324232E-18	-8.01415803330565E-18
55.4	-8.6464470341866E-18	-2.22101395810161E-18	-0.85050860587973	-0.373612621159789	-0.85050860587973	-0.373612621159789	5.78154971645997E-18	-1.14089163138606E-17
55.5	5.1621868033484E-18	3.42382792289127E-18	-0.91625570703745	-0.215153597825305	-0.91625570703745	-0.215153597825305	-2.23423531539851E-17	-3.38314343210435E-18
55.6	-2.25910923946341E-18	1.01808994549889E-18	-0.911772016409316	-0.0939667009586921	-0.911772016409315	-0.0939667009586923	-2.22344203303343E-17	-7.60959976820274E-18
55.7	-3.24357966294416E-18	7.94420425736271E-18	-0.939991868490819	0.0357419780103478	-0.939991868490818	0.035741978010348	8.45988210543382E-18	2.43458878789314E-18
55.8	1.88161717217748E-18	-9.07072891465196E-18	-0.916177616806872	0.188671615838612	-0.916177616806872	0.188671615838612	-2.69123281487828E-18	-4.94767964168841E-19
55.9	6.95159580013648E-18	2.45957202680294E-17	-0.883839191594994	0.308936852600171	-0.883839191594994	0.308936852600172	6.01502898474555E-18	1.85376216720078E-17
56	-7.87442526525837E-19	1.22482532179605E-18	-0.804152118028554	0.439011295632603	-0.804152118028554	0.439011295632604	6.47418634023589E-18	7.0011946251124E-19
56.1	4.83326977392016E-18	5.17362548377561E-20	-0.764423779013594	0.544772892873665	-0.764423779013594	0.544772892873665	-1.20055700525438E-17	-7.37924529797462E-18
56.2	-6.37385104911202E-18	4.53658282371122E-18	-0.679878984402401	0.663135241502099	-0.6798789844024	0.663135241502099	-6.02277118221519E-18	-9.5412721366182E-18
56.3	7.79745898723326E-18	9.61624063992828E-18	-0.526390864475441	0.752699348733895	-0.526390864475441	0.752699348733895	2.19376767275247E-17	3.87285669077969E-17
56.4	7.48392715250935E-18	2.80706707456178E-18	-0.470287990946628	0.820274326359426	-0.470287990946628	0.820274326359426	1.69417227553013E-17	-1.71066441577895E-17
56.5	-4.38562300829193E-18	1.49414540990331E-18	-0.32910332477504	0.898765575785219	-0.32910332477504	0.898765575785219	-7.55785801220785E-18	4.01450722049778E-18
56.6	-1.25742251605632E-17	-6.24894889708484E-18	-0.18715691520159	0.903231424352511	-0.18715691520159	0.903231424352511	-4.16077020626011E-18	-2.75364954143926E-17
56.7	-1.37163443096153E-18	4.4330241624375E-18	-0.0632188664587955	0.935700854304883	-0.0632188664587952	0.935700854304883	8.09983469490071E-18	-1.42978737493264E-17
56.8	7.01461648791486E-18	5.58769257689824E-18	0.0538633027191523	0.954459703660985	0.053863302719152	0.954459703660986	-2.81675664151198E-18	-2.83997867680487E-17
56.9	8.88060324351774E-18	-2.37448928080073E-18	0.197497357727218	0.912233791102673	0.197497357727218	0.912233791102673	2.12010125802994E-17	-6.31165011081242E-18
57	2.55320073791126E-19	-2.55016772448017E-19	0.348830006003216	0.842858458076679	0.348830006003216	0.842858458076679	4.69522030593736E-17	-2.01344366139053E-18
57.1	3.3296452721997E-18	1.44842913554298E-17	0.450631329618272	0.813860992258802	0.450631329618272	0.813860992258801	-1.22844665939269E-17	3.65911637278657E-17
57.2	6.39977807882639E-18	-1.29506782028993E-17	0.569364888089931	0.767135263828532	0.569364888089931	0.767135263828532	1.00093525102243E-17	-2.79635188686303E-19
57.3	-1.83351797857812E-17	-2.47008729045211E-19	0.707168072937593	0.607289592791848	0.707168072937592	0.607289592791848	3.95460672803547E-17	-1.0619036519486E-17
57.4	8.7080653452088E-18	-2.438577428585E-17	0.71824823181124	0.535342442378131	0.71824823181124	0.535342442378132	2.26539885342568E-17	7.77178558763993E-18
57.5	-3.0743347012333E-18	5.9402895154473E-18	0.843191060513738	0.443021655845248	0.843191060513738	0.443021655845248	-2.03263405353077E-17	-1.7634792536846E-18
57.6	2.53239609304534E-17	-1.22744045428667E-17	0.89953341273957	0.293676422801694	0.89953341273957	0.293676422801694	7.18681382862603E-18	3.32859266037993E-18
57.7	-1.34745868716156E-19	-2.58083885392732E-17	0.88952094968378	0.161856742169952	0.88952094968378	0.161856742169953	-7.46338678988285E-18	-4.32423102713028E-18
57.8	-2.66937834397949E-17	-3.15369902937773E-18	0.939344092864882	0.0552964480769932	0.939344092864883	0.0552964480769932	-1.04973020028106E-17	-2.78683866545366E-18
57.9	-2.24047572824961E-17	-1.01991722026387E-17	0.950383856487383	-0.0633435954989415	0.950383856487384	-0.0633435954989415	4.62088168150668E-18	-1.29246233287784E-17
58	-5.68637962025934E-18	-8.78222458683123E-18	0.892417575607079	-0.255049952390771	0.892417575607078	-0.255049952390771	-9.11043631676847E-18	-2.02927680622679E-17
58.1	-1.70773911181953E-17	-5.15374295408391E-18	0.835751649090563	-0.326078002444877	0.835751649090564	-0.326078002444878	1.11636441183434E-17	1.8210765918673E-18
58.2	7.71047528091259E-18	2.94252721757427E-17	0.81630960945247	-0.468294414545816	0.816309609452471	-0.468294414545817	1.36675180767791E-17	4.35871600292631E-17
58.3	8.58668731369357E-18	2.64571960815953E-17	0.723106409680946	-0.592099131845674	0.723106409680947	-0.592099131845674	-5.81491453197707E-18	1.73770095726181E-17
58.4	2.58360064343857E-18	1.36357596861214E-17	0.629465605160541	-0.62311319607086	0.629465605160541	-0.62311319607086	1.63573904197385E-17	-2.55599462540285E-18
58.5	-1.49196635991085E-17	-7.39869341581992E-19	0.576047228893378	-0.758858702002872	0.576047228893379	-0.758858702002873	6.91318505681183E-18	1.3399165993455E-18
58.6	7.70824275638028E-18	-9.95062468826297E-18	0.4304685107085	-0.824862362708522	0.430468510708501	-0.824862362708522	7.78602986031897E-18	1.37940310351317E-17
58.7	8.49798267694727E-18	2.15535454044271E-17	0.304166404365504	-0.844960290608634	0.304166404365504	-0.844960290608635	1.22841070802368E-17	3.80616137423589E-18
58.8	-2.80503793501373E-18	-1.10404714988076E-17	0.202756112975313	-0.894235408818675	0.202756112975312	-0.894235408818674	-2.8883269672157E-20	-1.63039481327691E-18
58.9	4.97014132550163E-18	-9.06743020668909E-18	0.0948193434803081	-0.931393814058052	0.0948193434803083	-0.931393814058053	8.67193789798792E-18	-4.42505999926524E-18
59	1.73603664796861E-17	-1.41065742258883E-18	-0.0748938171294273	-0.910062398664221	-0.0748938171294269	-0.910062398664221	4.4038960283497E-17	1.35952104590207E-17
59.1	1.93681932962265E-18	-6.8987326369052E-18	-0.167100549597251	-0.893419503897806	-0.16710054959725	-0.893419503897806	8.22942941915365E-18	-1.04906784114449E-17
59.2	-4.163181634646E-18	3.48424001569919E-18	-0.290585138698611	-0.898571177256161	-0.290585138698611	-0.89857117725616	-3.44852576185416E-18	1.10793217170396E-17
59.3	2.43406548768258E-17	-1.30430993760135E-17	-0.439029906406382	-0.796199723463128	-0.439029906406382	-0.796199723463127	4.08277796745851E-18	-3.78252886412423E-18
59.4	4.94069236417743E-18	-8.18959995214096E-18	-0.509653301227482	-0.76067815308811	-0.509653301227482	-0.76067815308811	1.5837314052292E-18	3.7964389580627E-18
59.5	-1.37531513379379E-17	-9.26045973619384E-18	-0.638563050340371	-0.676723439396451	-0.638563050340371	-0.67672343939645	1.33599981699053E-18	2.89817047623744E-18
59.6	-1.39196958367309E-18	3.31451491973168E-19	-0.712712893392138	-0.562930628046164	-0.712712893392138	-0.562930628046164	2.28676192938642E-18	-2.75085735945596E-18
59.7	6.56924636616895E-18	2.0232688592601E-17	-0.793414765867873	-0.485082059277144	-0.793414765867874	-0.485082059277144	9.87509867072317E-18	1.51686952245981E-17
59.8	2.08966352553622E-17	3.02684356192205E-18	-0.861541831195492	-0.365136124023448	-0.861541831195492	-0.365136124023448	5.28162529191841E-18	5.45709389008334E-18
59.9	6.17700697037405E-18	-7.11910019826209E-18	-0.890934365869108	-0.254266966414387	-0.890934365869108	-0.254266966414387	-3.94797257760639E-18	-7.00071144010663E-19
60	5.4771895012619E-18	8.85183580464599E-18	-0.915047160724441	-0.106297862575008	-0.915047160724441	-0.106297862575008	-1.94174377279329E-18	1.46664899362463E-17
60.1	6.46103069348188E-18	-2.97990637044867E-18	-0.912614088962061	0.00634937313807901	-0.912614088962061	0.00634937313807899	-1.54309055128725E-17	-1.8570265144733E-17
60.2	-1.25467410951875E-17	-4.74698232939204E-18	-0.930195561968044	0.113129937160024	-0.930195561968043	0.113129937160023	1.79188555258136E-17	-5.01672841805593E-19
60.3	2.16072596591677E-18	5.7347749234543E-18	-0.883571875646402	0.275891118712879	-0.883571875646402	0.275891118712879	1.86583892404693E-17	6.06773493211669E-18
60.4	-2.60654829846427E-17	-2.38161037002053E-17	-0.833455731902592	0.347665036636316	-0.833455731902593	0.347665036636316	-1.00132938887911E-17	-1.95079635695045E-18
60.5	1.21077220519137E-17	2.74702786214123E-18	-0.793567526399561	0.488022380445715	-0.793567526399561	0.488022380445715	4.88564118846855E-18	-9.04151698596203E-19
60.6	1.95419595710956E-18	1.52662099072046E-18	-0.71461358990815	0.584571703683568	-0.71461358990815	0.584571703683567	1.61193416901932E-18	-7.97135226057804E-18
60.7	3.25435899361353E-18	3.44313994684164E-18	-0.625610965255712	0.679461304892156	-0.625610965255711	0.679461304892156	-3.65648929153563E-18	6.73481555069187E-19
60.8	1.12500020658517E-17	-4.77713603196679E-18	-0.531405198037736	0.764096537481453	-0.531405198037736	0.764096537481453	-9.91196367117922E-19	5.68295833173826E-19
60.9	-2.2159089928456E-18	1.59901670892598E-17	-0.432025176786054	0.82739924691824	-0.432025176786055	0.827399246918241	1.21364330470983E-17	-1.08584647451847E-18
61	1.13235274835296E-17	-3.52218899434742E-18	-0.302946910722199	0.879160848596631	-0.302946910722199	0.879160848596631	1.33004021766838E-17	-4.83256682033978E-18
61.1	-1.02740612727558E-18	-3.18632319322282E-18	-0.180316313030513	0.897106712269054	-0.180316313030513	0.897106712269055	-5.14156658284496E-18	9.95722796574247E-19
61.2	-4.95599773840774E-18	-6.41446170170041E-18	-0.0736911946542716	0.920224581132067	-0.0736911946542716	0.920224581132066	-7.15622914684292E-18	2.59019399725711E-18
61.3	7.95717470683067E-18	8.3082826887676E-18	0.0565334799334457	0.938629406426853	0.0565334799334455	0.938629406426854	2.39201830443383E-18	5.40817553993304E-18
61.4	1.63875907144992E-17	-5.67189239558005E-18	0.21133240412095	0.899309241183686	0.21133240412095	0.899309241183686	4.0909024061458E-18	-1.75367043549391E-17
61.5	-4.22729818306755E-18	-5.75730086396984E-18	0.282588686556157	0.862338659243441	0.282588686556157	0.862338659243441	-4.72256997330217E-18	8.09188650649579E-19
61.6	3.29560618055431E-18	2.193770843867E-17	0.428331263091634	0.848993336577625	0.428331263091634	0.848993336577626	-6.05868323388759E-18	8.20082725124789E-18
61.7	6.68767575842348E-19	-1.59212318934174E-17	0.544009023754112	0.764145938661339	0.544009023754112	0.764145938661339	1.20980583025147E-17	-2.32694848340945E-17
61.8	1.23563919485123E-17	-7.7142157411206E-18	0.619714277354904	0.675032500474347	0.619714277354904	0.675032500474346	-3.81478013730219E-18	1.86643080646961E-18
61.9	-1.0014212015466E-17	9.90594875576804E-18	0.712921050210146	0.583376584733701	0.712921050210146	0.5833765847337	-1.02098769256238E-17	1.49805724063145E-18
62	8.7450763111445E-18	1.02813451456875E-18	0.783633988221872	0.506388943336835	0.783633988221873	0.506388943336835	-3.61620789854757E-18	-2.51125377081433E-18
