# GHZ S RI R 50
50	7.17753200943301E-18	1.26299524905951E-17	0.779690146472529	-0.548083411364317	0.779690146472529	-0.548083411364316	-9.56945924481542E-18	1.58047955146329E-18
50.1	4.52638695429917E-18	1.86683089432441E-17	0.655515800181589	-0.657043750373242	0.655515800181589	-0.657043750373242	-1.56556456613192E-20	-6.72434857452659E-18
50.2	-1.75322848356101E-17	-1.57856727336412E-17	0.551453354454869	-0.750029053162513	0.551453354454869	-0.750029053162514	1.23765271534437E-17	-7.16645628892487E-19
50.3	8.7924995122267E-19	-1.54805460816144E-19	0.431489860542323	-0.856999886972508	0.431489860542323	-0.856999886972509	-1.43677494122594E-19	-2.875522028239E-18
50.4	-1.23811051711713E-17	2.80458844239302E-17	0.241282441668919	-0.881724238766729	0.241282441668919	-0.881724238766729	-6.80020071960853E-18	-1.41288454706259E-17
50.5	1.10805401325265E-18	-2.06367042175035E-17	0.132068593738533	-0.935683664439354	0.132068593738533	-0.935683664439353	-9.15743945639393E-18	3.81032526419762E-18
50.6	1.08964734910397E-17	2.82330940124496E-18	-0.0417954844818701	-0.93339313809252	-0.0417954844818701	-0.93339313809252	1.37295149360191E-18	-1.6436489748285E-18
50.7	-3.40676678606814E-18	2.31160627672363E-17	-0.178896773104274	-0.909032457135666	-0.178896773104273	-0.909032457135666	-2.75590644991866E-18	1.12842355757134E-18
50.8	-2.36021269279861E-17	-2.13934856969112E-17	-0.343312174696221	-0.892041614252413	-0.343312174696221	-0.892041614252414	-8.11806775725514E-18	5.19915701782475E-18
50.9	-3.83210681593707E-18	-2.09968700034683E-18	-0.467000557899383	-0.7883856313287	-0.467000557899383	-0.7883856313287	-6.75411187798505E-18	6.26442229830958E-18
51	-1.99586707638669E-17	-2.00158670683775E-17	-0.60581215044725	-0.723130944671161	-0.60581215044725	-0.723130944671162	-1.94882466540865E-17	-5.03589018565773E-18
51.1	-1.80557701594095E-17	2.74294416604267E-18	-0.710312768458061	-0.610555149770233	-0.710312768458061	-0.610555149770233	4.57157361007112E-19	3.00929502656824E-18
51.2	3.71668540007121E-18	2.29202382525852E-18	-0.793842497719111	-0.482903565879192	-0.793842497719111	-0.482903565879192	7.29139390790923E-18	-5.46201814552878E-18
51.3	-5.73821407992313E-18	-6.59626754946984E-18	-0.866385654881708	-0.350127431005268	-0.866385654881709	-0.350127431005268	6.3146442991952E-18	-6.53680115289329E-18
51.4	1.10031784465501E-17	-4.98294302159482E-18	-0.92699956312322	-0.224851071776694	-0.926999563123221	-0.224851071776694	9.0885179606083E-19	-5.7466286142824E-18
51.5	-4.44185119730355E-18	-3.96859131417933E-18	-0.918511613023975	-0.0393758067241162	-0.918511613023975	-0.0393758067241156	-4.31511110529795E-18	-2.68596612757253E-17
51.6	2.89097314986238E-17	2.19347774221391E-17	-0.934747066036052	0.0760440367842907	-0.934747066036052	0.0760440367842908	-1.17858815165489E-17	-1.16176106887466E-18
51.7	-7.97110982876341E-18	-1.18274333320703E-17	-0.925289139191631	0.227596863707399	-0.92528913919163	0.227596863707399	2.48651941999104E-18	5.80969161886231E-18
51.8	-5.17006216824739E-18	-1.84684223693908E-17	-0.817365426508937	0.370347197261488	-0.817365426508938	0.370347197261488	-1.13106189669599E-17	8.66029732138188E-18
51.9	-1.24058819720006E-17	-3.90120641317305E-18	-0.821659547220775	0.497192144219918	-0.821659547220774	0.497192144219918	2.03813740146426E-17	-1.82235809908653E-17
52	-1.04582566744957E-17	-1.05835381846114E-17	-0.670738892921118	0.632581801959879	-0.670738892921118	0.632581801959879	-4.82600973962231E-18	6.73355605232948E-18
52.1	1.93400271652242E-17	3.40243320539043E-18	-0.570043336037102	0.714140165632682	-0.570043336037101	0.714140165632682	2.58722066308238E-17	-1.03362348324064E-17
52.2	2.88278386639206E-18	-4.96180848928644E-18	-0.477881435174111	0.799053510456438	-0.477881435174111	0.799053510456437	-3.23041756424451E-17	-6.12181080920357E-18
52.3	1.3364680412587E-17	-1.48832711175061E-17	-0.349971737395622	0.864388667657134	-0.349971737395622	0.864388667657134	-1.46333772883653E-17	-4.77754534708909E-17
52.4	-1.41339628146479E-19	-1.97209613046549E-17	-0.196117887860214	0.940737563663056	-0.196117887860214	0.940737563663056	-1.77349118926513E-17	-2.3457935747094E-17
52.5	2.1999229883449E-17	9.6823058859279E-18	-0.0690932642696574	0.884944053218365	-0.0690932642696574	0.884944053218365	1.05107277289187E-17	-5.36908241934826E-17
52.6	1.34573005292067E-17	-1.37509184265394E-17	0.0611750903652188	0.95530492716335	0.0611750903652189	0.95530492716335	-2.7851403283541E-17	-4.20953401828839E-17
52.7	-3.2287662206376E-17	3.44616102834905E-18	0.271145667421044	0.925526424324209	0.271145667421044	0.925526424324208	3.18442761423365E-20	4.78913073959835E-17
52.8	-1.34095459783608E-17	6.19250907845126E-18	0.302175388354743	0.762772755466584	0.302175388354743	0.762772755466584	-3.07358346437481E-19	9.90348031055185E-18
52.9	2.34602348981077E-17	1.39597788392684E-17	0.573042747440695	0.8641505551713	0.573042747440695	0.864150555171299	2.13876234411572E-17	-3.14579882405099E-17
53	2.03769886767835E-17	-2.48976147941717E-19	0.584423712616681	0.659347931672874	0.584423712616681	0.659347931672873	-4.80854763706899E-18	-2.7541059222504E-17
53.1	1.75552866789017E-17	-8.41344913787503E-18	0.69830331500166	0.627610382621439	0.69830331500166	0.627610382621439	2.95975618869877E-18	-1.08546481776926E-18
53.2	2.02771156456742E-17	4.55844142131662E-17	0.841069156276574	0.497958227739843	0.841069156276574	0.497958227739843	6.49259536179391E-18	4.94480480878049E-18
53.3	-1.20015824106073E-17	8.01745801703337E-18	0.852041167255121	0.37298392460206	0.852041167255121	0.372983924602061	-1.52670551357632E-17	1.00112541144032E-17
53.4	1.53653791412878E-17	-1.51522927999306E-17	0.886816639720077	0.173998277948305	0.886816639720077	0.173998277948305	-3.18573685556224E-17	-3.44249472931376E-17
53.5	-1.43567681796169E-17	3.46885010571218E-18	0.954010450693685	0.132162750444163	0.954010450693685	0.132162750444163	-1.24539316757593E-17	1.15308620821315E-17
53.6	-1.49929874938423E-17	8.04047140676118E-19	0.948894895617111	-0.0753357061754788	0.948894895617111	-0.0753357061754786	-2.71978020098344E-17	2.90179001029381E-17
53.7	4.06300701204171E-18	-8.66563121727919E-18	0.857156854473427	-0.230117866744505	0.857156854473427	-0.230117866744505	1.318706076276E-17	-2.10523778512808E-18
53.8	6.66477380460083E-18	9.75300927186483E-18	0.959621748036225	-0.296565964986423	0.959621748036225	-0.296565964986424	6.54991144916172E-18	-2.14328610697669E-17
53.9	-1.19912852463737E-17	-2.10761744234919E-17	0.816172992648356	-0.473960236318325	0.816172992648356	-0.473960236318325	-1.51297550235651E-17	2.02773390070451E-17
54	-9.51271302952212E-18	2.2717979925576E-18	0.714143918628622	-0.586688599246338	0.714143918628623	-0.586688599246338	2.04441725534144E-18	4.93611509260669E-18
54.1	-2.17740116916726E-17	4.91609151973494E-18	0.640489554456382	-0.656481508415465	0.640489554456382	-0.656481508415465	-6.05106763274877E-18	-8.6088604646228E-18
54.2	9.26166142934578E-18	1.20833596978295E-17	0.545678994304912	-0.759160292317572	0.545678994304911	-0.759160292317572	2.43344142574549E-17	4.62086250738452E-17
54.3	-2.97588145095656E-17	-5.60747744589542E-18	0.376574897342987	-0.855000279118673	0.376574897342988	-0.855000279118673	8.15486627576458E-18	3.3584681489519E-17
54.4	-1.58155998051897E-17	-3.16285963004461E-18	0.321968553246394	-0.832825668810899	0.321968553246394	-0.832825668810899	1.99087696935548E-17	-1.36761140006717E-17
54.5	8.05778123148527E-18	8.99857586263124E-18	0.123729335647246	-0.974830718552069	0.123729335647246	-0.974830718552069	1.57001270537477E-18	7.32470430495075E-18
54.6	2.07779056292058E-17	2.27917457840314E-18	-0.0126160383313043	-0.907219053235863	-0.0126160383313044	-0.907219053235863	1.42748182394535E-18	-3.97095909991419E-20
54.7	-1.07914118546244E-17	2.83154209894974E-18	-0.122643683574888	-0.950647576878788	-0.122643683574888	-0.950647576878788	-7.95986975567465E-18	1.36229539535741E-17
54.8	8.35720752204388E-18	-1.95786876994158E-18	-0.288135284671157	-0.914224336658202	-0.288135284671157	-0.914224336658202	6.65938541008261E-18	1.17584908722834E-18
54.9	7.46527112204255E-18	-7.13533379927377E-18	-0.41754684463402	-0.834309442876362	-0.41754684463402	-0.834309442876362	1.51220394240802E-18	3.01873163386587E-18
55	-8.07021387352667E-19	3.90403987992575E-18	-0.524091962791132	-0.791655886665865	-0.524091962791132	-0.791655886665865	9.24755499156504E-18	2.22474637598911E-18
55.1	2.19609898188552E-19	8.47691022048662E-18	-0.653414224638767	-0.699386673154739	-0.653414224638767	-0.699386673154738	-3.11705699140032E-18	-1.00852024650661E-18
55.2	-1.2729728505574E-17	2.18362480992896E-18	-0.724182293919004	-0.592543011751418	-0.724182293919005	-0.592543011751419	-5.98438724007176E-18	-1.42863457206898E-17
55.3	3.45157096341267E-18	9.91954895200655E-18	-0.825502466930176	-0.458118515105197	-0.825502466930176	-0.458118515105196	-1.66478570495026E-17	1.12908652942826E-17
55.4	-2.21484667435615E-17	-3.7804215268829E-18	-0.875541725776347	-0.373047918869287	-0.875541725776347	-0.373047918869287	-1.22410259762289E-17	8.64345393826819E-19
55.5	1.1635955923549E-17	1.91189557047973E-18	-0.942882054525512	-0.211417958712675	-0.942882054525513	-0.211417958712676	1.86135391537223E-17	6.10227018112543E-18
55.6	-1.99661318207333E-18	-5.03607307810352E-18	-0.935695177252924	-0.0849814076968313	-0.935695177252924	-0.0849814076968313	-4.24292109877613E-18	-2.33390353069626E-18
55.7	-6.24210034125638E-18	-1.82101459437924E-18	-0.962234498236317	0.0465376200715415	-0.962234498236318	0.0465376200715419	1.96501294354515E-17	4.56473480536045E-18
55.8	-5.99879390959177E-18	7.99221784104511E-18	-0.937071246472401	0.203444438025881	-0.937071246472402	0.203444438025881	-1.40921599513011E-17	3.44676229086058E-17
55.9	1.22526829237982E-18	-1.01945147719155E-18	-0.901428943978119	0.325967880998583	-0.90142894397812	0.325967880998583	1.82826983981991E-18	1.09196899244493E-17
56	-9.91072025508881E-18	1.1869179520642E-17	-0.818498621592594	0.459968384506727	-0.818498621592594	0.459968384506726	1.02209178130324E-18	4.20266618795068E-18
56.1	1.73908732527774E-18	-2.79749668108382E-18	-0.775606564522861	0.565258067544291	-0.77560656452286	0.565258067544291	-1.05308563592924E-17	-4.03133606790431E-17
56.2	-6.14492967499883E-18	1.60393212338083E-18	-0.688579357408989	0.684951982615534	-0.688579357408989	0.684951982615534	1.5557283464053E-19	-2.94541763507569E-17
56.3	3.8357340105316E-18	-8.12185851563484E-18	-0.530406291215596	0.778357620110446	-0.530406291215596	0.778357620110447	2.73209826341394E-17	1.90270213031784E-17
56.4	7.87327068311394E-19	-1.18616276533521E-17	-0.471617334748526	0.842369919408583	-0.471617334748526	0.842369919408583	2.58262933167344E-17	-5.3764526757585E-17
56.5	3.13864894086824E-19	8.82392607000346E-18	-0.327855773489193	0.922029730955929	-0.327855773489193	0.922029730955929	6.59018138340489E-18	1.82176355802674E-17
56.6	7.1486457614663E-19	2.89381371951734E-19	-0.180233026746265	0.925562902590217	-0.180233026746265	0.925562902590217	8.57837491375956E-18	3.47257646342081E-18
56.7	7.13053345969379E-20	6.4156586230925E-18	-0.0542060679914467	0.956332780455943	-0.0542060679914466	0.956332780455943	-2.78208680725486E-17	1.92624180101429E-17
56.8	-5.66945997616171E-18	7.40169429657383E-18	0.0641670923319343	0.972621891554082	0.0641670923319342	0.972621891554082	-1.9434636345543E-17	2.58517977154955E-17
56.9	-1.1705517700557E-17	-1.70557771958156E-17	0.211890925672001	0.928292223748019	0.211890925672001	0.92829222374802	-9.65823141647124E-18	-1.28048614915373E-17
57	-3.22647174737563E-18	-9.85856496260229E-19	0.367723096785385	0.857047357538642	0.367723096785385	0.857047357538642	3.5383628317694E-17	6.57831276350767E-18
57.1	-4.60775495468493E-18	1.99682542042513E-17	0.469065889712897	0.824673790597794	0.469065889712897	0.824673790597795	-1.40721271098923E-17	-3.7434853984103E-17
57.2	-1.17195587799312E-17	5.23591970124809E-18	0.587590534094789	0.775976760215337	0.587590534094789	0.775976760215338	-5.05769199459354E-18	3.61390123469626E-17
57.3	1.06697265499612E-17	1.33107627291572E-18	0.731286901023734	0.613713171704477	0.731286901023733	0.613713171704477	5.13106316061482E-18	-7.32565037375561E-18
57.4	-9.19478521414645E-18	1.82273322443003E-17	0.739089891857855	0.534704054066853	0.739089891857855	0.534704054066853	-6.33966663042485E-18	1.76668540095155E-17
57.5	-1.36078915381224E-17	-6.32853939188374E-18	0.863868940734196	0.443008085116309	0.863868940734195	0.443008085116309	1.84486622652562E-18	1.37746887013729E-17
57.6	-5.56480610034816E-18	7.957437741729E-18	0.921262572300902	0.290171735279326	0.921262572300902	0.290171735279326	3.04945108118576E-17	1.57708669804675E-18
57.7	1.4700807834509E-17	2.06823427860513E-17	0.909343967698767	0.152640923364737	0.909343967698767	0.152640923364737	2.92751008968445E-18	9.59347952408285E-18
57.8	-1.64122205197276E-17	-3.98069659779166E-18	0.956942208376547	0.0459937666915891	0.956942208376547	0.045993766691589	-2.01453754142942E-17	-6.73977659133649E-18
57.9	-8.89781710503485E-18	4.3542446900282E-18	0.96562887424592	-0.073931394714887	0.965628874245919	-0.0739313947148867	2.2137246814127E-17	-2.72795704452217E-17
58	2.68394525520401E-18	1.68813345514686E-17	0.90827942582603	-0.271300977839692	0.908279425826031	-0.271300977839692	-1.89724657991035E-18	3.6896836647929E-17
58.1	1.48741669413067E-17	-4.40516429919695E-18	0.845458517536419	-0.343785053668047	0.845458517536419	-0.343785053668047	-1.70899825295993E-17	-2.1681009245813E-17
58.2	1.27594435433014E-17	-1.47600351456276E-17	0.825659752320767	-0.485635003411159	0.825659752320767	-0.485635003411159	-2.35769967375487E-17	1.4608107264688E-18
58.3	-1.219598441594E-17	-2.13492550727804E-17	0.730066307776478	-0.611860982715205	0.730066307776478	-0.611860982715205	-1.38248265968768E-17	1.03346381444188E-17
58.4	4.0887153330433E-17	1.04085954731211E-17	0.629441928892354	-0.64208988044917	0.629441928892354	-0.64208988044917	1.68264690877462E-17	-3.34779552569524E-19
58.5	-1.30611623160169E-17	7.31648780784472E-18	0.577341239036857	-0.776363807373357	0.577341239036857	-0.776363807373356	7.01048217151212E-19	2.33264887870308E-18
58.6	1.98555684729634E-17	2.97373410660633E-17	0.42795509659357	-0.843920037679515	0.42795509659357	-0.843920037679515	1.01834296976397E-17	6.01788053677885E-18
58.7	-2.97289811418547E-17	1.34408998811201E-17	0.296863897038732	-0.86283732511147	0.296863897038732	-0.86283732511147	1.10387329786468E-18	2.69379736258934E-18
58.8	-1.39279954646094E-17	2.00880552818531E-17	0.194356369302746	-0.909855163963698	0.194356369302745	-0.909855163963698	-1.42149792210403E-17	1.33788514826444E-17
58.9	-3.77427006359751E-18	3.27650979175062E-18	0.0858000421794501	-0.944759215854734	0.08580004217945	-0.944759215854734	-5.52638731408626E-18	8.51046328787299E-18
59	2.38433039096369E-17	-1.82718546070495E-17	-0.0880938552920138	-0.923419834713031	-0.0880938552920138	-0.923419834713032	1.62563101473497E-17	-6.36036430349449E-18
59.1	-1.30979098968584E-18	-9.80943293632495E-18	-0.180969724218117	-0.902637433899715	-0.180969724218117	-0.902637433899716	-5.39297900078915E-18	-2.24435345747493E-17
59.2	-1.8646100581467E-17	-8.27710830629552E-18	-0.303389526139912	-0.906507160227716	-0.303389526139912	-0.906507160227716	-1.5990337326792E-17	-8.04576239878731E-18
59.3	1.51131493677638E-17	2.05296249411761E-18	-0.456411661874714	-0.802275881326907	-0.456411661874713	-0.802275881326907	-8.46056747423862E-18	2.29095686397884E-17
59.4	6.83190141735484E-18	-1.25119220977295E-17	-0.524730012636467	-0.762843248628744	-0.524730012636467	-0.762843248628744	1.14352711037007E-17	7.56415956316168E-18
59.5	1.62934717694905E-17	-2.89665582002816E-18	-0.654662172856867	-0.678088620079376	-0.654662172856866	-0.678088620079376	-2.66732999367034E-18	-1.18519907702921E-17
59.6	1.98805580353197E-18	-3.94755327043347E-18	-0.729395944848833	-0.560667525328855	-0.729395944848833	-0.560667525328855	-4.82287347542044E-18	-9.95444606846768E-19
59.7	0	0	-0.808137684544655	-0.481636815071701	-0.808137684544655	-0.481636815071701	6.74055145903437E-18	1.73006772031514E-17
59.8	8.2662508674696E-18	2.70423704685468E-18	-0.875953792013295	-0.359970688433025	-0.875953792013295	-0.359970688433025	5.40847409370935E-19	-1.65325017349392E-18
59.9	-1.33671270761593E-17	4.69412187403826E-18	-0.903281969135357	-0.246681273778456	-0.903281969135357	-0.246681273778456	-1.66429916358555E-18	4.3160314584853E-18
60	9.79308085620389E-18	2.67051596939324E-17	-0.927226839154027	-0.0963661507839509	-0.927226839154027	-0.0963661507839509	1.18053352039166E-17	9.79782080496937E-18
60.1	-1.01484613910157E-18	1.18512352607634E-17	-0.922039035592196	0.0179503516790905	-0.922039035592195	0.0179503516790906	-2.23143777676301E-17	-4.29845471644565E-18
60.2	1.17991373912872E-18	2.89439619101447E-18	-0.937343904465848	0.123848670695291	-0.937343904465848	0.123848670695291	7.31197820651327E-18	9.27451333567172E-18
60.3	-1.09577481224318E-17	2.11336840822482E-17	-0.890438601997775	0.289564636754595	-0.890438601997775	0.289564636754594	-2.34808888337825E-18	4.52864658905318E-18
60.4	-1.20835259049389E-17	1.62505928588038E-17	-0.83541864174465	0.361047797341249	-0.835418641744649	0.361047797341248	-1.14478719894586E-17	-4.13452493127404E-19
60.5	-1.6007697567405E-17	2.63483334088265E-17	-0.795559816450483	0.501283508193454	-0.795559816450484	0.501283508193454	-7.55033132168794E-18	-2.11865479614675E-19
60.6	-8.18505649607606E-18	2.87252091586602E-17	-0.714073620260681	0.597882898542469	-0.714073620260681	0.59788289854247	-4.23192102686653E-18	2.30134780409434E-18
60.7	-1.20592457966344E-17	5.17982474552197E-19	-0.623213305875899	0.692584186621779	-0.623213305875899	0.692584186621779	2.67833439505258E-18	-3.31170296748743E-18
60.8	-9.82398311277761E-18	-1.45178638712996E-18	-0.527559759674177	0.776456236530655	-0.527559759674178	0.776456236530655	-7.51116585081955E-18	-3.3957056886377E-18
60.9	-3.86079429814084E-18	7.08273522646203E-18	-0.426592487158023	0.838302574339247	-0.426592487158023	0.838302574339247	-5.1916188168706E-18	-1.91537995356996E-18
61	-1.21213233834912E-17	9.34801028844909E-19	-0.295756446719759	0.889699241714298	-0.29575644671976	0.889699241714299	-1.44854550497011E-17	5.95576479624546E-19
61.1	-1.24841206406491E-17	5.60540952294761E-18	-0.17089996154416	0.905960630551085	-0.17089996154416	0.905960630551085	-3.28343777227801E-18	2.9879453003116E-19
61.2	2.61111334425804E-17	-8.46584902965811E-18	-0.0640100986755473	0.926725493447752	-0.0640100986755475	0.926725493447752	2.05806865580027E-18	-1.48270778896607E-17
61.3	-3.69129187917707E-17	-3.36491465115862E-17	0.0661419191910785	0.944227802971919	0.066141919191079	0.94422780297192	-1.06963751608339E-17	-1.60532759147352E-17
61.4	-2.23158423375502E-17	2.45083017015571E-17	0.223519120987823	0.904309409358594	0.223519120987823	0.904309409358595	-1.27959384875328E-18	-8.1481250102231E-19
61.5	5.11360833717736E-18	1.6073820417576E-17	0.293959239329129	0.862742458836437	0.29395923932913	0.862742458836437	9.23884832468743E-18	1.19836110077999E-17
61.6	3.48294815278355E-18	-1.31110857172718E-17	0.438546496892029	0.850269284441552	0.438546496892029	0.850269284441552	-7.07180021778605E-18	-6.49330048225167E-18
61.7	8.2513137904458E-20	9.7810137224574E-18	0.555316437633816	0.763649156688141	0.555316437633816	0.763649156688141	-1.5029025870264E-17	1.22722799330456E-18
61.8	-1.63767057271753E-17	2.47361829331987E-18	0.630565578750608	0.67141776806593	0.630565578750608	0.671417768065931	-1.48501683049005E-17	1.64784256651061E-18
61.9	-2.71826205703117E-18	-5.29965562411664E-18	0.723299533308288	0.578606524039024	0.723299533308288	0.578606524039024	-7.33234776094589E-18	4.70126575508615E-18
62	-1.24219118502841E-17	-8.42958942170013E-18	0.791698934710186	0.500748676339816	0.791698934710186	0.500748676339817	-1.24396096962945E-17	-7.57879136953906E-18
