!---------------------------------------------------------------------
! ZVC, 3.52
!---------------------------------------------------------------------
! symbol freq-unit parameter-type data-format keyword impedance-ohm
#        HZ        S              DB          R       50
!---------------------------------------------------------------------
! freq                dbS11          angS11          dbS21          angS21          dbS12          angS12          dbS22          angS22          
  3.70000000000E+09 -0.244063        128.064       -52.3841         146.619       -51.9102         146.518       -0.452975        91.1392      
  3.70100000000E+09 -0.244           128.003       -51.7771         145.738       -51.7823         145.424       -0.450969        91.0743      
  3.70200000000E+09 -0.242515        127.93        -51.8698         145.179       -51.6136         145.885       -0.454943        90.9617      
  3.70300000000E+09 -0.243229        127.866       -51.9412         144.008       -51.5487         145.369       -0.453638        90.8816      
  3.70400000000E+09 -0.244559        127.779       -51.8152         144.807       -51.6462         144.829       -0.456371        90.8308      
  3.70500000000E+09 -0.245916        127.717       -51.6437         145.272       -51.8628         144.593       -0.450517        90.7901      
  3.70600000000E+09 -0.247396        127.658       -51.9076         145.487       -51.4598         145.92        -0.448791        90.6991      
  3.70700000000E+09 -0.244978        127.578       -51.4224         146.92        -51.5742         144.26        -0.44985         90.5693      
  3.70800000000E+09 -0.243227        127.512       -51.7434         144.861       -51.5981         143.806       -0.452442        90.5828      
  3.70900000000E+09 -0.245683        127.445       -51.602          145.572       -51.4932         143.423       -0.451266        90.4718      
  3.71000000000E+09 -0.246333        127.379       -51.6561         144.833       -51.5692         144.938       -0.454449        90.3968      
  3.71100000000E+09 -0.246806        127.285       -51.4966         145.012       -51.6495         143.522       -0.449547        90.3317      
  3.71200000000E+09 -0.247889        127.248       -51.5739         145.03        -51.7075         143.069       -0.454225        90.2693      
  3.71300000000E+09 -0.250407        127.179       -51.5388         144.918       -51.559          144.544       -0.450909        90.1608      
  3.71400000000E+09 -0.246299        127.109       -51.5134         142.646       -51.4643         143.9         -0.450405        90.1227      
  3.71500000000E+09 -0.253343        127.028       -51.4799         145.101       -51.3691         144.886       -0.449907        90.0151      
  3.71600000000E+09 -0.250364        126.95        -51.2375         145.36        -51.3265         143.914       -0.448066        89.9811      
  3.71700000000E+09 -0.250133        126.888       -51.3827         143.415       -51.2104         144.163       -0.444956        89.8835      
  3.71800000000E+09 -0.253859        126.802       -51.1854         144.549       -51.2353         143.169       -0.449594        89.8287      
  3.71900000000E+09 -0.251359        126.753       -51.2857         143.335       -51.0819         143.731       -0.454146        89.659       
  3.72000000000E+09 -0.24767         126.675       -51.2241         143.904       -51.0896         142.704       -0.448779        89.5638      
  3.72100000000E+09 -0.254363        126.605       -50.9925         142.514       -51.0428         141.772       -0.451098        89.5697      
  3.72200000000E+09 -0.249518        126.55        -51.0482         143.05        -50.8392         142.114       -0.450395        89.5209      
  3.72300000000E+09 -0.252697        126.714       -51.1724         140.725       -51.092          142.212       -0.45206         89.3498      
  3.72400000000E+09 -0.246104        126.864       -51.1731         141.652       -51.264          143.164       -0.449827        89.3336      
  3.72500000000E+09 -0.247877        126.791       -51.1414         140.653       -51.1589         142.24        -0.44607         89.2739      
  3.72600000000E+09 -0.251106        126.903       -50.8301         141.45        -51.095          142.206       -0.443176        89.2185      
  3.72700000000E+09 -0.24882         126.835       -51.0068         141.204       -51.025          141.166       -0.454305        89.131       
  3.72800000000E+09 -0.248571        126.785       -51.041          141.414       -51.1372         140.49        -0.444995        89.0635      
  3.72900000000E+09 -0.249853        126.724       -51.2086         140.126       -51.2181         140.754       -0.441001        89.0094      
  3.73000000000E+09 -0.250652        126.622       -51.2741         140.544       -51.0619         140.696       -0.444974        88.9012      
  3.73100000000E+09 -0.250958        126.553       -51.2563         139.524       -50.9268         140.519       -0.444442        88.8458      
  3.73200000000E+09 -0.253568        126.481       -51.1045         141.466       -50.9132         140.897       -0.445078        88.7252      
  3.73300000000E+09 -0.254505        126.419       -51.0928         140.676       -51.0772         139.516       -0.444132        88.6995      
  3.73400000000E+09 -0.248314        126.351       -50.9377         140.419       -51.0346         140.144       -0.444027        88.6052      
  3.73500000000E+09 -0.253904        126.279       -51.027          140.215       -50.9384         140.254       -0.441193        88.5683      
  3.73600000000E+09 -0.251178        126.208       -51.2093         140.905       -50.9986         140.192       -0.442003        88.4978      
  3.73700000000E+09 -0.248735        126.104       -51.1779         140.272       -51.0542         139.8         -0.449943        88.3746      
  3.73800000000E+09 -0.256577        126.087       -51.0836         140.781       -50.8903         140.732       -0.441399        88.3078      
  3.73900000000E+09 -0.249893        125.975       -51.2645         140.164       -51.0057         140.092       -0.445724        88.2421      
  3.74000000000E+09 -0.257187        125.91        -50.9521         139.708       -51.1203         139.879       -0.449999        88.1503      
  3.74100000000E+09 -0.25917         125.85        -50.9585         141.236       -50.6835         141.056       -0.443394        88.1034      
  3.74200000000E+09 -0.249024        125.79        -50.7713         140.398       -50.6769         140.189       -0.442464        87.9839      
  3.74300000000E+09 -0.250703        125.721       -50.7648         139.915       -50.6175         140.252       -0.447237        87.9499      
  3.74400000000E+09 -0.262641        125.655       -50.9743         139.518       -50.778          139.711       -0.443853        87.8714      
  3.74500000000E+09 -0.253085        125.556       -50.8878         140.12        -50.8546         139.258       -0.444863        87.7825      
  3.74600000000E+09 -0.264942        125.488       -50.8317         139.73        -50.8169         140.666       -0.449277        87.7108      
  3.74700000000E+09 -0.255816        125.422       -50.7925         139.349       -50.8486         139.803       -0.445891        87.6503      
  3.74800000000E+09 -0.259285        125.434       -50.7738         141           -50.8539         139.959       -0.449383        87.5536      
  3.74900000000E+09 -0.254105        125.291       -50.73           140.746       -50.8849         138.889       -0.45001         87.4853      
  3.75000000000E+09 -0.262311        125.231       -50.7419         141.592       -50.9063         141.02        -0.449255        87.4045      
  3.75100000000E+09 -0.262918        125.434       -50.8082         141.278       -50.699          139.71        -0.449313        87.3291      
  3.75200000000E+09 -0.257884        125.332       -50.6967         140.753       -50.7662         141.405       -0.445574        87.2476      
  3.75300000000E+09 -0.255239        125.226       -50.7549         140.944       -50.5596         139.587       -0.450941        87.1888      
  3.75400000000E+09 -0.259978        125.225       -50.6153         140.262       -50.6127         139.584       -0.444017        87.0489      
  3.75500000000E+09 -0.257643        125.156       -50.7221         139.767       -50.4472         140.283       -0.445962        87.0362      
  3.75600000000E+09 -0.25643         125.066       -50.4785         139.957       -50.6813         141.308       -0.449427        86.9652      
  3.75700000000E+09 -0.262889        124.951       -50.3617         140.08        -50.3494         140.544       -0.448703        86.8432      
  3.75800000000E+09 -0.261875        124.925       -50.4254         139.978       -50.5592         141.065       -0.443126        86.7994      
  3.75900000000E+09 -0.267207        124.875       -50.3217         140.606       -50.2434         140.56        -0.444433        86.7264      
  3.76000000000E+09 -0.256734        124.794       -50.1949         139.92        -50.3366         140.215       -0.449242        86.6683      
  3.76100000000E+09 -0.260001        124.684       -50.3706         139.459       -50.1851         140.116       -0.451158        86.6458      
  3.76200000000E+09 -0.262484        124.688       -50.2275         140.32        -50.193          139.636       -0.436003        86.5092      
  3.76300000000E+09 -0.266368        124.558       -50.2207         139.712       -50.0493         140.984       -0.44689         86.4183      
  3.76400000000E+09 -0.261164        124.49        -50.1057         139.578       -50.2116         138.833       -0.453611        86.3535      
  3.76500000000E+09 -0.265906        124.413       -50.198          138.396       -50.1305         140.701       -0.450045        86.3377      
  3.76600000000E+09 -0.268732        124.332       -49.9325         138.738       -50.0918         139.965       -0.453566        86.1783      
  3.76700000000E+09 -0.26846         124.312       -49.9842         139.814       -50.1631         139.79        -0.447361        86.0927      
  3.76800000000E+09 -0.26581         124.21        -50.1745         138.773       -49.9764         140.142       -0.45382         86.1187      
  3.76900000000E+09 -0.272389        124.168       -50.0652         139.689       -50.0901         139.005       -0.451343        86.0164      
  3.77000000000E+09 -0.267598        124.096       -50.1254         138.324       -49.9258         139.393       -0.445433        85.8897      
  3.77100000000E+09 -0.275843        123.95        -50.0868         138.817       -50.0338         138.916       -0.448363        85.8652      
  3.77200000000E+09 -0.268963        123.962       -50.1685         137.987       -50.1154         138.177       -0.461261        85.7932      
  3.77300000000E+09 -0.268257        123.872       -50.0268         138.659       -49.8167         139.168       -0.457416        85.7663      
  3.77400000000E+09 -0.277923        123.808       -50.0365         138.526       -50.0353         139.819       -0.45389         85.6464      
  3.77500000000E+09 -0.264438        123.687       -50.0906         139.466       -50.0817         138.415       -0.450191        85.5626      
  3.77600000000E+09 -0.276075        123.659       -50.0464         139.105       -49.9433         140.187       -0.456805        85.479       
  3.77700000000E+09 -0.274793        123.55        -49.989          139.752       -49.9883         138.529       -0.462736        85.4114      
  3.77800000000E+09 -0.273308        124.11        -49.9603         139.541       -49.7703         139.682       -0.455328        85.3904      
  3.77900000000E+09 -0.266172        124.066       -49.7668         139.96        -49.8466         139.428       -0.454046        85.265       
  3.78000000000E+09 -0.269787        124.011       -49.9024         139.708       -49.8406         139.558       -0.450797        85.2027      
  3.78100000000E+09 -0.268844        123.905       -49.7525         139.836       -49.8701         139.874       -0.45254         85.0704      
  3.78200000000E+09 -0.27358         123.865       -49.8215         140.313       -49.7382         139.586       -0.456842        85.0472      
  3.78300000000E+09 -0.27344         123.79        -49.8379         139.584       -49.7495         140.168       -0.452985        84.9304      
  3.78400000000E+09 -0.26974         123.714       -49.763          139.798       -49.587          140.003       -0.460834        84.8611      
  3.78500000000E+09 -0.269939        123.651       -49.7166         139.878       -49.7407         140.602       -0.454602        84.7995      
  3.78600000000E+09 -0.279101        123.591       -49.7758         139.692       -49.6898         139.038       -0.456385        84.6948      
  3.78700000000E+09 -0.279554        123.578       -49.6586         140.485       -49.6335         139.625       -0.459564        84.6175      
  3.78800000000E+09 -0.273473        123.439       -49.7222         140.454       -49.722          140.191       -0.455578        84.5674      
  3.78900000000E+09 -0.278938        123.369       -49.5092         140.648       -49.6835         139.568       -0.456013        84.4614      
  3.79000000000E+09 -0.273582        123.315       -49.5578         141.07        -49.5722         141.097       -0.463959        84.4208      
  3.79100000000E+09 -0.274827        123.249       -49.4909         141.648       -49.4862         142.059       -0.459643        84.3343      
  3.79200000000E+09 -0.275593        123.104       -49.4987         141.951       -49.4023         140.684       -0.459403        84.2484      
  3.79300000000E+09 -0.276641        123.139       -49.406          142.492       -49.3903         141.744       -0.464786        84.1583      
  3.79400000000E+09 -0.278519        123.043       -49.3718         141.357       -49.3288         141.248       -0.461707        84.0811      
  3.79500000000E+09 -0.279198        122.959       -49.2786         140.413       -49.1378         142.727       -0.462054        84.0245      
  3.79600000000E+09 -0.279113        122.893       -49.3556         140.482       -49.211          142.462       -0.462443        83.9448      
  3.79700000000E+09 -0.282006        122.805       -49.0015         142.014       -49.1709         142.011       -0.463158        83.885       
  3.79800000000E+09 -0.284358        122.761       -49.0283         141.529       -49.0231         141.795       -0.462588        83.7812      
  3.79900000000E+09 -0.282542        122.65        -48.923          141.093       -49.0442         140.611       -0.462129        83.6937      
  3.80000000000E+09 -0.287068        122.573       -48.7522         141.473       -49.0271         141.208       -0.466113        83.6256      
  3.80100000000E+09 -0.282558        122.554       -48.8952         141.539       -48.7388         141.834       -0.464013        83.5647      
  3.80200000000E+09 -0.28573         122.466       -48.893          141.333       -48.8974         141.539       -0.467326        83.4708      
  3.80300000000E+09 -0.28262         122.362       -48.7572         140.861       -48.9887         141.885       -0.466297        83.4255      
  3.80400000000E+09 -0.287354        122.375       -48.822          141.574       -48.8133         141.109       -0.460863        83.3437      
  3.80500000000E+09 -0.288945        122.24        -48.6184         141.637       -48.6187         141.536       -0.463565        83.2476      
  3.80600000000E+09 -0.284658        122.174       -48.6758         141.769       -48.6687         140.651       -0.466976        83.1599      
  3.80700000000E+09 -0.285001        122.103       -48.5635         141.201       -48.5917         141.421       -0.467464        83.1086      
  3.80800000000E+09 -0.282731        122.047       -48.519          141.03        -48.4589         142.174       -0.467393        83.0591      
  3.80900000000E+09 -0.290136        121.97        -48.4757         141.599       -48.4818         141.84        -0.470629        82.9035      
  3.81000000000E+09 -0.287444        121.869       -48.5262         141.023       -48.3172         140.921       -0.469235        82.8589      
  3.81100000000E+09 -0.284972        121.871       -48.3103         141.654       -48.314          140.714       -0.471903        82.8225      
  3.81200000000E+09 -0.292637        121.753       -48.3841         142.752       -48.3081         141.839       -0.468789        82.687       
  3.81300000000E+09 -0.292052        121.699       -48.2733         142.121       -48.2166         141.302       -0.463126        82.6488      
  3.81400000000E+09 -0.28834         121.608       -48.1432         142.714       -48.096          141.262       -0.475735        82.6149      
  3.81500000000E+09 -0.295109        121.521       -48.1502         141.854       -48.0535         141.462       -0.474217        82.5048      
  3.81600000000E+09 -0.297179        121.501       -48.0769         141.4         -48.0944         142.008       -0.477096        82.4233      
  3.81700000000E+09 -0.296687        121.433       -48.1268         142.423       -48.0766         141.076       -0.47725         82.3548      
  3.81800000000E+09 -0.287673        121.355       -47.9436         141.499       -47.9808         142.16        -0.470428        82.2686      
  3.81900000000E+09 -0.290889        121.204       -47.8512         142.206       -48.074          142.046       -0.48052         82.1724      
  3.82000000000E+09 -0.291237        121.188       -47.9918         141.244       -47.9699         142.201       -0.471191        82.0813      
  3.82100000000E+09 -0.295764        121.117       -48.0411         141.673       -48.0158         141.591       -0.47566         82.0767      
  3.82200000000E+09 -0.294195        121.083       -47.7985         142.545       -47.9837         142.279       -0.466862        81.93        
  3.82300000000E+09 -0.295113        121.011       -47.7999         142.334       -47.715          142.704       -0.479553        81.9259      
  3.82400000000E+09 -0.296562        120.935       -47.8407         143.193       -47.8725         142.894       -0.474745        81.8354      
  3.82500000000E+09 -0.298472        120.82        -47.7928         142.945       -47.7767         143.663       -0.478551        81.7331      
  3.82600000000E+09 -0.292504        121.094       -47.5592         144.393       -47.5841         142.725       -0.475857        81.7         
  3.82700000000E+09 -0.295596        120.996       -47.5303         143.753       -47.6159         143.433       -0.477457        81.588       
  3.82800000000E+09 -0.29129         120.957       -47.5245         144.538       -47.5531         143.974       -0.477826        81.5286      
  3.82900000000E+09 -0.290672        120.87        -47.4603         144.022       -47.4623         144.243       -0.477961        81.4169      
  3.83000000000E+09 -0.297096        120.789       -47.3244         144.656       -47.2902         144.683       -0.469395        81.3641      
  3.83100000000E+09 -0.292216        120.727       -47.3794         144.846       -47.3297         144.7         -0.475578        81.3281      
  3.83200000000E+09 -0.294081        120.662       -47.1275         145.751       -47.1689         144.743       -0.480291        81.244       
  3.83300000000E+09 -0.29924         120.604       -47.0621         145.189       -46.9858         145.201       -0.480373        81.173       
  3.83400000000E+09 -0.296018        120.496       -46.9277         145.001       -46.893          145.382       -0.470959        81.0532      
