! Channel 1
! Ports=123
! Points=2329
! Topology=ALL_SE(123)
# MHz S DB R 50
  10.0000 -0.0895 -0.81 -60.1224 120.03 -62.5912 -55.86
         -57.7225 -34.94 -0.1602 -179.66 -61.4350 86.40
         -71.7233 143.30 -63.4984 -117.97 -0.2656 -1.57
  15.0000 -0.0869 -1.04 -68.3573 158.18 -65.4816 -60.55
         -63.4646 -158.65 -0.6290 174.74 -64.7836 -66.81
         -79.0386 -95.00 -71.3309 -51.24 -0.0689 -3.55
  20.0000 -0.0740 -1.14 -59.8101 -122.47 -65.1111 158.97
         -64.4728 10.63 0.0377 173.50 -70.6561 158.11
         -63.1424 -48.79 -61.3016 138.03 -0.1560 -4.96
  25.0000 -0.1006 -1.74 -69.7177 3.59 -79.1906 158.77
         -69.5532 -141.31 -0.6362 170.65 -77.5657 131.49
         -66.7670 -2.04 -79.6359 97.86 -0.1372 -6.43
  30.0000 -0.1261 -2.20 -69.4458 99.17 -69.9340 12.93
         -74.9844 87.76 -0.3266 169.23 -73.4724 71.32
         -72.4899 168.88 -82.6931 91.04 -0.1229 -7.54
  35.0000 -0.1196 -2.48 -72.9932 -170.20 -67.4830 21.70
         -72.3918 -5.04 -0.4732 167.44 -79.4688 65.61
         -69.8508 68.30 -74.9905 -143.99 -0.1096 -8.99
  40.0000 -0.0842 -3.12 -71.1893 101.42 -74.0841 42.62
         -77.2360 136.75 -0.4449 165.12 -74.9186 59.35
         -75.0854 151.46 -82.3476 69.31 -0.1527 -10.35
  45.0000 -0.1019 -3.75 -74.1879 46.03 -76.9491 -160.72
         -73.1980 124.43 -0.4961 163.34 -77.7094 -55.05
         -80.5991 -55.98 -71.2110 -134.80 -0.0672 -11.57
  50.0000 -0.0968 -4.21 -74.9487 99.53 -80.8315 100.10
         -77.3387 -8.55 -0.4313 161.82 -79.6263 -151.78
         -78.3253 112.15 -75.2477 55.06 -0.0759 -13.28
  55.0000 -0.0869 -4.69 -87.2480 -112.04 -100.3252 -105.25
         -79.6023 -176.77 -0.5493 159.87 -76.2412 -135.30
         -79.4534 -37.45 -75.7467 125.47 -0.0539 -14.39
  60.0000 -0.0717 -5.30 -72.6108 -167.58 -77.4287 160.06
         -73.4891 -148.68 -0.4856 158.21 -74.3925 137.54
         -74.3686 61.10 -77.1533 161.47 -0.0820 -15.80
  65.0000 -0.0679 -5.83 -70.3237 148.53 -86.7759 -29.50
         -84.9622 72.21 -0.4708 156.73 -72.8694 -172.61
         -78.1201 98.95 -75.2186 148.78 -0.1057 -17.47
  70.0000 -0.0610 -6.41 -75.0908 172.69 -79.1364 -86.00
         -82.0486 -153.72 -0.5572 155.14 -73.9926 164.00
         -74.5322 115.02 -79.8823 164.49 -0.0786 -18.86
  75.0000 -0.0535 -6.89 -72.6801 153.08 -78.6380 69.34
         -82.5156 140.40 -0.5463 153.27 -72.9367 124.36
         -82.7797 -15.13 -72.9388 139.15 -0.0774 -20.36
  80.0000 -0.0540 -7.42 -71.5198 156.10 -77.5799 136.71
         -74.6403 164.96 -0.5835 151.55 -71.0082 160.20
         -87.5910 -173.59 -68.0400 147.69 -0.0646 -21.61
  85.0000 -0.0519 -7.84 -71.7839 167.71 -79.5350 127.74
         -74.2641 142.98 -0.5964 149.79 -70.0546 157.37
         -80.5378 35.76 -71.8872 133.19 -0.0773 -23.11
  90.0000 -0.0655 -8.35 -71.9732 153.67 -78.3282 110.47
         -71.9544 163.28 -0.5741 147.74 -70.0988 133.54
         -76.2889 103.70 -68.4977 122.80 -0.0782 -24.29
  95.0000 -0.0631 -8.77 -69.9610 163.78 -79.9869 35.97
         -70.7660 142.37 -0.5591 146.22 -68.0397 148.86
         -100.3847 142.01 -67.1462 148.31 -0.1072 -25.73
 100.0000 -0.0860 -9.18 -70.4456 135.41 -76.2257 24.82
         -71.9188 128.96 -0.5781 144.46 -68.6203 142.52
         -92.4300 96.21 -66.3199 137.14 -0.0961 -26.94
 105.0000 -0.0767 -9.61 -72.6789 152.23 -76.5463 12.92
         -73.9547 138.10 -0.5620 142.47 -66.2378 135.19
         -80.6218 55.79 -68.2730 143.99 -0.0852 -28.28
 110.0000 -0.0808 -10.04 -66.2122 149.04 -74.6315 16.90
         -68.9565 142.26 -0.5886 140.93 -65.7980 131.03
         -78.7802 59.44 -66.0401 149.07 -0.1003 -29.59
 115.0000 -0.0789 -10.46 -69.8867 153.18 -80.1231 58.10
         -69.5479 148.91 -0.5691 139.02 -65.0183 128.79
         -78.9501 52.17 -64.7713 138.51 -0.0879 -31.01
 120.0000 -0.0835 -10.89 -67.5021 152.76 -78.3184 41.52
         -68.8233 141.41 -0.5955 137.20 -65.0259 133.47
         -76.6283 21.75 -64.3744 132.51 -0.1039 -32.42
 125.0000 -0.0768 -11.42 -68.6786 137.49 -79.9580 60.59
         -68.9214 158.68 -0.6013 135.54 -63.6615 138.40
         -94.9367 -177.37 -63.8943 137.05 -0.1094 -33.75
 130.0000 -0.0691 -11.84 -67.6451 131.20 -77.5966 67.27
         -68.1728 153.75 -0.6077 133.90 -62.9293 131.77
         -80.0454 57.40 -62.4662 129.80 -0.1005 -35.20
 135.0000 -0.0739 -12.36 -67.6923 135.93 -73.2246 64.72
         -66.5635 144.87 -0.6128 132.10 -62.3012 131.67
         -82.6718 66.82 -62.5875 133.66 -0.0946 -36.66
 140.0000 -0.0690 -12.89 -65.9746 153.27 -76.7305 85.69
         -66.5684 146.92 -0.6335 130.39 -61.9683 132.29
         -76.8808 87.88 -61.5593 128.62 -0.0972 -37.93
 145.0000 -0.0610 -13.35 -66.7673 146.10 -81.2527 31.74
         -64.2574 146.07 -0.6321 128.65 -61.7641 128.13
         -80.5658 86.56 -60.9764 128.67 -0.0969 -39.34
 150.0000 -0.0599 -13.91 -64.3824 136.69 -78.1169 89.20
         -64.8614 139.77 -0.6515 126.92 -60.7148 131.88
         -79.4308 78.39 -60.1916 129.21 -0.0651 -40.82
 155.0000 -0.0585 -14.42 -63.6492 144.41 -75.1509 96.64
         -64.0538 142.05 -0.6486 125.19 -60.2051 126.53
         -77.9114 28.55 -59.6863 124.22 -0.0970 -42.12
 160.0000 -0.0618 -14.89 -63.2414 136.81 -75.1905 81.88
         -64.5861 141.80 -0.6505 123.53 -59.0342 126.13
         -80.8005 48.13 -59.6840 125.30 -0.0998 -43.46
 165.0000 -0.0607 -15.33 -62.9220 140.55 -78.7707 47.77
         -63.8393 137.34 -0.6583 121.71 -58.7620 123.42
         -80.4230 53.47 -58.9732 125.51 -0.0987 -44.83
 170.0000 -0.0632 -15.80 -63.2561 137.10 -77.7972 47.98
         -63.2457 133.53 -0.6635 119.91 -58.0823 122.72
         -74.5031 62.65 -58.7693 123.19 -0.0999 -46.20
 175.0000 -0.0646 -16.24 -62.2946 139.55 -75.2378 51.19
         -62.5605 135.05 -0.6461 118.11 -57.9558 120.05
         -78.3344 57.85 -57.9478 121.61 -0.1138 -47.51
 180.0000 -0.0686 -16.68 -61.9514 134.79 -77.6820 45.13
         -61.8832 137.43 -0.6548 116.40 -57.6337 119.19
         -76.9898 63.05 -57.6556 119.79 -0.1087 -48.91
 185.0000 -0.0708 -17.13 -61.8087 133.90 -81.5592 62.00
         -61.3809 135.59 -0.6708 114.67 -57.0962 119.25
         -75.1350 67.97 -56.7960 117.44 -0.1141 -50.25
 190.0000 -0.0750 -17.55 -60.3864 135.84 -72.7073 51.85
         -61.2237 134.64 -0.6724 112.96 -56.3244 116.85
         -78.1836 55.57 -56.3009 116.16 -0.1111 -51.46
 195.0000 -0.0766 -18.03 -60.4175 131.56 -75.1985 41.29
         -60.5700 135.91 -0.6625 111.13 -55.9771 114.63
         -75.4724 54.78 -55.7472 114.88 -0.1216 -52.85
 200.0000 -0.0770 -18.45 -60.2770 129.39 -80.6019 60.80
         -60.0773 133.97 -0.6704 109.37 -55.2788 113.85
         -75.2733 33.13 -55.5734 114.19 -0.1256 -54.25
 205.0000 -0.0790 -18.94 -59.1664 131.74 -75.7141 45.54
         -59.7525 130.98 -0.6714 107.61 -55.0753 112.57
         -80.4658 45.53 -55.0755 113.53 -0.1349 -55.59
 210.0000 -0.0756 -19.39 -59.1764 131.54 -73.6033 53.66
         -59.3172 128.96 -0.6615 105.91 -54.5639 110.75
         -74.5894 53.50 -54.5673 109.73 -0.1225 -57.00
 215.0000 -0.0739 -19.89 -58.7568 128.48 -75.4435 35.32
         -59.0033 125.91 -0.6834 104.12 -54.1475 109.30
         -75.4944 44.08 -54.4114 108.78 -0.1394 -58.44
 220.0000 -0.0729 -20.39 -58.5679 126.02 -76.3944 42.41
         -58.4126 128.10 -0.7054 102.48 -53.7688 106.84
         -76.7908 52.51 -53.9082 107.76 -0.1289 -59.74
 225.0000 -0.0663 -20.89 -57.9678 128.11 -75.3872 38.55
         -58.2168 127.73 -0.6928 100.59 -53.3809 106.17
         -75.4902 60.81 -53.6808 105.67 -0.1132 -61.19
 230.0000 -0.0644 -21.37 -57.9289 127.45 -75.3262 49.27
         -57.7661 127.79 -0.7110 98.94 -53.0377 104.36
         -75.6963 58.63 -53.2797 104.62 -0.1195 -62.58
 235.0000 -0.0620 -21.87 -57.0239 124.98 -76.4666 41.98
         -57.2241 122.57 -0.7093 97.21 -52.8019 103.69
         -75.6434 53.34 -52.6565 103.03 -0.1273 -63.96
 240.0000 -0.0622 -22.33 -57.2411 124.57 -72.4871 46.01
         -56.8850 123.46 -0.7083 95.40 -52.4679 101.46
         -71.1843 74.31 -52.2392 97.63 -0.1396 -65.35
 245.0000 -0.0596 -22.82 -56.5452 120.95 -75.5406 41.97
         -56.8073 122.05 -0.7058 93.76 -52.0506 100.02
         -74.8956 46.34 -51.9778 99.42 -0.1286 -66.67
 250.0000 -0.0594 -23.26 -56.2297 120.33 -75.3985 35.72
         -56.2328 121.59 -0.7199 91.92 -51.6513 97.82
         -75.8119 37.49 -51.7832 98.29 -0.1460 -67.97
 255.0000 -0.0647 -23.70 -55.9100 118.85 -72.4918 44.55
         -55.9704 119.75 -0.7087 90.27 -51.2669 96.83
         -73.1046 48.04 -51.2522 96.19 -0.1387 -69.36
 260.0000 -0.0695 -24.14 -55.6036 118.67 -74.3442 48.15
         -55.3823 118.66 -0.6979 88.47 -50.9377 94.78
         -76.7016 39.81 -50.9073 96.16 -0.1509 -70.69
 265.0000 -0.0729 -24.59 -55.4048 119.23 -75.1357 44.04
         -55.0947 116.84 -0.7071 86.73 -50.3949 94.31
         -74.2090 38.51 -50.5188 94.18 -0.1534 -71.95
 270.0000 -0.0737 -25.02 -55.0127 118.03 -73.7057 49.21
         -54.9765 117.30 -0.7121 84.97 -50.3536 92.61
         -72.8111 43.34 -50.2800 92.08 -0.1576 -73.35
 275.0000 -0.0754 -25.44 -54.5716 116.27 -73.1524 43.70
         -54.3615 114.49 -0.7020 83.21 -49.9695 90.93
         -73.6020 54.53 -49.9474 90.94 -0.1672 -74.69
 280.0000 -0.0833 -25.90 -54.0368 116.51 -73.2273 34.90
         -54.2291 115.30 -0.7012 81.39 -49.6549 89.32
         -73.7696 35.73 -49.6780 88.70 -0.1775 -76.03
 285.0000 -0.0805 -26.39 -53.8635 113.22 -73.9571 36.48
         -53.8907 114.27 -0.7207 79.69 -49.4112 87.56
         -72.8407 43.27 -49.3337 88.43 -0.1814 -77.36
 290.0000 -0.0861 -26.83 -53.6045 112.86 -74.3333 46.28
         -53.6017 113.43 -0.7231 77.91 -49.0044 86.24
         -73.0598 31.39 -49.0670 86.35 -0.1690 -78.74
 295.0000 -0.0819 -27.33 -53.6081 112.32 -73.6775 42.88
         -53.4205 111.40 -0.7432 76.08 -48.7103 84.86
         -72.7661 29.57 -48.7780 84.32 -0.1763 -80.13
 300.0000 -0.0775 -27.81 -53.0405 111.41 -72.8219 33.09
         -53.0771 110.65 -0.7249 74.37 -48.4304 82.74
         -71.3770 36.11 -48.3436 82.79 -0.1733 -81.52
 305.0000 -0.0731 -28.31 -52.7856 109.82 -71.1744 33.69
         -52.7827 109.47 -0.7382 72.65 -48.1252 81.39
         -71.9729 37.13 -48.0728 81.29 -0.1679 -82.83
 310.0000 -0.0769 -28.81 -52.5245 108.62 -73.2893 40.22
         -52.4976 108.14 -0.7493 70.88 -47.7891 79.71
         -71.3875 33.50 -47.8267 79.80 -0.1770 -84.31
 315.0000 -0.0711 -29.25 -52.3749 106.68 -72.4998 38.60
         -52.2961 107.03 -0.7505 69.15 -47.5768 78.31
         -72.3195 35.69 -47.5415 78.43 -0.1876 -85.63
 320.0000 -0.0683 -29.72 -52.1645 107.49 -71.4748 30.37
         -52.0556 106.63 -0.7586 67.34 -47.2499 77.10
         -71.6342 34.89 -47.2988 76.94 -0.1882 -86.95
 325.0000 -0.0639 -30.20 -51.7470 105.99 -72.1556 36.92
         -51.7605 105.15 -0.7598 65.57 -47.0756 75.09
         -71.3936 35.57 -46.9845 75.15 -0.1904 -88.32
 330.0000 -0.0716 -30.66 -51.5220 103.77 -71.7476 30.28
         -51.4556 103.75 -0.7571 63.81 -46.7664 73.58
         -71.3727 27.74 -46.7350 73.91 -0.1978 -89.66
 335.0000 -0.0751 -31.07 -51.2410 102.54 -72.5562 33.24
         -51.2053 102.55 -0.7615 62.00 -46.4327 72.14
         -71.0373 33.82 -46.4910 72.32 -0.2006 -90.94
 340.0000 -0.0747 -31.51 -50.9337 101.40 -72.1660 33.55
         -51.0141 102.03 -0.7567 60.22 -46.2105 70.86
         -71.9853 28.85 -46.2174 70.52 -0.2051 -92.31
 345.0000 -0.0805 -31.93 -50.7634 100.45 -71.7954 27.39
         -50.8252 100.81 -0.7576 58.40 -45.9994 69.57
         -72.3624 24.05 -45.9652 69.53 -0.2218 -93.62
 350.0000 -0.0831 -32.38 -50.5618 99.71 -71.2166 25.32
         -50.6124 99.72 -0.7679 56.63 -45.7452 68.13
         -71.8684 25.41 -45.7110 67.58 -0.2227 -94.97
 355.0000 -0.0888 -32.80 -50.3620 98.20 -72.0952 23.37
         -50.3234 98.42 -0.7665 54.84 -45.3778 66.07
         -71.8651 24.31 -45.4648 65.97 -0.2273 -96.25
 360.0000 -0.0905 -33.22 -50.0757 97.32 -71.3078 27.47
         -50.0163 97.67 -0.7641 53.02 -45.1585 64.86
         -72.5892 30.84 -45.2311 64.45 -0.2242 -97.54
 365.0000 -0.0901 -33.67 -49.7644 96.18 -70.5600 19.12
         -49.7488 96.14 -0.7744 51.24 -44.9382 63.40
         -71.7505 29.66 -44.9563 63.02 -0.2393 -98.91
 370.0000 -0.0915 -34.15 -49.6057 95.35 -70.9353 27.65
         -49.5352 95.00 -0.7763 49.43 -44.6383 61.66
         -71.3289 25.97 -44.6607 61.76 -0.2331 -100.28
 375.0000 -0.0911 -34.63 -49.3323 93.86 -71.6299 24.51
         -49.2844 94.34 -0.7802 47.58 -44.4394 59.63
         -71.1157 24.67 -44.4952 59.84 -0.2411 -101.67
 380.0000 -0.0894 -35.10 -49.1664 93.23 -70.4678 31.04
         -49.1717 92.58 -0.7810 45.72 -44.1984 58.14
         -70.4980 22.89 -44.2262 58.33 -0.2417 -103.05
 385.0000 -0.0883 -35.58 -48.9229 92.41 -71.2183 14.04
         -48.8689 91.71 -0.7857 43.90 -43.9389 56.63
         -71.8188 27.51 -43.9608 56.93 -0.2391 -104.40
 390.0000 -0.0898 -36.05 -48.7479 90.82 -70.3722 21.90
         -48.7552 90.67 -0.7897 42.13 -43.6925 54.94
         -70.4431 21.01 -43.6815 55.51 -0.2426 -105.76
 395.0000 -0.0889 -36.51 -48.5350 90.10 -70.9850 22.39
         -48.3838 89.85 -0.7957 40.20 -43.4534 53.19
         -71.1202 19.92 -43.4597 53.43 -0.2389 -107.10
 400.0000 -0.0836 -36.96 -48.3260 88.86 -70.9612 22.04
         -48.2428 88.29 -0.7989 38.40 -43.2267 51.94
         -70.4092 28.37 -43.2997 51.98 -0.2529 -108.47
 405.0000 -0.0839 -37.44 -48.1213 87.80 -70.8792 13.30
         -48.1308 87.13 -0.7970 36.55 -43.0508 50.25
         -70.9257 17.43 -43.0147 50.46 -0.2507 -109.79
 410.0000 -0.0844 -37.91 -47.8528 86.71 -69.9956 15.51
         -47.8271 86.27 -0.8001 34.69 -42.8501 48.77
         -70.6602 14.13 -42.8585 48.82 -0.2618 -111.11
 415.0000 -0.0841 -38.37 -47.6296 85.13 -70.9436 14.41
         -47.6473 85.12 -0.7940 32.87 -42.5923 47.43
         -70.8152 18.96 -42.5912 47.17 -0.2685 -112.51
 420.0000 -0.0864 -38.81 -47.4329 84.02 -71.1206 15.35
         -47.4752 84.04 -0.7925 30.94 -42.3564 45.70
         -70.3072 16.93 -42.3807 45.69 -0.2778 -113.86
 425.0000 -0.0926 -39.27 -47.2286 83.23 -70.4411 9.91
         -47.2381 83.36 -0.7887 29.13 -42.1368 44.14
         -70.6020 14.14 -42.1379 44.05 -0.2789 -115.16
 430.0000 -0.1048 -39.68 -47.0696 81.81 -70.6150 8.28
         -47.0381 81.85 -0.7851 27.27 -41.9214 42.59
         -70.7855 9.38 -41.9249 42.49 -0.2960 -116.45
 435.0000 -0.1025 -40.07 -46.8640 81.06 -70.6155 11.10
         -46.8190 80.34 -0.7870 25.43 -41.6825 40.86
         -69.6740 12.09 -41.7187 41.00 -0.2941 -117.78
 440.0000 -0.1004 -40.53 -46.6659 79.63 -69.3574 12.20
         -46.6656 79.44 -0.7787 23.58 -41.5189 39.26
         -70.4997 16.78 -41.5024 39.27 -0.3012 -119.11
 445.0000 -0.1022 -40.93 -46.4867 78.39 -70.3823 10.44
         -46.4189 78.07 -0.7857 21.72 -41.2961 37.68
         -70.3631 7.37 -41.3174 37.68 -0.3079 -120.36
 450.0000 -0.1032 -41.42 -46.2981 77.22 -70.1414 10.80
         -46.2293 77.26 -0.7869 19.88 -41.0835 36.23
         -70.9677 10.24 -41.1148 36.15 -0.2983 -121.70
 455.0000 -0.1052 -41.89 -46.1089 76.11 -70.4216 3.23
         -46.0555 76.32 -0.7816 18.06 -40.8569 34.46
         -70.4162 7.34 -40.9010 34.58 -0.3067 -123.05
 460.0000 -0.1104 -42.39 -45.9476 75.29 -70.9269 9.28
         -45.8826 75.19 -0.7996 16.14 -40.6591 33.12
         -70.0768 1.79 -40.6974 32.92 -0.3058 -124.44
 465.0000 -0.1247 -42.84 -45.6523 73.60 -70.8029 8.58
         -45.6957 73.51 -0.8017 14.25 -40.4603 31.39
         -70.1109 4.38 -40.4905 31.29 -0.3066 -125.77
 470.0000 -0.1208 -43.19 -45.5102 72.86 -70.3002 4.16
         -45.4925 72.36 -0.7983 12.27 -40.2480 29.68
         -69.9532 4.80 -40.2712 29.89 -0.3142 -127.19
 475.0000 -0.1059 -43.64 -45.3922 71.71 -69.6478 5.93
         -45.3460 71.34 -0.8069 10.45 -40.0333 27.91
         -69.7372 4.23 -40.0511 28.06 -0.3314 -128.55
 480.0000 -0.1011 -44.15 -45.1689 70.47 -70.2986 4.56
         -45.1144 70.31 -0.8029 8.46 -39.8420 26.11
         -70.7381 1.22 -39.8629 26.37 -0.3337 -129.77
 485.0000 -0.0969 -44.64 -45.0059 69.24 -70.6232 4.06
         -44.9917 69.20 -0.8090 6.53 -39.7002 24.62
         -70.5615 5.78 -39.6874 24.73 -0.3214 -131.11
 490.0000 -0.1003 -45.13 -44.8355 67.90 -70.3179 4.28
         -44.7877 67.86 -0.8058 4.57 -39.4925 23.11
         -70.3498 5.67 -39.4796 23.38 -0.3254 -132.44
 495.0000 -0.1048 -45.61 -44.6047 66.74 -69.7092 7.51
         -44.5851 66.77 -0.8000 2.62 -39.2771 21.59
         -70.1658 1.86 -39.2656 21.64 -0.3279 -133.80
 500.0000 -0.1421 -46.12 -44.4522 65.21 -69.8861 -0.35
         -44.4466 65.27 -0.8015 0.58 -39.0821 19.95
         -70.2209 0.38 -39.0958 19.84 -0.3395 -135.13
 505.0000 -0.1405 -46.10 -44.3427 64.14 -70.2514 2.53
         -44.3555 63.69 -0.8018 -1.35 -38.8878 18.27
         -70.2021 1.79 -38.9157 18.05 -0.3595 -136.50
 510.0000 -0.1119 -46.61 -44.1845 63.25 -70.5971 1.83
         -44.1610 63.32 -0.8036 -3.27 -38.6951 16.79
         -69.9919 -1.77 -38.7089 16.47 -0.3917 -137.81
 515.0000 -0.1106 -47.10 -43.9493 61.88 -70.5094 2.10
         -43.9950 62.08 -0.7962 -5.17 -38.5001 14.26
         -70.2184 1.09 -38.5243 14.17 -0.3998 -138.85
 520.0000 -0.1167 -47.59 -43.8321 60.60 -70.1411 4.07
         -43.7752 60.64 -0.8001 -7.16 -38.3971 13.10
         -69.6352 0.99 -38.4162 13.12 -0.3744 -140.18
 525.0000 -0.1206 -48.09 -43.6289 59.41 -70.2091 3.11
         -43.6274 59.41 -0.7981 -9.10 -38.1873 11.77
         -69.8422 1.00 -38.2151 11.68 -0.3769 -141.57
 530.0000 -0.1449 -48.64 -43.4525 58.17 -70.3664 2.91
         -43.4504 58.22 -0.8049 -11.09 -37.9893 10.11
         -69.9842 -0.09 -37.9985 9.97 -0.3769 -142.94
 535.0000 -0.1952 -48.75 -43.3523 56.35 -69.9118 -4.93
         -43.3414 56.27 -0.8121 -13.02 -37.8041 8.58
         -69.1935 -0.66 -37.8130 8.35 -0.3819 -144.33
 540.0000 -0.1346 -49.07 -43.2663 55.86 -69.5843 -1.99
         -43.2764 55.97 -0.8211 -14.97 -37.5939 6.74
         -69.9509 -0.14 -37.6071 6.71 -0.4028 -145.71
 545.0000 -0.1194 -49.64 -43.0626 54.96 -69.9222 1.39
         -43.0549 55.07 -0.8299 -16.94 -37.3856 4.77
         -69.6047 0.42 -37.4040 4.60 -0.4364 -146.95
 550.0000 -0.1161 -50.17 -42.8665 53.61 -70.1790 -0.26
         -42.8749 53.71 -0.8313 -18.95 -37.3211 2.84
         -69.8405 -0.79 -37.3329 2.85 -0.4157 -148.09
 555.0000 -0.1159 -50.66 -42.7480 52.39 -70.0318 0.72
         -42.7078 52.23 -0.8369 -20.99 -37.1269 1.67
         -70.0057 -1.06 -37.1500 1.62 -0.3974 -149.50
 560.0000 -0.1159 -51.17 -42.5595 51.15 -69.4516 -0.10
         -42.5597 51.07 -0.8415 -23.06 -36.9317 -0.06
         -69.8719 -0.98 -36.9180 -0.15 -0.3966 -150.87
 565.0000 -0.1343 -51.67 -42.4138 49.52 -69.0138 -5.78
         -42.3878 49.64 -0.8466 -25.17 -36.7620 -1.74
         -69.4418 2.88 -36.7542 -1.76 -0.3961 -152.23
 570.0000 -0.1476 -51.86 -42.3370 48.28 -69.3866 -1.77
         -42.3638 48.17 -0.8519 -27.27 -36.5607 -3.43
         -69.5182 2.04 -36.5734 -3.44 -0.4049 -153.59
 575.0000 -0.1253 -52.20 -42.2384 47.39 -69.1947 -1.55
         -42.2062 47.35 -0.8569 -29.37 -36.4019 -5.19
         -69.2275 -1.00 -36.3984 -5.24 -0.4173 -154.94
 580.0000 -0.1122 -52.70 -42.0460 46.17 -69.3704 -2.70
         -42.0300 46.31 -0.8549 -31.47 -36.2107 -7.07
         -68.8936 -0.33 -36.2192 -7.05 -0.4506 -156.18
 585.0000 -0.1111 -53.19 -41.8671 44.89 -69.1987 -3.06
         -41.8658 44.99 -0.8551 -33.58 -36.0994 -8.94
         -68.9026 -5.71 -36.0954 -9.03 -0.4449 -157.33
 590.0000 -0.1174 -53.63 -41.7457 43.47 -68.9397 -3.26
         -41.7394 43.59 -0.8564 -35.68 -35.9545 -10.32
         -68.9417 -4.20 -35.9589 -10.49 -0.4380 -158.66
 595.0000 -0.1185 -54.09 -41.5886 42.25 -68.6796 -6.83
         -41.5916 42.33 -0.8557 -37.78 -35.7651 -11.94
         -69.0311 -3.93 -35.7882 -11.97 -0.4369 -160.01
 600.0000 -0.1293 -54.58 -41.4587 40.80 -68.5032 -3.07
         -41.4254 41.09 -0.8609 -39.86 -35.6026 -13.66
         -68.6493 -3.88 -35.6128 -13.70 -0.4468 -161.37
 605.0000 -0.1648 -54.91 -41.3694 39.23 -68.7133 -4.13
         -41.3493 39.50 -0.8661 -41.96 -35.4289 -15.33
         -68.7315 -5.22 -35.4414 -15.46 -0.4550 -162.71
 610.0000 -0.1441 -55.20 -41.2622 38.44 -68.9148 -5.55
         -41.2383 38.27 -0.8706 -44.04 -35.2619 -17.12
         -68.5631 -4.91 -35.2726 -17.16 -0.4649 -164.06
