# MHZ S MA R 50
012622.300 0.99781318 -024.923 0.00156308  154.626 0.00156308  154.626 0.99782890 -024.739
012622.500 0.99780404 -024.974 0.00156914  154.574 0.00156914  154.574 0.99781983 -024.790
012622.700 0.99779485 -025.026 0.00157523  154.521 0.00157523  154.521 0.99781070 -024.842
012622.900 0.99778560 -025.077 0.00158136  154.469 0.00158136  154.469 0.99780152 -024.893
012623.100 0.99777629 -025.129 0.00158752  154.416 0.00158752  154.416 0.99779227 -024.945
012623.300 0.99776692 -025.182 0.00159372  154.363 0.00159372  154.363 0.99778297 -024.996
012623.500 0.99775749 -025.234 0.00159995  154.310 0.00159995  154.310 0.99777360 -025.048
012623.700 0.99774800 -025.287 0.00160622  154.256 0.00160622  154.256 0.99776418 -025.101
012623.900 0.99773845 -025.340 0.00161253  154.202 0.00161253  154.202 0.99775469 -025.153
012624.100 0.99772884 -025.393 0.00161887  154.149 0.00161887  154.149 0.99774515 -025.206
012624.300 0.99771916 -025.446 0.00162525  154.094 0.00162525  154.094 0.99773554 -025.259
012624.500 0.99770942 -025.499 0.00163167  154.040 0.00163167  154.040 0.99772587 -025.312
012624.700 0.99769962 -025.553 0.00163812  153.985 0.00163812  153.985 0.99771613 -025.365
012624.900 0.99768975 -025.607 0.00164461  153.931 0.00164461  153.931 0.99770634 -025.419
012625.100 0.99767982 -025.661 0.00165114  153.875 0.00165114  153.875 0.99769647 -025.473
012625.300 0.99766983 -025.716 0.00165771  153.820 0.00165771  153.820 0.99768655 -025.527
012625.500 0.99765977 -025.771 0.00166431  153.765 0.00166431  153.765 0.99767656 -025.581
012625.700 0.99764964 -025.826 0.00167096  153.709 0.00167096  153.709 0.99766650 -025.636
012625.900 0.99763945 -025.881 0.00167764  153.653 0.00167764  153.653 0.99765638 -025.690
012626.100 0.99762919 -025.936 0.00168436  153.597 0.00168436  153.597 0.99764619 -025.745
012626.300 0.99761886 -025.992 0.00169112  153.540 0.00169112  153.540 0.99763593 -025.801
012626.500 0.99760846 -026.048 0.00169793  153.483 0.00169793  153.483 0.99762560 -025.856
012626.700 0.99759799 -026.104 0.00170477  153.426 0.00170477  153.426 0.99761521 -025.912
012626.900 0.99758746 -026.160 0.00171165  153.369 0.00171165  153.369 0.99760474 -025.968
012627.100 0.99757685 -026.217 0.00171857  153.312 0.00171857  153.312 0.99759421 -026.024
012627.300 0.99756617 -026.274 0.00172554  153.254 0.00172554  153.254 0.99758360 -026.081
012627.500 0.99755542 -026.331 0.00173254  153.196 0.00173254  153.196 0.99757293 -026.137
012627.700 0.99754460 -026.388 0.00173959  153.138 0.00173959  153.138 0.99756218 -026.194
012627.900 0.99753370 -026.446 0.00174668  153.079 0.00174668  153.079 0.99755136 -026.252
012628.100 0.99752273 -026.504 0.00175381  153.020 0.00175381  153.020 0.99754046 -026.309
012628.300 0.99751169 -026.562 0.00176099  152.961 0.00176099  152.961 0.99752950 -026.367
012628.500 0.99750057 -026.620 0.00176821  152.902 0.00176821  152.902 0.99751845 -026.425
012628.700 0.99748937 -026.679 0.00177547  152.842 0.00177547  152.842 0.99750733 -026.483
012628.900 0.99747810 -026.738 0.00178277  152.782 0.00178277  152.782 0.99749614 -026.542
012629.100 0.99746675 -026.797 0.00179012  152.722 0.00179012  152.722 0.99748487 -026.600
012629.300 0.99745533 -026.857 0.00179751  152.662 0.00179751  152.662 0.99747352 -026.659
012629.500 0.99744382 -026.916 0.00180495  152.601 0.00180495  152.601 0.99746210 -026.719
012629.700 0.99743224 -026.976 0.00181244  152.540 0.00181244  152.540 0.99745059 -026.778
012629.900 0.99742057 -027.037 0.00181996  152.479 0.00181996  152.479 0.99743901 -026.838
012630.100 0.99740883 -027.097 0.00182754  152.418 0.00182754  152.418 0.99742734 -026.898
012630.300 0.99739700 -027.158 0.00183516  152.356 0.00183516  152.356 0.99741559 -026.959
012630.500 0.99738509 -027.219 0.00184283  152.294 0.00184283  152.294 0.99740377 -027.019
012630.700 0.99737310 -027.281 0.00185054  152.232 0.00185054  152.232 0.99739186 -027.080
012630.900 0.99736102 -027.342 0.00185830  152.169 0.00185830  152.169 0.99737986 -027.141
012631.100 0.99734886 -027.404 0.00186611  152.106 0.00186611  152.106 0.99736778 -027.203
012631.300 0.99733661 -027.466 0.00187397  152.043 0.00187397  152.043 0.99735562 -027.265
012631.500 0.99732428 -027.529 0.00188187  151.980 0.00188187  151.980 0.99734337 -027.327
012631.700 0.99731186 -027.592 0.00188983  151.916 0.00188983  151.916 0.99733103 -027.389
012631.900 0.99729935 -027.655 0.00189783  151.852 0.00189783  151.852 0.99731861 -027.452
012632.100 0.99728675 -027.718 0.00190588  151.787 0.00190588  151.787 0.99730610 -027.515
012632.300 0.99727406 -027.782 0.00191399  151.723 0.00191399  151.723 0.99729350 -027.578
012632.500 0.99726128 -027.846 0.00192214  151.658 0.00192214  151.658 0.99728081 -027.642
012632.700 0.99724841 -027.910 0.00193034  151.593 0.00193034  151.593 0.99726802 -027.705
012632.900 0.99723545 -027.975 0.00193860  151.527 0.00193860  151.527 0.99725515 -027.770
012633.100 0.99722240 -028.040 0.00194690  151.461 0.00194690  151.461 0.99724218 -027.834
012633.300 0.99720925 -028.105 0.00195526  151.395 0.00195526  151.395 0.99722912 -027.899
012633.500 0.99719600 -028.171 0.00196367  151.329 0.00196367  151.329 0.99721597 -027.964
012633.700 0.99718266 -028.236 0.00197214  151.262 0.00197214  151.262 0.99720272 -028.029
012633.900 0.99716922 -028.303 0.00198065  151.195 0.00198065  151.195 0.99718937 -028.095
012634.100 0.99715569 -028.369 0.00198922  151.127 0.00198922  151.127 0.99717593 -028.161
012634.300 0.99714205 -028.436 0.00199785  151.059 0.00199785  151.059 0.99716239 -028.227
012634.500 0.99712832 -028.503 0.00200652  150.991 0.00200652  150.991 0.99714874 -028.294
012634.700 0.99711448 -028.570 0.00201526  150.923 0.00201526  150.923 0.99713500 -028.361
012634.900 0.99710054 -028.638 0.00202405  150.854 0.00202405  150.854 0.99712116 -028.428
012635.100 0.99708650 -028.706 0.00203289  150.785 0.00203289  150.785 0.99710721 -028.496
012635.300 0.99707236 -028.775 0.00204179  150.716 0.00204179  150.716 0.99709316 -028.564
012635.500 0.99705811 -028.843 0.00205075  150.646 0.00205075  150.646 0.99707901 -028.632
012635.700 0.99704375 -028.912 0.00205977  150.576 0.00205977  150.576 0.99706475 -028.700
012635.900 0.99702929 -028.982 0.00206884  150.505 0.00206884  150.505 0.99705039 -028.769
012636.100 0.99701472 -029.052 0.00207797  150.435 0.00207797  150.435 0.99703592 -028.839
012636.300 0.99700004 -029.122 0.00208716  150.364 0.00208716  150.364 0.99702133 -028.908
012636.500 0.99698525 -029.192 0.00209640  150.292 0.00209640  150.292 0.99700664 -028.978
012636.700 0.99697035 -029.263 0.00210571  150.220 0.00210571  150.220 0.99699184 -029.049
012636.900 0.99695533 -029.334 0.00211508  150.148 0.00211508  150.148 0.99697693 -029.119
012637.100 0.99694020 -029.406 0.00212451  150.076 0.00212451  150.076 0.99696190 -029.190
012637.300 0.99692496 -029.477 0.00213400  150.003 0.00213400  150.003 0.99694676 -029.262
012637.500 0.99690960 -029.550 0.00214355  149.930 0.00214355  149.930 0.99693150 -029.333
012637.700 0.99689412 -029.622 0.00215316  149.856 0.00215316  149.856 0.99691613 -029.405
012637.900 0.99687852 -029.695 0.00216283  149.782 0.00216283  149.782 0.99690064 -029.478
012638.100 0.99686281 -029.769 0.00217257  149.708 0.00217257  149.708 0.99688502 -029.551
012638.300 0.99684697 -029.842 0.00218237  149.633 0.00218237  149.633 0.99686929 -029.624
012638.500 0.99683101 -029.916 0.00219224  149.558 0.00219224  149.558 0.99685344 -029.697
012638.700 0.99681492 -029.991 0.00220217  149.483 0.00220217  149.483 0.99683746 -029.771
012638.900 0.99679872 -030.066 0.00221216  149.407 0.00221216  149.407 0.99682136 -029.845
012639.100 0.99678238 -030.141 0.00222223  149.330 0.00222223  149.330 0.99680514 -029.920
012639.300 0.99676592 -030.216 0.00223235  149.254 0.00223235  149.254 0.99678878 -029.995
012639.500 0.99674932 -030.292 0.00224255  149.177 0.00224255  149.177 0.99677230 -030.070
012639.700 0.99673260 -030.369 0.00225281  149.099 0.00225281  149.099 0.99675569 -030.146
012639.900 0.99671575 -030.445 0.00226313  149.022 0.00226313  149.022 0.99673895 -030.223
012640.100 0.99669876 -030.522 0.00227353  148.944 0.00227353  148.944 0.99672208 -030.299
012640.300 0.99668164 -030.600 0.00228400  148.865 0.00228400  148.865 0.99670507 -030.376
012640.500 0.99666438 -030.678 0.00229453  148.786 0.00229453  148.786 0.99668793 -030.453
012640.700 0.99664698 -030.756 0.00230514  148.707 0.00230514  148.707 0.99667064 -030.531
012640.900 0.99662945 -030.835 0.00231581  148.627 0.00231581  148.627 0.99665323 -030.609
012641.100 0.99661177 -030.914 0.00232656  148.546 0.00232656  148.546 0.99663567 -030.688
012641.300 0.99659395 -030.994 0.00233738  148.466 0.00233738  148.466 0.99661797 -030.767
012641.500 0.99657599 -031.074 0.00234827  148.385 0.00234827  148.385 0.99660013 -030.847
012641.700 0.99655788 -031.154 0.00235924  148.303 0.00235924  148.303 0.99658214 -030.926
012641.900 0.99653963 -031.235 0.00237027  148.221 0.00237027  148.221 0.99656401 -031.007
012642.100 0.99652123 -031.316 0.00238139  148.139 0.00238139  148.139 0.99654573 -031.087
012642.300 0.99650268 -031.398 0.00239257  148.056 0.00239257  148.056 0.99652730 -031.169
012642.500 0.99648397 -031.480 0.00240383  147.973 0.00240383  147.973 0.99650872 -031.250
012642.700 0.99646511 -031.563 0.00241517  147.889 0.00241517  147.889 0.99648998 -031.332
012642.900 0.99644610 -031.646 0.00242659  147.805 0.00242659  147.805 0.99647110 -031.415
012643.100 0.99642693 -031.729 0.00243808  147.721 0.00243808  147.721 0.99645205 -031.498
012643.300 0.99640760 -031.813 0.00244965  147.636 0.00244965  147.636 0.99643285 -031.581
012643.500 0.99638811 -031.898 0.00246130  147.550 0.00246130  147.550 0.99641349 -031.665
012643.700 0.99636846 -031.983 0.00247303  147.464 0.00247303  147.464 0.99639397 -031.749
012643.900 0.99634864 -032.068 0.00248484  147.378 0.00248484  147.378 0.99637428 -031.834
012644.100 0.99632866 -032.154 0.00249673  147.291 0.00249673  147.291 0.99635443 -031.919
012644.300 0.99630851 -032.240 0.00250870  147.204 0.00250870  147.204 0.99633442 -032.005
012644.500 0.99628819 -032.327 0.00252075  147.116 0.00252075  147.116 0.99631423 -032.091
012644.700 0.99626770 -032.414 0.00253288  147.027 0.00253288  147.027 0.99629387 -032.177
012644.900 0.99624703 -032.502 0.00254510  146.939 0.00254510  146.939 0.99627334 -032.264
012645.100 0.99622619 -032.590 0.00255740  146.849 0.00255740  146.849 0.99625264 -032.352
012645.300 0.99620517 -032.679 0.00256979  146.760 0.00256979  146.760 0.99623176 -032.440
012645.500 0.99618397 -032.768 0.00258226  146.669 0.00258226  146.669 0.99621070 -032.528
012645.700 0.99616259 -032.857 0.00259482  146.579 0.00259482  146.579 0.99618945 -032.618
012645.900 0.99614102 -032.948 0.00260747  146.487 0.00260747  146.487 0.99616803 -032.707
012646.100 0.99611927 -033.038 0.00262020  146.396 0.00262020  146.396 0.99614642 -032.797
012646.300 0.99609733 -033.129 0.00263302  146.303 0.00263302  146.303 0.99612462 -032.888
012646.500 0.99607520 -033.221 0.00264593  146.210 0.00264593  146.210 0.99610264 -032.979
012646.700 0.99605288 -033.313 0.00265893  146.117 0.00265893  146.117 0.99608046 -033.070
012646.900 0.99603036 -033.406 0.00267202  146.023 0.00267202  146.023 0.99605808 -033.162
012647.100 0.99600764 -033.499 0.00268520  145.929 0.00268520  145.929 0.99603551 -033.255
012647.300 0.99598472 -033.593 0.00269848  145.834 0.00269848  145.834 0.99601274 -033.348
012647.500 0.99596160 -033.688 0.00271184  145.738 0.00271184  145.738 0.99598978 -033.442
012647.700 0.99593828 -033.782 0.00272530  145.642 0.00272530  145.642 0.99596660 -033.536
012647.900 0.99591474 -033.878 0.00273886  145.546 0.00273886  145.546 0.99594322 -033.631
012648.100 0.99589100 -033.974 0.00275251  145.449 0.00275251  145.449 0.99591963 -033.726
012648.300 0.99586705 -034.071 0.00276625  145.351 0.00276625  145.351 0.99589583 -033.822
012648.500 0.99584288 -034.168 0.00278009  145.253 0.00278009  145.253 0.99587182 -033.919
012648.700 0.99581849 -034.265 0.00279403  145.154 0.00279403  145.154 0.99584759 -034.016
012648.900 0.99579388 -034.364 0.00280807  145.055 0.00280807  145.055 0.99582314 -034.113
012649.100 0.99576905 -034.463 0.00282221  144.955 0.00282221  144.955 0.99579847 -034.211
012649.300 0.99574399 -034.562 0.00283644  144.854 0.00283644  144.854 0.99577358 -034.310
012649.500 0.99571871 -034.662 0.00285078  144.753 0.00285078  144.753 0.99574845 -034.410
012649.700 0.99569319 -034.763 0.00286522  144.651 0.00286522  144.651 0.99572310 -034.509
012649.900 0.99566744 -034.864 0.00287976  144.549 0.00287976  144.549 0.99569751 -034.610
012650.100 0.99564145 -034.966 0.00289441  144.446 0.00289441  144.446 0.99567169 -034.711
012650.300 0.99561522 -035.068 0.00290915  144.342 0.00290915  144.342 0.99564563 -034.813
012650.500 0.99558875 -035.171 0.00292401  144.238 0.00292401  144.238 0.99561933 -034.915
012650.700 0.99556203 -035.275 0.00293897  144.133 0.00293897  144.133 0.99559278 -035.018
012650.900 0.99553506 -035.379 0.00295403  144.028 0.00295403  144.028 0.99556598 -035.122
012651.100 0.99550784 -035.484 0.00296921  143.922 0.00296921  143.922 0.99553894 -035.226
012651.300 0.99548036 -035.590 0.00298449  143.815 0.00298449  143.815 0.99551163 -035.331
012651.500 0.99545262 -035.696 0.00299988  143.708 0.00299988  143.708 0.99548407 -035.436
012651.700 0.99542462 -035.803 0.00301538  143.600 0.00301538  143.600 0.99545625 -035.543
012651.900 0.99539636 -035.911 0.00303099  143.491 0.00303099  143.491 0.99542817 -035.649
012652.100 0.99536782 -036.019 0.00304672  143.382 0.00304672  143.382 0.99539981 -035.757
012652.300 0.99533901 -036.128 0.00306255  143.272 0.00306255  143.272 0.99537118 -035.865
012652.500 0.99530993 -036.237 0.00307850  143.161 0.00307850  143.161 0.99534228 -035.974
012652.700 0.99528056 -036.348 0.00309457  143.050 0.00309457  143.050 0.99531310 -036.083
012652.900 0.99525091 -036.458 0.00311075  142.938 0.00311075  142.938 0.99528364 -036.194
012653.100 0.99522097 -036.570 0.00312704  142.825 0.00312704  142.825 0.99525389 -036.304
012653.300 0.99519074 -036.683 0.00314346  142.712 0.00314346  142.712 0.99522385 -036.416
012653.500 0.99516022 -036.796 0.00315999  142.598 0.00315999  142.598 0.99519352 -036.528
012653.700 0.99512939 -036.909 0.00317664  142.483 0.00317664  142.483 0.99516289 -036.641
012653.900 0.99509826 -037.024 0.00319341  142.367 0.00319341  142.367 0.99513196 -036.755
012654.100 0.99506683 -037.139 0.00321030  142.251 0.00321030  142.251 0.99510072 -036.870
012654.300 0.99503508 -037.255 0.00322731  142.134 0.00322731  142.134 0.99506917 -036.985
012654.500 0.99500302 -037.372 0.00324445  142.016 0.00324445  142.016 0.99503731 -037.101
012654.700 0.99497063 -037.489 0.00326171  141.897 0.00326171  141.897 0.99500513 -037.217
012654.900 0.99493792 -037.608 0.00327909  141.778 0.00327909  141.778 0.99497262 -037.335
012655.100 0.99490489 -037.727 0.00329660  141.658 0.00329660  141.658 0.99493979 -037.453
012655.300 0.99487151 -037.847 0.00331424  141.537 0.00331424  141.537 0.99490663 -037.572
012655.500 0.99483780 -037.967 0.00333200  141.415 0.00333200  141.415 0.99487313 -037.692
012655.700 0.99480375 -038.089 0.00334990  141.293 0.00334990  141.293 0.99483928 -037.812
012655.900 0.99476935 -038.211 0.00336792  141.170 0.00336792  141.170 0.99480510 -037.934
012656.100 0.99473459 -038.334 0.00338607  141.046 0.00338607  141.046 0.99477056 -038.056
012656.300 0.99469948 -038.458 0.00340435  140.921 0.00340435  140.921 0.99473566 -038.179
012656.500 0.99466401 -038.582 0.00342277  140.795 0.00342277  140.795 0.99470041 -038.303
012656.700 0.99462816 -038.708 0.00344132  140.669 0.00344132  140.669 0.99466479 -038.428
012656.900 0.99459195 -038.834 0.00346000  140.541 0.00346000  140.541 0.99462879 -038.553
012657.100 0.99455535 -038.962 0.00347881  140.413 0.00347881  140.413 0.99459242 -038.679
012657.300 0.99451838 -039.090 0.00349777  140.284 0.00349777  140.284 0.99455567 -038.807
012657.500 0.99448101 -039.219 0.00351686  140.154 0.00351686  140.154 0.99451853 -038.935
012657.700 0.99444324 -039.348 0.00353608  140.024 0.00353608  140.024 0.99448100 -039.064
012657.900 0.99440508 -039.479 0.00355545  139.892 0.00355545  139.892 0.99444307 -039.193
012658.100 0.99436651 -039.611 0.00357495  139.759 0.00357495  139.759 0.99440473 -039.324
012658.300 0.99432752 -039.743 0.00359460  139.626 0.00359460  139.626 0.99436599 -039.456
012658.500 0.99428812 -039.877 0.00361438  139.492 0.00361438  139.492 0.99432682 -039.588
012658.700 0.99424829 -040.011 0.00363431  139.356 0.00363431  139.356 0.99428724 -039.722
012658.900 0.99420803 -040.146 0.00365438  139.220 0.00365438  139.220 0.99424722 -039.856
012659.100 0.99416734 -040.283 0.00367460  139.083 0.00367460  139.083 0.99420677 -039.992
012659.300 0.99412620 -040.420 0.00369496  138.945 0.00369496  138.945 0.99416588 -040.128
012659.500 0.99408460 -040.558 0.00371547  138.806 0.00371547  138.806 0.99412454 -040.265
012659.700 0.99404255 -040.697 0.00373612  138.666 0.00373612  138.666 0.99408274 -040.403
012659.900 0.99400004 -040.838 0.00375692  138.525 0.00375692  138.525 0.99404048 -040.543
012660.100 0.99395705 -040.979 0.00377786  138.383 0.00377786  138.383 0.99399775 -040.683
012660.300 0.99391359 -041.121 0.00379896  138.240 0.00379896  138.240 0.99395455 -040.824
012660.500 0.99386963 -041.264 0.00382021  138.096 0.00382021  138.096 0.99391086 -040.966
012660.700 0.99382519 -041.409 0.00384160  137.951 0.00384160  137.951 0.99386668 -041.110
012660.900 0.99378024 -041.554 0.00386315  137.805 0.00386315  137.805 0.99382200 -041.254
012661.100 0.99373478 -041.700 0.00388485  137.658 0.00388485  137.658 0.99377681 -041.399
012661.300 0.99368881 -041.848 0.00390670  137.510 0.00390670  137.510 0.99373111 -041.546
012661.500 0.99364231 -041.996 0.00392871  137.360 0.00392871  137.360 0.99368488 -041.694
012661.700 0.99359527 -042.146 0.00395087  137.210 0.00395087  137.210 0.99363813 -041.842
012661.900 0.99354770 -042.297 0.00397318  137.059 0.00397318  137.059 0.99359083 -041.992
012662.100 0.99349957 -042.449 0.00399565  136.906 0.00399565  136.906 0.99354299 -042.143
012662.300 0.99345088 -042.602 0.00401827  136.753 0.00401827  136.753 0.99349458 -042.295
012662.500 0.99340163 -042.756 0.00404105  136.598 0.00404105  136.598 0.99344562 -042.448
012662.700 0.99335179 -042.911 0.00406399  136.442 0.00406399  136.442 0.99339608 -042.602
012662.900 0.99330137 -043.068 0.00408709  136.285 0.00408709  136.285 0.99334595 -042.758
012663.100 0.99325035 -043.225 0.00411034  136.127 0.00411034  136.127 0.99329523 -042.914
012663.300 0.99319873 -043.384 0.00413375  135.968 0.00413375  135.968 0.99324390 -043.072
012663.500 0.99314649 -043.544 0.00415732  135.807 0.00415732  135.807 0.99319197 -043.231
012663.700 0.99309362 -043.706 0.00418105  135.645 0.00418105  135.645 0.99313940 -043.392
012663.900 0.99304012 -043.868 0.00420494  135.483 0.00420494  135.483 0.99308621 -043.553
012664.100 0.99298597 -044.032 0.00422898  135.318 0.00422898  135.318 0.99303237 -043.716
012664.300 0.99293115 -044.197 0.00425319  135.153 0.00425319  135.153 0.99297787 -043.880
012664.500 0.99287567 -044.364 0.00427756  134.986 0.00427756  134.986 0.99292271 -044.045
012664.700 0.99281951 -044.532 0.00430208  134.818 0.00430208  134.818 0.99286687 -044.212
012664.900 0.99276266 -044.701 0.00432677  134.649 0.00432677  134.649 0.99281034 -044.380
012665.100 0.99270510 -044.871 0.00435161  134.478 0.00435161  134.478 0.99275311 -044.549
012665.300 0.99264683 -045.043 0.00437662  134.307 0.00437662  134.307 0.99269516 -044.720
012665.500 0.99258782 -045.216 0.00440179  134.133 0.00440179  134.133 0.99263649 -044.892
012665.700 0.99252808 -045.391 0.00442711  133.959 0.00442711  133.959 0.99257708 -045.066
012665.900 0.99246758 -045.567 0.00445259  133.783 0.00445259  133.783 0.99251692 -045.240
