# common Lossy filters synthesis common functions.  software, version 1.0
# [S] parameters file in TouchStone format.

# GHz S dB

  !Freq                   S11(dB)                 S11(ang)                S12(dB)                 S12(ang)                S21(dB)                 S21(ang)                S22(dB)                 S22(ang)              
4.5                     -0.071392397882674       -25.632209695402        -88.794410378941         -121.8695555367         -88.794410378941         -121.8695555367         -0.071392397882674       -25.632209695402        
4.5015015015            -0.071753767028657       -25.695790069441        -88.667212959937         -121.94880374676        -88.667212959937         -121.94880374676        -0.071753767028657       -25.695790069441        
4.503003003             -0.072117797786432       -25.759668107355        -88.539746179463         -122.02842442709        -88.539746179463         -122.02842442709        -0.072117797786432       -25.759668107355        
4.5045045045            -0.072484516569063       -25.823845958625        -88.412008728602         -122.10842028083        -88.412008728602         -122.10842028083        -0.072484516569063       -25.823845958625        
4.50600600601           -0.072853950122607       -25.888325793872        -88.283999288891         -122.18879403786        -88.283999288891         -122.18879403786        -0.072853950122607       -25.888325793872        
4.50750750751           -0.073226125531271       -25.953109805121        -88.15571653222          -122.26954845513        -88.15571653222          -122.26954845513        -0.073226125531271       -25.953109805121        
4.50900900901           -0.073601070222613       -26.018200206073        -88.027159120742         -122.35068631704        -88.027159120742         -122.35068631704        -0.073601070222613       -26.018200206073        
4.51051051051           -0.073978811972842       -26.083599232372        -87.898325706774         -122.43221043573        -87.898325706774         -122.43221043573        -0.073978811972842       -26.083599232372        
4.51201201201           -0.074359378912266       -26.149309141891        -87.769214932697         -122.51412365146        -87.769214932697         -122.51412365146        -0.074359378912266       -26.149309141891        
4.51351351351           -0.074742799530767       -26.215332215008        -87.639825430855         -122.596428833          -87.639825430855         -122.596428833          -0.074742799530767       -26.215332215008        
4.51501501502           -0.075129102683435       -26.281670754891        -87.510155823457         -122.67912887794        -87.510155823457         -122.67912887794        -0.075129102683435       -26.281670754891        
4.51651651652           -0.075518317596277       -26.348327087797        -87.380204722471         -122.76222671309        -87.380204722471         -122.76222671309        -0.075518317596277       -26.348327087797        
4.51801801802           -0.075910473872034       -26.415303563358        -87.249970729524         -122.84572529487        -87.249970729524         -122.84572529487        -0.075910473872034       -26.415303563358        
4.51951951952           -0.076305601496131       -26.482602554886        -87.119452435791         -122.92962760964        -87.119452435791         -122.92962760964        -0.076305601496131       -26.482602554886        
4.52102102102           -0.076703730842698       -26.550226459677        -86.988648421893         -123.01393667417        -86.988648421893         -123.01393667417        -0.076703730842698       -26.550226459677        
4.52252252252           -0.077104892680737       -26.618177699318        -86.85755725779          -123.09865553594        -86.85755725779          -123.09865553594        -0.077104892680737       -26.618177699318        
4.52402402402           -0.077509118180389       -26.686458720004        -86.726177502666         -123.18378727361        -86.726177502666         -123.18378727361        -0.077509118180389       -26.686458720004        
4.52552552553           -0.077916438919332       -26.755071992857        -86.594507704823         -123.26933499741        -86.594507704823         -123.26933499741        -0.077916438919332       -26.755071992857        
4.52702702703           -0.078326886889267       -26.824020014248        -86.462546401566         -123.35530184953        -86.462546401566         -123.35530184953        -0.078326886889267       -26.824020014248        
4.52852852853           -0.078740494502586       -26.893305306129        -86.330292119091         -123.44169100457        -86.330292119091         -123.44169100457        -0.078740494502586       -26.893305306129        
4.53003003003           -0.079157294599102       -26.962930416365        -86.197743372369         -123.52850566995        -86.197743372369         -123.52850566995        -0.079157294599102       -26.962930416365        
4.53153153153           -0.079577320452948       -27.03289791908         -86.06489866503          -123.61574908635        -86.06489866503          -123.61574908635        -0.079577320452948       -27.03289791908         
4.53303303303           -0.080000605779601       -27.103210414993        -85.931756489242         -123.70342452816        -85.931756489242         -123.70342452816        -0.080000605779601       -27.103210414993        
4.53453453453           -0.080427184743034       -27.173870531777        -85.798315325593         -123.79153530389        -85.798315325593         -123.79153530389        -0.080427184743034       -27.173870531777        
4.53603603604           -0.080857091963005       -27.244880924413        -85.664573642972         -123.88008475666        -85.664573642972         -123.88008475666        -0.080857091963005       -27.244880924413        
4.53753753754           -0.081290362522501       -27.316244275554        -85.530529898441         -123.96907626468        -85.530529898441         -123.96907626468        -0.081290362522501       -27.316244275554        
4.53903903904           -0.081727031975289       -27.38796329589         -85.396182537113         -124.05851324167        -85.396182537113         -124.05851324167        -0.081727031975289       -27.38796329589         
4.54054054054           -0.082167136353684       -27.460040724526        -85.261529992024         -124.14839913736        -85.261529992024         -124.14839913736        -0.082167136353684       -27.460040724526        
4.54204204204           -0.082610712176385       -27.53247932936         -85.126570684008         -124.23873743799        -85.126570684008         -124.23873743799        -0.082610712176385       -27.53247932936         
4.54354354354           -0.083057796456514       -27.605281907472        -84.991303021564         -124.32953166679        -84.991303021564         -124.32953166679        -0.083057796456514       -27.605281907472        
4.54504504505           -0.083508426709821       -27.678451285518        -84.855725400724         -124.42078538448        -84.855725400724         -124.42078538448        -0.083508426709821       -27.678451285518        
4.54654654655           -0.083962640963001       -27.751990320124        -84.719836204923         -124.51250218978        -84.719836204923         -124.51250218978        -0.083962640963001       -27.751990320124        
4.54804804805           -0.084420477762236       -27.8259018983          -84.583633804861         -124.60468571994        -84.583633804861         -124.60468571994        -0.084420477762236       -27.8259018983          
4.54954954955           -0.084881976181859       -27.900188937846        -84.447116558365         -124.69733965125        -84.447116558365         -124.69733965125        -0.084881976181859       -27.900188937846        
4.55105105105           -0.085347175833197       -27.974854387778        -84.310282810253         -124.79046769962        -84.310282810253         -124.79046769962        -0.085347175833197       -27.974854387778        
4.55255255255           -0.085816116873633       -28.049901228751        -84.173130892192         -124.88407362103        -84.173130892192         -124.88407362103        -0.085816116873633       -28.049901228751        
4.55405405405           -0.086288840015779       -28.125332473495        -84.035659122554         -124.97816121221        -84.035659122554         -124.97816121221        -0.086288840015779       -28.125332473495        
4.55555555556           -0.086765386536892       -28.201151167252        -83.897865806271         -125.07273431111        -83.897865806271         -125.07273431111        -0.086765386536892       -28.201151167252        
4.55705705706           -0.087245798288451       -28.277360388234        -83.759749234691         -125.16779679749        -83.759749234691         -125.16779679749        -0.087245798288451       -28.277360388234        
4.55855855856           -0.087730117705937       -28.353963248069        -83.621307685427         -125.26335259354        -83.621307685427         -125.26335259354        -0.087730117705937       -28.353963248069        
4.56006006006           -0.088218387818802       -28.430962892273        -83.482539422205         -125.35940566445        -83.482539422205         -125.35940566445        -0.088218387818802       -28.430962892273        
4.56156156156           -0.088710652260642       -28.508362500718        -83.343442694714         -125.455960019          -83.343442694714         -125.455960019          -0.088710652260642       -28.508362500718        
4.56306306306           -0.089206955279595       -28.586165288113        -83.204015738448         -125.55301971019        -83.204015738448         -125.55301971019        -0.089206955279595       -28.586165288113        
4.56456456456           -0.089707341748926       -28.664374504492        -83.06425677455          -125.65058883587        -83.06425677455          -125.65058883587        -0.089707341748926       -28.664374504492        
4.56606606607           -0.090211857177841       -28.742993435712        -82.924164009652         -125.74867153936        -82.924164009652         -125.74867153936        -0.090211857177841       -28.742993435712        
4.56756756757           -0.090720547722523       -28.822025403958        -82.783735635714         -125.84727201011        -82.783735635714         -125.84727201011        -0.090720547722523       -28.822025403958        
4.56906906907           -0.091233460197401       -28.901473768255        -82.642969829859         -125.94639448434        -82.642969829859         -125.94639448434        -0.091233460197401       -28.901473768255        
4.57057057057           -0.091750642086643       -28.981341924993        -82.501864754205         -126.04604324573        -82.501864754205         -126.04604324573        -0.091750642086643       -28.981341924993        
4.57207207207           -0.092272141555888       -29.06163330846         -82.3604185557           -126.14622262607        -82.3604185557           -126.14622262607        -0.092272141555888       -29.06163330846         
4.57357357357           -0.092798007464225       -29.142351391379        -82.218629365947         -126.24693700601        -82.218629365947         -126.24693700601        -0.092798007464225       -29.142351391379        
4.57507507508           -0.093328289376428       -29.223499685466        -82.076495301033         -126.34819081569        -82.076495301033         -126.34819081569        -0.093328289376428       -29.223499685466        
4.57657657658           -0.093863037575453       -29.30508174198         -81.93401446135          -126.44998853551        -81.93401446135          -126.44998853551        -0.093863037575453       -29.30508174198         
4.57807807808           -0.094402303075162       -29.387101152306        -81.791184931418         -126.55233469686        -81.791184931418         -126.55233469686        -0.094402303075162       -29.387101152306        
4.57957957958           -0.094946137633368       -29.469561548525        -81.648004779704         -126.65523388281        -81.648004779704         -126.65523388281        -0.094946137633368       -29.469561548525        
4.58108108108           -0.095494593765106       -29.55246660401         -81.504472058436         -126.75869072895        -81.504472058436         -126.75869072895        -0.095494593765106       -29.55246660401         
4.58258258258           -0.096047724756239       -29.635820034027        -81.36058480342          -126.86270992408        -81.36058480342          -126.86270992408        -0.096047724756239       -29.635820034027        
4.58408408408           -0.096605584677294       -29.719625596343        -81.216341033843         -126.96729621104        -81.216341033843         -126.96729621104        -0.096605584677294       -29.719625596343        
4.58558558559           -0.097168228397648       -29.803887091856        -81.071738752092         -127.07245438751        -81.071738752092         -127.07245438751        -0.097168228397648       -29.803887091856        
4.58708708709           -0.097735711599997       -29.888608365224        -80.926775943547         -127.17818930679        -80.926775943547         -127.17818930679        -0.097735711599997       -29.888608365224        
4.58858858859           -0.098308090795113       -29.973793305511        -80.781450576393         -127.28450587865        -80.781450576393         -127.28450587865        -0.098308090795113       -29.973793305511        
4.59009009009           -0.098885423336977       -30.059445846846        -80.635760601411         -127.39140907017        -80.635760601411         -127.39140907017        -0.098885423336977       -30.059445846846        
4.59159159159           -0.099467767438181       -30.145569969094        -80.489703951782         -127.4989039066         -80.489703951782         -127.4989039066         -0.099467767438181       -30.145569969094        
4.59309309309           -0.1000551821857         -30.23216969853         -80.343278542872         -127.60699547223        -80.343278542872         -127.60699547223        -0.1000551821857         -30.23216969853         
4.59459459459           -0.10064772755701        -30.319249108544        -80.196482272028         -127.71568891128        -80.196482272028         -127.71568891128        -0.10064772755701        -30.319249108544        
4.5960960961            -0.10124546443653        -30.406812320337        -80.049313018363         -127.8249894288         -80.049313018363         -127.8249894288         -0.10124546443653        -30.406812320337        
4.5975975976            -0.10184845463246        -30.49486350365         -79.901768642538         -127.9349022916         -79.901768642538         -127.9349022916         -0.10184845463246        -30.49486350365         
4.5990990991            -0.10245676089398        -30.583406877488        -79.753846986545         -128.04543282918        -79.753846986545         -128.04543282918        -0.10245676089398        -30.583406877488        
4.6006006006            -0.10307044692882        -30.672446710876        -79.605545873481         -128.15658643472        -79.605545873481         -128.15658643472        -0.10307044692882        -30.672446710876        
4.6021021021            -0.10368957742121        -30.76198732361         -79.456863107325         -128.26836856602        -79.456863107325         -128.26836856602        -0.10368957742121        -30.76198732361         
4.6036036036            -0.10431421805029        -30.85203308704         -79.307796472706         -128.3807847465         -79.307796472706         -128.3807847465         -0.10431421805029        -30.85203308704         
4.60510510511           -0.10494443550886        -30.942588424855        -79.158343734668         -128.49384056622        -79.158343734668         -128.49384056622        -0.10494443550886        -30.942588424855        
4.60660660661           -0.10558029752258        -31.033657813886        -79.008502638439         -128.60754168291        -79.008502638439         -128.60754168291        -0.10558029752258        -31.033657813886        
4.60810810811           -0.10622187286964        -31.125245784928        -78.858270909183         -128.72189382304        -78.858270909183         -128.72189382304        -0.10622187286964        -31.125245784928        
4.60960960961           -0.1068692314008         -31.217356923576        -78.707646251761         -128.83690278285        -78.707646251761         -128.83690278285        -0.1068692314008         -31.217356923576        
4.61111111111           -0.10752244405994        -31.309995871069        -78.556626350479         -128.95257442948        -78.556626350479         -128.95257442948        -0.10752244405994        -31.309995871069        
4.61261261261           -0.10818158290511        -31.403167325165        -78.40520886884          -129.06891470207        -78.40520886884          -129.06891470207        -0.10818158290511        -31.403167325165        
4.61411411411           -0.10884672112993        -31.49687604102         -78.253391449287         -129.18592961288        -78.253391449287         -129.18592961288        -0.10884672112993        -31.49687604102         
4.61561561562           -0.10951793308565        -31.591126832086        -78.101171712938         -129.30362524849        -78.101171712938         -129.30362524849        -0.10951793308565        -31.591126832086        
4.61711711712           -0.1101952943036         -31.685924571038        -77.948547259331         -129.42200777092        -77.948547259331         -129.42200777092        -0.1101952943036         -31.685924571038        
4.61861861862           -0.11087888151821        -31.781274190697        -77.795515666148         -129.54108341888        -77.795515666148         -129.54108341888        -0.11087888151821        -31.781274190697        
4.62012012012           -0.11156877269057        -31.877180684995        -77.642074488947         -129.66085850896        -77.642074488947         -129.66085850896        -0.11156877269057        -31.877180684995        
4.62162162162           -0.11226504703247        -31.973649109939        -77.488221260882         -129.78133943693        -77.488221260882         -129.78133943693        -0.11226504703247        -31.973649109939        
4.62312312312           -0.11296778503112        -32.07068458461         -77.333953492425         -129.90253267896        -77.333953492425         -129.90253267896        -0.11296778503112        -32.07068458461         
4.62462462462           -0.11367706847434        -32.168292292165        -77.17926867108          -130.02444479294        -77.17926867108          -130.02444479294        -0.11367706847434        -32.168292292165        
4.62612612613           -0.11439298047645        -32.266477480876        -77.024164261089         -130.14708241982        -77.024164261089         -130.14708241982        -0.11439298047645        -32.266477480876        
4.62762762763           -0.11511560550464        -32.365245465175        -76.868637703142         -130.27045228495        -76.868637703142         -130.27045228495        -0.11511560550464        -32.365245465175        
4.62912912913           -0.11584502940609        -32.464601626731        -76.712686414075         -130.39456119943        -76.712686414075         -130.39456119943        -0.11584502940609        -32.464601626731        
4.63063063063           -0.11658133943569        -32.564551415538        -76.556307786564         -130.5194160616         -76.556307786564         -130.5194160616         -0.11658133943569        -32.564551415538        
