! Created Fri Nov 21 14:29:45 2014
# hz S ma R 50
! 2 Port Network Data from SP1.SP block
! freq  magS11  angS11  magS21  angS21  magS12  angS12  magS22  angS22  
!     
          1.5e+009       0.812373385        -121.834348        0.583137613        -31.8343484        0.583137613        -31.8343484        0.812373385        -121.834348
       1.5007e+009       0.812063333        -121.998199        0.583569306        -31.9981993        0.583569306        -31.9981993        0.812063334        -121.998199
       1.5014e+009       0.811754232        -122.162331        0.583999194         -32.162331        0.583999194         -32.162331        0.811754233        -122.162331
       1.5021e+009       0.811446096        -122.326745        0.584427263        -32.3267446        0.584427263        -32.3267446        0.811446096        -122.326745
       1.5028e+009       0.811138939        -122.491441        0.584853497        -32.4914414        0.584853497        -32.4914414         0.81113894        -122.491441
       1.5035e+009       0.810832778        -122.656422        0.585277882        -32.6564223        0.585277882        -32.6564223        0.810832778        -122.656422
       1.5042e+009       0.810527626        -122.821689        0.585700401        -32.8216885        0.585700401        -32.8216885        0.810527627        -122.821689
       1.5049e+009         0.8102235        -122.987241        0.586121039        -32.9872413        0.586121039        -32.9872413          0.8102235        -122.987241
       1.5056e+009       0.809920413        -123.153082        0.586539782        -33.1530816        0.586539782        -33.1530816        0.809920414        -123.153082
       1.5063e+009       0.809618383        -123.319211        0.586956613        -33.3192108        0.586956613        -33.3192108        0.809618384        -123.319211
        1.507e+009       0.809317425         -123.48563        0.587371516        -33.4856299        0.587371516        -33.4856299        0.809317425         -123.48563
       1.5077e+009       0.809017553         -123.65234        0.587784476        -33.6523401        0.587784476        -33.6523401        0.809017554         -123.65234
       1.5084e+009       0.808718785        -123.819343        0.588195477        -33.8193428        0.588195477        -33.8193428        0.808718785        -123.819343
       1.5091e+009       0.808421135        -123.986639        0.588604502         -33.986639        0.588604502         -33.986639        0.808421136        -123.986639
       1.5098e+009        0.80812462         -124.15423        0.589011536          -34.15423        0.589011536          -34.15423        0.808124621         -124.15423
       1.5105e+009       0.807829257        -124.322117        0.589416562        -34.3221171        0.589416562        -34.3221171        0.807829257        -124.322117
       1.5112e+009        0.80753506        -124.490302        0.589819564        -34.4903015        0.589819564        -34.4903015        0.807535061        -124.490302
       1.5119e+009       0.807242048        -124.658785        0.590220525        -34.6587845        0.590220525        -34.6587845        0.807242048        -124.658785
       1.5126e+009       0.806950235        -124.827567        0.590619428        -34.8275674        0.590619428        -34.8275674        0.806950236        -124.827567
       1.5133e+009        0.80665964        -124.996651        0.591016258        -34.9966514        0.591016258        -34.9966514        0.806659641        -124.996651
        1.514e+009       0.806370278        -125.166038        0.591410996        -35.1660378        0.591410996        -35.1660378        0.806370279        -125.166038
       1.5147e+009       0.806082167        -125.335728        0.591803626        -35.3357281        0.591803626        -35.3357281        0.806082168        -125.335728
       1.5154e+009       0.805795324        -125.505723         0.59219413        -35.5057235         0.59219413        -35.5057235        0.805795324        -125.505723
       1.5161e+009       0.805509765        -125.676025        0.592582492        -35.6760253        0.592582492        -35.6760253        0.805509765        -125.676025
       1.5168e+009       0.805225508        -125.846635        0.592968694         -35.846635        0.592968694         -35.846635        0.805225509        -125.846635
       1.5175e+009       0.804942571        -126.017554        0.593352719         -36.017554        0.593352719         -36.017554        0.804942572        -126.017554
       1.5182e+009       0.804660971        -126.188784        0.593734548        -36.1887835        0.593734548        -36.1887835        0.804660971        -126.188784
       1.5189e+009       0.804380725        -126.360325        0.594114164        -36.3603251        0.594114164        -36.3603251        0.804380726        -126.360325
       1.5196e+009       0.804101852         -126.53218         0.59449155        -36.5321802         0.59449155        -36.5321802        0.804101853         -126.53218
       1.5203e+009        0.80382437         -126.70435        0.594866686        -36.7043501        0.594866686        -36.7043501         0.80382437         -126.70435
        1.521e+009       0.803548296        -126.876836        0.595239555        -36.8768364        0.595239555        -36.8768364        0.803548296        -126.876836
       1.5217e+009       0.803273648        -127.049641        0.595610139        -37.0496406        0.595610139        -37.0496406        0.803273649        -127.049641
       1.5224e+009       0.803000446        -127.222764        0.595978418         -37.222764        0.595978418         -37.222764        0.803000447        -127.222764
       1.5231e+009       0.802728708        -127.396208        0.596344375        -37.3962083        0.596344375        -37.3962083        0.802728708        -127.396208
       1.5238e+009       0.802458451        -127.569975         0.59670799        -37.5699749         0.59670799        -37.5699749        0.802458452        -127.569975
       1.5245e+009       0.802189696        -127.744065        0.597069245        -37.7440654        0.597069245        -37.7440654        0.802189696        -127.744065
       1.5252e+009        0.80192246        -127.918481         0.59742812        -37.9184814         0.59742812        -37.9184814        0.801922461        -127.918481
       1.5259e+009       0.801656764        -128.093224        0.597784597        -38.0932244        0.597784597        -38.0932244        0.801656765        -128.093224
       1.5266e+009       0.801392626        -128.268296        0.598138655        -38.2682959        0.598138655        -38.2682959        0.801392626        -128.268296
       1.5273e+009       0.801130065        -128.443698        0.598490276        -38.4436977        0.598490276        -38.4436977        0.801130066        -128.443698
        1.528e+009       0.800869101        -128.619431        0.598839439        -38.6194313        0.598839439        -38.6194313        0.800869102        -128.619431
       1.5287e+009       0.800609754        -128.795498        0.599186125        -38.7954984        0.599186125        -38.7954984        0.800609755        -128.795498
       1.5294e+009       0.800352044        -128.971901        0.599530314        -38.9719006        0.599530314        -38.9719006        0.800352044        -128.971901
       1.5301e+009        0.80009599         -129.14864        0.599871985        -39.1486396        0.599871985        -39.1486396         0.80009599         -129.14864
       1.5308e+009       0.799841612        -129.325717        0.600211118        -39.3257172        0.600211118        -39.3257172        0.799841613        -129.325717
       1.5315e+009       0.799588931        -129.503135        0.600547693         -39.503135        0.600547693         -39.503135        0.799588932        -129.503135
       1.5322e+009       0.799337968        -129.680895        0.600881689        -39.6808947        0.600881689        -39.6808947        0.799337968        -129.680895
       1.5329e+009       0.799088742        -129.858998        0.601213085        -39.8589982        0.601213085        -39.8589982        0.799088742        -129.858998
       1.5336e+009       0.798841274        -130.037447         0.60154186        -40.0374472         0.60154186        -40.0374472        0.798841275        -130.037447
       1.5343e+009       0.798595586        -130.216244        0.601867993        -40.2162435        0.601867993        -40.2162435        0.798595587        -130.216244
        1.535e+009       0.798351699        -130.395389        0.602191462        -40.3953889        0.602191462        -40.3953889        0.798351699        -130.395389
       1.5357e+009       0.798109632        -130.574885        0.602512245        -40.5748852        0.602512245        -40.5748852        0.798109633        -130.574885
       1.5364e+009       0.797869409        -130.754734        0.602830322        -40.7547343        0.602830322        -40.7547343         0.79786941        -130.754734
       1.5371e+009        0.79763105        -130.934938        0.603145669        -40.9349382        0.603145669        -40.9349382        0.797631051        -130.934938
       1.5378e+009       0.797394578        -131.115499        0.603458266        -41.1154986        0.603458266        -41.1154986        0.797394578        -131.115499
       1.5385e+009       0.797160013        -131.296418        0.603768088        -41.2964175        0.603768088        -41.2964175        0.797160014        -131.296418
       1.5392e+009       0.796927378        -131.477697        0.604075115        -41.4776969        0.604075115        -41.4776969        0.796927379        -131.477697
       1.5399e+009       0.796696696        -131.659339        0.604379323        -41.6593387        0.604379323        -41.6593387        0.796696696        -131.659339
       1.5406e+009       0.796467988        -131.841345        0.604680689        -41.8413449        0.604680689        -41.8413449        0.796467988        -131.841345
       1.5413e+009       0.796241277        -132.023718        0.604979189        -42.0237175        0.604979189        -42.0237175        0.796241278        -132.023718
        1.542e+009       0.796016586        -132.206459        0.605274802        -42.2064585        0.605274802        -42.2064585        0.796016587        -132.206459
       1.5427e+009       0.795793937         -132.38957        0.605567502        -42.3895701        0.605567502        -42.3895701        0.795793938         -132.38957
       1.5434e+009       0.795573355        -132.573054        0.605857267        -42.5730543        0.605857267        -42.5730543        0.795573356        -132.573054
       1.5441e+009       0.795354861        -132.756913        0.606144071        -42.7569131        0.606144071        -42.7569131        0.795354862        -132.756913
       1.5448e+009        0.79513848        -132.941149        0.606427892        -42.9411488        0.606427892        -42.9411488        0.795138481        -132.941149
       1.5455e+009       0.794924235        -133.125763        0.606708704        -43.1257634        0.606708704        -43.1257634        0.794924236        -133.125763
       1.5462e+009        0.79471215        -133.310759        0.606986482        -43.3107592        0.606986482        -43.3107592         0.79471215        -133.310759
       1.5469e+009       0.794502248        -133.496138        0.607261202        -43.4961383        0.607261202        -43.4961383        0.794502249        -133.496138
       1.5476e+009       0.794294555        -133.681903        0.607532839        -43.6819031        0.607532839        -43.6819031        0.794294555        -133.681903
       1.5483e+009       0.794089093        -133.868056        0.607801367        -43.8680557        0.607801367        -43.8680557        0.794089094        -133.868056
        1.549e+009       0.793885889        -134.054598        0.608066761        -44.0545984        0.608066761        -44.0545984        0.793885889        -134.054598
       1.5497e+009       0.793684966        -134.241534        0.608328994        -44.2415335        0.608328994        -44.2415335        0.793684967        -134.241534
       1.5504e+009       0.793486349        -134.428864        0.608588041        -44.4288635        0.608588041        -44.4288635         0.79348635        -134.428864
       1.5511e+009       0.793290065        -134.616591        0.608843874        -44.6165905        0.608843874        -44.6165905        0.793290065        -134.616591
       1.5518e+009       0.793096137        -134.804717        0.609096469        -44.8047171        0.609096469        -44.8047171        0.793096137        -134.804717
       1.5525e+009       0.792904591        -134.993246        0.609345796        -44.9932457        0.609345796        -44.9932457        0.792904592        -134.993246
       1.5532e+009       0.792715454        -135.182179         0.60959183        -45.1821787         0.60959183        -45.1821787        0.792715455        -135.182179
       1.5539e+009       0.792528751        -135.371519        0.609834542        -45.3715185        0.609834542        -45.3715185        0.792528751        -135.371519
       1.5546e+009       0.792344508        -135.561268        0.610073906        -45.5612677        0.610073906        -45.5612677        0.792344508        -135.561268
       1.5553e+009       0.792162751        -135.751429        0.610309893        -45.7514289        0.610309893        -45.7514289        0.792162752        -135.751429
        1.556e+009       0.791983508        -135.942005        0.610542474        -45.9420045        0.610542474        -45.9420045        0.791983509        -135.942005
       1.5567e+009       0.791806804        -136.132997        0.610771622        -46.1329972        0.610771622        -46.1329972        0.791806805        -136.132997
       1.5574e+009       0.791632668         -136.32441        0.610997307        -46.3244097        0.610997307        -46.3244097        0.791632668         -136.32441
       1.5581e+009       0.791461125        -136.516245          0.6112195        -46.5162445          0.6112195        -46.5162445        0.791461126        -136.516245
       1.5588e+009       0.791292204        -136.708505        0.611438172        -46.7085044        0.611438172        -46.7085044        0.791292204        -136.708505
       1.5595e+009       0.791125931        -136.901192        0.611653293        -46.9011921        0.611653293        -46.9011921        0.791125932        -136.901192
       1.5602e+009       0.790962336         -137.09431        0.611864833        -47.0943104        0.611864833        -47.0943104        0.790962336         -137.09431
       1.5609e+009       0.790801445        -137.287862        0.612072761         -47.287862        0.612072761         -47.287862        0.790801446        -137.287862
       1.5616e+009       0.790643287         -137.48185        0.612277047        -47.4818498        0.612277047        -47.4818498        0.790643288         -137.48185
       1.5623e+009       0.790487892        -137.676277        0.612477659        -47.6762767        0.612477659        -47.6762767        0.790487892        -137.676277
        1.563e+009       0.790335286        -137.871146        0.612674567        -47.8711454        0.612674567        -47.8711454        0.790335287        -137.871146
       1.5637e+009         0.7901855        -138.066459        0.612867739        -48.0664591        0.612867739        -48.0664591        0.790185501        -138.066459
       1.5644e+009       0.790038563        -138.262221        0.613057142        -48.2622205        0.613057142        -48.2622205        0.790038563        -138.262221
       1.5651e+009       0.789894503        -138.458433        0.613242744        -48.4584328        0.613242744        -48.4584328        0.789894504        -138.458433
       1.5658e+009       0.789753351        -138.655099        0.613424513         -48.655099        0.613424513         -48.655099        0.789753352        -138.655099
       1.5665e+009       0.789615137        -138.852222        0.613602415         -48.852222        0.613602415         -48.852222        0.789615138        -138.852222
       1.5672e+009       0.789479891        -139.049805        0.613776417        -49.0498052        0.613776417        -49.0498052        0.789479892        -139.049805
       1.5679e+009       0.789347643        -139.247852        0.613946486        -49.2478516        0.613946486        -49.2478516        0.789347644        -139.247852
       1.5686e+009       0.789218424        -139.446364        0.614112586        -49.4463643        0.614112586        -49.4463643        0.789218425        -139.446364
       1.5693e+009       0.789092264        -139.645347        0.614274684        -49.6453467        0.614274684        -49.6453467        0.789092265        -139.645347
         1.57e+009       0.788969196        -139.844802        0.614432744         -49.844802        0.614432744         -49.844802        0.788969197        -139.844802
       1.5707e+009        0.78884925        -140.044734        0.614586731        -50.0447335        0.614586731        -50.0447335         0.78884925        -140.044734
       1.5714e+009       0.788732457        -140.245145         0.61473661        -50.2451446         0.61473661        -50.2451446        0.788732458        -140.245145
       1.5721e+009       0.788618851        -140.446039        0.614882344        -50.4460386        0.614882344        -50.4460386        0.788618852        -140.446039
       1.5728e+009       0.788508463        -140.647419        0.615023896         -50.647419        0.615023896         -50.647419        0.788508464        -140.647419
       1.5735e+009       0.788401325        -140.849289         0.61516123        -50.8492893         0.61516123        -50.8492893        0.788401326        -140.849289
       1.5742e+009       0.788297471        -141.051653        0.615294308         -51.051653        0.615294308         -51.051653        0.788297472        -141.051653
       1.5749e+009       0.788196933        -141.254514        0.615423093        -51.2545137        0.615423093        -51.2545137        0.788196934        -141.254514
       1.5756e+009       0.788099744        -141.457875        0.615547546        -51.4578749        0.615547546        -51.4578749        0.788099745        -141.457875
       1.5763e+009       0.788005939        -141.661741        0.615667628        -51.6617404        0.615667628        -51.6617404         0.78800594        -141.661741
        1.577e+009       0.787915551        -141.866114        0.615783301        -51.8661138        0.615783301        -51.8661138        0.787915551        -141.866114
       1.5777e+009       0.787828613        -142.070999        0.615894524        -52.0709989        0.615894524        -52.0709989        0.787828614        -142.070999
       1.5784e+009       0.787745161          -142.2764        0.616001258        -52.2763995        0.616001258        -52.2763995        0.787745162          -142.2764
       1.5791e+009       0.787665229         -142.48232        0.616103462        -52.4823195        0.616103462        -52.4823195         0.78766523         -142.48232
       1.5798e+009       0.787588852        -142.688763        0.616201094        -52.6887626        0.616201094        -52.6887626        0.787588853        -142.688763
       1.5805e+009       0.787516065        -142.895733        0.616294114         -52.895733        0.616294114         -52.895733        0.787516066        -142.895733
