! Created Tue Nov 18 17:59:16 2014
# hz S ma R 50
! 2 Port Network Data from SP1.SP block
! freq  magS11  angS11  magS21  angS21  magS12  angS12  magS22  angS22  
!     
            1e+009       0.974378824        -50.4182473        0.224913107         39.5817527        0.224913107         39.5817527        0.974378824        -50.4182473
        1.002e+009       0.974163391        -50.5915993        0.225844384         39.4084007        0.225844384         39.4084007        0.974163391        -50.5915993
        1.004e+009       0.973946138        -50.7655538         0.22677945         39.2344462         0.22677945         39.2344462        0.973946138        -50.7655538
        1.006e+009       0.973727049        -50.9401141        0.227718317         39.0598859        0.227718317         39.0598859        0.973727049        -50.9401141
        1.008e+009       0.973506109        -51.1152833        0.228661001         38.8847167        0.228661001         38.8847167        0.973506109        -51.1152833
         1.01e+009       0.973283303        -51.2910648        0.229607514         38.7089352        0.229607514         38.7089352        0.973283303        -51.2910648
        1.012e+009       0.973058614        -51.4674619        0.230557872         38.5325381        0.230557872         38.5325381        0.973058614        -51.4674619
        1.014e+009       0.972832026        -51.6444778        0.231512088         38.3555222        0.231512088         38.3555222        0.972832026        -51.6444778
        1.016e+009       0.972603524        -51.8221159        0.232470175         38.1778841        0.232470175         38.1778841        0.972603524        -51.8221159
        1.018e+009       0.972373092        -52.0003794        0.233432147         37.9996206        0.233432147         37.9996206        0.972373092        -52.0003794
         1.02e+009       0.972140714        -52.1792719        0.234398018         37.8207281        0.234398018         37.8207281        0.972140714        -52.1792719
        1.022e+009       0.971906372        -52.3587966        0.235367801         37.6412034        0.235367801         37.6412034        0.971906372        -52.3587966
        1.024e+009       0.971670051        -52.5389569         0.23634151         37.4610431         0.23634151         37.4610431        0.971670051        -52.5389569
        1.026e+009       0.971431734        -52.7197562        0.237319158         37.2802438        0.237319158         37.2802438        0.971431735        -52.7197562
        1.028e+009       0.971191405         -52.901198        0.238300759         37.0988021        0.238300759         37.0988021        0.971191405         -52.901198
         1.03e+009       0.970949047        -53.0832856        0.239286325         36.9167144        0.239286325         36.9167144        0.970949047        -53.0832856
        1.032e+009       0.970704643        -53.2660226         0.24027587         36.7339774         0.24027587         36.7339774        0.970704643        -53.2660226
        1.034e+009       0.970458176        -53.4494124        0.241269406         36.5505876        0.241269406         36.5505876        0.970458176        -53.4494124
        1.036e+009       0.970209629        -53.6334585        0.242266947         36.3665416        0.242266947         36.3665416        0.970209629        -53.6334585
        1.038e+009       0.969958985        -53.8181644        0.243268506         36.1818357        0.243268506         36.1818357        0.969958985        -53.8181644
         1.04e+009       0.969706226        -54.0035336        0.244274094         35.9964664        0.244274094         35.9964664        0.969706226        -54.0035336
        1.042e+009       0.969451335        -54.1895697        0.245283725         35.8104303        0.245283725         35.8104303        0.969451336        -54.1895697
        1.044e+009       0.969194296        -54.3762762        0.246297411         35.6237238        0.246297411         35.6237238        0.969194296        -54.3762762
        1.046e+009       0.968935089        -54.5636568        0.247315165         35.4363432        0.247315165         35.4363432        0.968935089        -54.5636568
        1.048e+009       0.968673698         -54.751715        0.248336998          35.248285        0.248336998          35.248285        0.968673698         -54.751715
         1.05e+009       0.968410104        -54.9404544        0.249362923         35.0595456        0.249362923         35.0595456        0.968410105        -54.9404544
        1.052e+009       0.968144291        -55.1298786        0.250392951         34.8701214        0.250392951         34.8701214        0.968144291        -55.1298786
        1.054e+009       0.967876239        -55.3199914        0.251427095         34.6800086        0.251427095         34.6800086        0.967876239        -55.3199914
        1.056e+009        0.96760593        -55.5107963        0.252465367         34.4892037        0.252465367         34.4892037         0.96760593        -55.5107963
        1.058e+009       0.967333347        -55.7022971        0.253507777         34.2977029        0.253507777         34.2977029        0.967333347        -55.7022971
         1.06e+009       0.967058471        -55.8944975        0.254554338         34.1055025        0.254554338         34.1055025        0.967058471        -55.8944975
        1.062e+009       0.966781284        -56.0874011         0.25560506         33.9125989         0.25560506         33.9125989        0.966781284        -56.0874011
        1.064e+009       0.966501767        -56.2810118        0.256659954         33.7189882        0.256659954         33.7189882        0.966501767        -56.2810118
        1.066e+009       0.966219901        -56.4753332        0.257719032         33.5246668        0.257719032         33.5246668        0.966219901        -56.4753332
        1.068e+009       0.965935669        -56.6703692        0.258782305         33.3296308        0.258782305         33.3296308        0.965935669        -56.6703692
         1.07e+009        0.96564905        -56.8661235        0.259849783         33.1338765        0.259849783         33.1338765         0.96564905        -56.8661235
        1.072e+009       0.965360027           -57.0626        0.260921476            32.9374        0.260921476            32.9374        0.965360027           -57.0626
        1.074e+009       0.965068579        -57.2598025        0.261997394         32.7401975        0.261997394         32.7401975        0.965068579        -57.2598025
        1.076e+009       0.964774689        -57.4577348        0.263077549         32.5422652        0.263077549         32.5422652        0.964774689        -57.4577348
        1.078e+009       0.964478337        -57.6564008        0.264161949         32.3435992        0.264161949         32.3435992        0.964478337        -57.6564008
         1.08e+009       0.964179503        -57.8558044        0.265250604         32.1441956        0.265250604         32.1441956        0.964179503        -57.8558044
        1.082e+009       0.963878169        -58.0559495        0.266343525         31.9440505        0.266343525         31.9440505        0.963878169        -58.0559495
        1.084e+009       0.963574314          -58.25684        0.267440719           31.74316        0.267440719           31.74316        0.963574314          -58.25684
        1.086e+009        0.96326792        -58.4584798        0.268542197         31.5415202        0.268542197         31.5415202         0.96326792        -58.4584798
        1.088e+009       0.962958967        -58.6608729        0.269647967         31.3391271        0.269647967         31.3391271        0.962958967        -58.6608729
         1.09e+009       0.962647434        -58.8640234        0.270758038         31.1359766        0.270758038         31.1359766        0.962647434        -58.8640234
        1.092e+009       0.962333303         -59.067935        0.271872418          30.932065        0.271872418          30.932065        0.962333303         -59.067935
        1.094e+009       0.962016553         -59.272612        0.272991116          30.727388        0.272991116          30.727388        0.962016553         -59.272612
        1.096e+009       0.961697165        -59.4780583        0.274114139         30.5219417        0.274114139         30.5219417        0.961697165        -59.4780583
        1.098e+009       0.961375118        -59.6842779        0.275241495         30.3157221        0.275241495         30.3157221        0.961375118        -59.6842779
          1.1e+009       0.961050392         -59.891275        0.276373192          30.108725        0.276373192          30.108725        0.961050392         -59.891275
        1.102e+009       0.960722968        -60.0990536        0.277509237         29.9009464        0.277509237         29.9009464        0.960722968        -60.0990536
        1.104e+009       0.960392825        -60.3076179        0.278649637         29.6923821        0.278649637         29.6923821        0.960392825        -60.3076179
        1.106e+009       0.960059942        -60.5169718        0.279794398         29.4830282        0.279794398         29.4830282        0.960059942        -60.5169718
        1.108e+009         0.9597243        -60.7271197        0.280943527         29.2728803        0.280943527         29.2728803          0.9597243        -60.7271197
         1.11e+009       0.959385878        -60.9380656         0.28209703         29.0619344         0.28209703         29.0619344        0.959385878        -60.9380656
        1.112e+009       0.959044656        -61.1498138        0.283254913         28.8501862        0.283254913         28.8501862        0.959044656        -61.1498138
        1.114e+009       0.958700612        -61.3623684        0.284417182         28.6376316        0.284417182         28.6376316        0.958700612        -61.3623684
        1.116e+009       0.958353727        -61.5757337        0.285583842         28.4242663        0.285583842         28.4242663        0.958353727        -61.5757337
        1.118e+009        0.95800398        -61.7899138        0.286754897         28.2100862        0.286754897         28.2100862         0.95800398        -61.7899138
         1.12e+009        0.95765135        -62.0049131        0.287930353         27.9950869        0.287930353         27.9950869        0.957651351        -62.0049131
        1.122e+009       0.957295817        -62.2207358        0.289110214         27.7792642        0.289110214         27.7792642        0.957295817        -62.2207358
        1.124e+009        0.95693736        -62.4373862        0.290294483         27.5626138        0.290294483         27.5626138         0.95693736        -62.4373862
        1.126e+009       0.956575957        -62.6548686        0.291483164         27.3451314        0.291483164         27.3451314        0.956575957        -62.6548686
        1.128e+009       0.956211589        -62.8731874        0.292676262         27.1268126        0.292676262         27.1268126        0.956211589        -62.8731874
         1.13e+009       0.955844234        -63.0923468        0.293873778         26.9076532        0.293873778         26.9076532        0.955844234        -63.0923468
        1.132e+009       0.955473872        -63.3123514        0.295075715         26.6876486        0.295075715         26.6876486        0.955473872        -63.3123514
        1.134e+009       0.955100481        -63.5332053        0.296282076         26.4667947        0.296282076         26.4667947        0.955100481        -63.5332053
        1.136e+009       0.954724041        -63.7549132        0.297492863         26.2450868        0.297492863         26.2450868        0.954724041        -63.7549132
        1.138e+009        0.95434453        -63.9774793        0.298708076         26.0225207        0.298708076         26.0225207         0.95434453        -63.9774793
         1.14e+009       0.953961929        -64.2009082        0.299927718         25.7990918        0.299927718         25.7990918        0.953961929        -64.2009082
        1.142e+009       0.953576215        -64.4252042        0.301151788         25.5747958        0.301151788         25.5747958        0.953576215        -64.4252042
        1.144e+009       0.953187368        -64.6503719        0.302380287         25.3496281        0.302380287         25.3496281        0.953187368        -64.6503719
        1.146e+009       0.952795367        -64.8764158        0.303613216         25.1235842        0.303613216         25.1235842        0.952795368        -64.8764158
        1.148e+009       0.952400192        -65.1033403        0.304850573         24.8966597        0.304850573         24.8966597        0.952400192        -65.1033403
         1.15e+009        0.95200182        -65.3311501        0.306092357         24.6688499        0.306092357         24.6688499        0.952001821        -65.3311501
        1.152e+009       0.951600232        -65.5598497        0.307338567         24.4401503        0.307338567         24.4401503        0.951600232        -65.5598497
        1.154e+009       0.951195407        -65.7894436        0.308589202         24.2105564        0.308589202         24.2105564        0.951195407        -65.7894436
        1.156e+009       0.950787322        -66.0199364        0.309844259         23.9800636        0.309844259         23.9800636        0.950787323        -66.0199364
        1.158e+009       0.950375959        -66.2513329        0.311103735         23.7486671        0.311103735         23.7486671        0.950375959        -66.2513329
         1.16e+009       0.949961295        -66.4836375        0.312367627         23.5163625        0.312367627         23.5163625        0.949961296        -66.4836375
        1.162e+009       0.949543311         -66.716855        0.313635931          23.283145        0.313635931          23.283145        0.949543311         -66.716855
        1.164e+009       0.949121986          -66.95099        0.314908643           23.04901        0.314908643           23.04901        0.949121986          -66.95099
        1.166e+009       0.948697298        -67.1860472        0.316185759         22.8139528        0.316185759         22.8139528        0.948697298        -67.1860472
        1.168e+009       0.948269228        -67.4220313        0.317467272         22.5779687        0.317467272         22.5779687        0.948269228        -67.4220313
         1.17e+009       0.947837754        -67.6589471        0.318753179         22.3410529        0.318753179         22.3410529        0.947837754        -67.6589471
        1.172e+009       0.947402857        -67.8967993        0.320043471         22.1032007        0.320043471         22.1032007        0.947402857        -67.8967993
        1.174e+009       0.946964516        -68.1355926        0.321338142         21.8644074        0.321338142         21.8644074        0.946964517        -68.1355926
        1.176e+009       0.946522712        -68.3753319        0.322637185         21.6246681        0.322637185         21.6246681        0.946522712        -68.3753319
        1.178e+009       0.946077422        -68.6160219        0.323940593         21.3839781        0.323940593         21.3839781        0.946077423        -68.6160219
         1.18e+009       0.945628629        -68.8576675        0.325248355         21.1423325        0.325248355         21.1423325        0.945628629        -68.8576675
        1.182e+009       0.945176312        -69.1002735        0.326560465         20.8997265        0.326560465         20.8997265        0.945176312        -69.1002735
        1.184e+009        0.94472045        -69.3438449         0.32787691         20.6561551         0.32787691         20.6561551         0.94472045        -69.3438449
        1.186e+009       0.944261025        -69.5883863        0.329197682         20.4116137        0.329197682         20.4116137        0.944261025        -69.5883863
        1.188e+009       0.943798016        -69.8339029         0.33052277         20.1660971         0.33052277         20.1660971        0.943798016        -69.8339029
         1.19e+009       0.943331405        -70.0803994        0.331852162         19.9196006        0.331852162         19.9196006        0.943331405        -70.0803994
        1.192e+009       0.942861172        -70.3278809        0.333185845         19.6721191        0.333185845         19.6721191        0.942861172        -70.3278809
        1.194e+009       0.942387298        -70.5763522        0.334523807         19.4236478        0.334523807         19.4236478        0.942387298        -70.5763522
        1.196e+009       0.941909764        -70.8258184        0.335866035         19.1741816        0.335866035         19.1741816        0.941909764        -70.8258184
        1.198e+009       0.941428551        -71.0762845        0.337212514         18.9237155        0.337212514         18.9237155        0.941428551        -71.0762845
          1.2e+009       0.940943641        -71.3277554         0.33856323         18.6722446         0.33856323         18.6722446        0.940943641        -71.3277554
        1.202e+009       0.940455016        -71.5802363        0.339918167         18.4197637        0.339918167         18.4197637        0.940455016        -71.5802363
        1.204e+009       0.939962656        -71.8337322        0.341277309         18.1662678        0.341277309         18.1662678        0.939962657        -71.8337322
        1.206e+009       0.939466545        -72.0882481        0.342640638         17.9117519        0.342640638         17.9117519        0.939466546        -72.0882481
        1.208e+009       0.938966665        -72.3437891        0.344008137         17.6562109        0.344008137         17.6562109        0.938966665        -72.3437891
         1.21e+009       0.938462998        -72.6003605        0.345379789         17.3996395        0.345379789         17.3996395        0.938462998        -72.6003605
        1.212e+009       0.937955526        -72.8579672        0.346755573         17.1420328        0.346755573         17.1420328        0.937955527        -72.8579672
        1.214e+009       0.937444234        -73.1166145        0.348135469         16.8833855        0.348135469         16.8833855        0.937444234        -73.1166145
        1.216e+009       0.936929104        -73.3763076        0.349519458         16.6236924        0.349519458         16.6236924        0.936929104        -73.3763076
        1.218e+009       0.936410119        -73.6370516        0.350907517         16.3629484        0.350907517         16.3629484        0.936410119        -73.6370516
         1.22e+009       0.935887264        -73.8988518        0.352299624         16.1011482        0.352299624         16.1011482        0.935887265        -73.8988518
        1.222e+009       0.935360523        -74.1617133        0.353695756         15.8382866        0.353695756         15.8382866        0.935360524        -74.1617133
        1.224e+009       0.934829881        -74.4256416        0.355095889         15.5743584        0.355095889         15.5743584        0.934829881        -74.4256416
        1.226e+009       0.934295321        -74.6906418        0.356499999         15.3093582        0.356499999         15.3093582        0.934295322        -74.6906418
        1.228e+009        0.93375683        -74.9567192        0.357908058         15.0432808        0.357908058         15.0432808        0.933756831        -74.9567192
         1.23e+009       0.933214393        -75.2238792        0.359320042         14.7761208        0.359320042         14.7761208        0.933214393        -75.2238792
