! Created Mon Nov 30 18:22:43 2015
# hz S ma R 50
! 2 Port Network Data from SP1.SP block
! freq  magS11  angS11  magS21  angS21  magS12  angS12  magS22  angS22  
!     
            1e+009       0.999831513         118.329825      0.00345233876        -151.816779      0.00345233876        -151.816779        0.999963739         117.695965
        1.001e+009       0.999830782         118.257259      0.00346286655         -151.89004      0.00346286655         -151.89004        0.999963575         117.621649
        1.002e+009       0.999830049         118.184659      0.00347341541        -151.963335      0.00347341541        -151.963335        0.999963411         117.547298
        1.003e+009       0.999829313         118.112026      0.00348398533        -152.036664      0.00348398533        -152.036664        0.999963246          117.47291
        1.004e+009       0.999828574          118.03936      0.00349457634        -152.110029      0.00349457634        -152.110029         0.99996308         117.398486
        1.005e+009       0.999827833          117.96666      0.00350518845        -152.183428      0.00350518845        -152.183428        0.999962914         117.324027
        1.006e+009        0.99982709         117.893927      0.00351582168        -152.256861      0.00351582168        -152.256861        0.999962747         117.249532
        1.007e+009       0.999826344          117.82116      0.00352647604        -152.330329      0.00352647604        -152.330329         0.99996258            117.175
        1.008e+009       0.999825595          117.74836      0.00353715154        -152.403832      0.00353715154        -152.403832        0.999962412         117.100433
        1.009e+009       0.999824844         117.675526      0.00354784821         -152.47737      0.00354784821         -152.47737        0.999962243         117.025829
         1.01e+009        0.99982409         117.602659      0.00355856604        -152.550942      0.00355856604        -152.550942        0.999962074          116.95119
        1.011e+009       0.999823334         117.529758      0.00356930507         -152.62455      0.00356930507         -152.62455        0.999961904         116.876514
        1.012e+009       0.999822575         117.456823       0.0035800653        -152.698192       0.0035800653        -152.698192        0.999961734         116.801802
        1.013e+009       0.999821813         117.383855      0.00359084675        -152.771869      0.00359084675        -152.771869        0.999961563         116.727054
        1.014e+009       0.999821049         117.310853      0.00360164942        -152.845581      0.00360164942        -152.845581        0.999961391          116.65227
        1.015e+009       0.999820282         117.237817      0.00361247335        -152.919328      0.00361247335        -152.919328        0.999961219          116.57745
        1.016e+009       0.999819513         117.164747      0.00362331853         -152.99311      0.00362331853         -152.99311        0.999961046         116.502593
        1.017e+009       0.999818741         117.091643      0.00363418499        -153.066927      0.00363418499        -153.066927        0.999960872           116.4277
        1.018e+009       0.999817967         117.018506      0.00364507273        -153.140779      0.00364507273        -153.140779        0.999960698         116.352771
        1.019e+009       0.999817189         116.945335      0.00365598178        -153.214666      0.00365598178        -153.214666        0.999960523         116.277805
         1.02e+009        0.99981641         116.872129      0.00366691214        -153.288588      0.00366691214        -153.288588        0.999960348         116.202803
        1.021e+009       0.999815627          116.79889      0.00367786383        -153.362545      0.00367786383        -153.362545        0.999960172         116.127765
        1.022e+009       0.999814842         116.725617      0.00368883686        -153.436538      0.00368883686        -153.436538        0.999959995          116.05269
        1.023e+009       0.999814054         116.652309      0.00369983126        -153.510565      0.00369983126        -153.510565        0.999959818         115.977578
        1.024e+009       0.999813264         116.578968      0.00371084702        -153.584628      0.00371084702        -153.584628         0.99995964          115.90243
        1.025e+009       0.999812471         116.505592      0.00372188416        -153.658726      0.00372188416        -153.658726        0.999959461         115.827246
        1.026e+009       0.999811675         116.432183       0.0037329427         -153.73286       0.0037329427         -153.73286        0.999959282         115.752025
        1.027e+009       0.999810877         116.358739      0.00374402266        -153.807029      0.00374402266        -153.807029        0.999959102         115.676767
        1.028e+009       0.999810076          116.28526      0.00375512403        -153.881233      0.00375512403        -153.881233        0.999958921         115.601473
        1.029e+009       0.999809272         116.211748      0.00376624685        -153.955473      0.00376624685        -153.955473         0.99995874         115.526142
         1.03e+009       0.999808465         116.138201      0.00377739111        -154.029748      0.00377739111        -154.029748        0.999958558         115.450774
        1.031e+009       0.999807656          116.06462      0.00378855684        -154.104058      0.00378855684        -154.104058        0.999958376          115.37537
        1.032e+009       0.999806844         115.991005      0.00379974405        -154.178404      0.00379974405        -154.178404        0.999958193         115.299929
        1.033e+009       0.999806029         115.917355      0.00381095274        -154.252786      0.00381095274        -154.252786        0.999958009         115.224451
        1.034e+009       0.999805212         115.843671      0.00382218294        -154.327203      0.00382218294        -154.327203        0.999957825         115.148936
        1.035e+009       0.999804392         115.769952      0.00383343466        -154.401656      0.00383343466        -154.401656         0.99995764         115.073384
        1.036e+009       0.999803569         115.696199       0.0038447079        -154.476144       0.0038447079        -154.476144        0.999957454         114.997796
        1.037e+009       0.999802743         115.622411      0.00385600268        -154.550668      0.00385600268        -154.550668        0.999957268         114.922171
        1.038e+009       0.999801915         115.548589      0.00386731902        -154.625228      0.00386731902        -154.625228        0.999957081         114.846508
        1.039e+009       0.999801084         115.474732      0.00387865692        -154.699823      0.00387865692        -154.699823        0.999956893         114.770809
         1.04e+009        0.99980025         115.400841       0.0038900164        -154.774455       0.0038900164        -154.774455        0.999956705         114.695073
        1.041e+009       0.999799413         115.326915      0.00390139748        -154.849122      0.00390139748        -154.849122        0.999956516         114.619299
        1.042e+009       0.999798574         115.252954      0.00391280015        -154.923825      0.00391280015        -154.923825        0.999956326         114.543489
        1.043e+009       0.999797732         115.178958      0.00392422444        -154.998563      0.00392422444        -154.998563        0.999956136         114.467641
        1.044e+009       0.999796887         115.104928      0.00393567037        -155.073338      0.00393567037        -155.073338        0.999955945         114.391757
        1.045e+009       0.999796039         115.030862      0.00394713793        -155.148148      0.00394713793        -155.148148        0.999955753         114.315835
        1.046e+009       0.999795188         114.956762      0.00395862714        -155.222995      0.00395862714        -155.222995        0.999955561         114.239876
        1.047e+009       0.999794335         114.882627      0.00397013802        -155.297877      0.00397013802        -155.297877        0.999955368         114.163879
        1.048e+009       0.999793478         114.808457      0.00398167057        -155.372796      0.00398167057        -155.372796        0.999955174         114.087846
        1.049e+009       0.999792619         114.734253      0.00399322482         -155.44775      0.00399322482         -155.44775         0.99995498         114.011775
         1.05e+009       0.999791757         114.660013      0.00400480076        -155.522741      0.00400480076        -155.522741        0.999954785         113.935667
        1.051e+009       0.999790893         114.585738      0.00401639841        -155.597768      0.00401639841        -155.597768        0.999954589         113.859522
        1.052e+009       0.999790025         114.511428      0.00402801779         -155.67283      0.00402801779         -155.67283        0.999954392         113.783339
        1.053e+009       0.999789154         114.437083      0.00403965891        -155.747929      0.00403965891        -155.747929        0.999954195         113.707119
        1.054e+009       0.999788281         114.362703      0.00405132177        -155.823065      0.00405132177        -155.823065        0.999953997         113.630861
        1.055e+009       0.999787405         114.288288      0.00406300638        -155.898236      0.00406300638        -155.898236        0.999953799         113.554566
        1.056e+009       0.999786526         114.213837      0.00407471277        -155.973444      0.00407471277        -155.973444          0.9999536         113.478234
        1.057e+009       0.999785644         114.139352      0.00408644094        -156.048688      0.00408644094        -156.048688          0.9999534         113.401864
        1.058e+009       0.999784759         114.064831       0.0040981909        -156.123968       0.0040981909        -156.123968        0.999953199         113.325456
        1.059e+009       0.999783871         113.990275      0.00410996266        -156.199285      0.00410996266        -156.199285        0.999952998         113.249011
         1.06e+009        0.99978298         113.915683      0.00412175624        -156.274638      0.00412175624        -156.274638        0.999952796         113.172528
        1.061e+009       0.999782087         113.841056      0.00413357164        -156.350028      0.00413357164        -156.350028        0.999952594         113.096008
        1.062e+009        0.99978119         113.766394      0.00414540888        -156.425454      0.00414540888        -156.425454         0.99995239          113.01945
        1.063e+009       0.999780291         113.691696      0.00415726796        -156.500917      0.00415726796        -156.500917        0.999952186         112.942854
        1.064e+009       0.999779388         113.616963       0.0041691489        -156.576416       0.0041691489        -156.576416        0.999951981         112.866221
        1.065e+009       0.999778483         113.542195      0.00418105171        -156.651951      0.00418105171        -156.651951        0.999951776         112.789549
        1.066e+009       0.999777574          113.46739       0.0041929764        -156.727523       0.0041929764        -156.727523         0.99995157          112.71284
        1.067e+009       0.999776663         113.392551      0.00420492298        -156.803132      0.00420492298        -156.803132        0.999951363         112.636094
        1.068e+009       0.999775749         113.317675      0.00421689146        -156.878778      0.00421689146        -156.878778        0.999951155         112.559309
        1.069e+009       0.999774832         113.242764      0.00422888185         -156.95446      0.00422888185         -156.95446        0.999950947         112.482487
         1.07e+009       0.999773912         113.167818      0.00424089416        -157.030179      0.00424089416        -157.030179        0.999950738         112.405626
        1.071e+009       0.999772988         113.092835       0.0042529284        -157.105934       0.0042529284        -157.105934        0.999950528         112.328728
        1.072e+009       0.999772062         113.017817      0.00426498458        -157.181727      0.00426498458        -157.181727        0.999950318         112.251791
        1.073e+009       0.999771133         112.942764      0.00427706271        -157.257556      0.00427706271        -157.257556        0.999950107         112.174817
        1.074e+009       0.999770201         112.867674       0.0042891628        -157.333422       0.0042891628        -157.333422        0.999949895         112.097805
        1.075e+009       0.999769266         112.792548      0.00430128486        -157.409325      0.00430128486        -157.409325        0.999949682         112.020755
        1.076e+009       0.999768327         112.717387      0.00431342891        -157.485265      0.00431342891        -157.485265        0.999949469         111.943666
        1.077e+009       0.999767386          112.64219      0.00432559494        -157.561242      0.00432559494        -157.561242        0.999949255          111.86654
        1.078e+009       0.999766442         112.566957      0.00433778297        -157.637255      0.00433778297        -157.637255         0.99994904         111.789375
        1.079e+009       0.999765495         112.491687      0.00434999301        -157.713306      0.00434999301        -157.713306        0.999948824         111.712172
         1.08e+009       0.999764544         112.416382      0.00436222507        -157.789394      0.00436222507        -157.789394        0.999948608         111.634931
        1.081e+009       0.999763591         112.341041      0.00437447916        -157.865519      0.00437447916        -157.865519        0.999948391         111.557652
        1.082e+009       0.999762634         112.265664      0.00438675529        -157.941681      0.00438675529        -157.941681        0.999948173         111.480335
        1.083e+009       0.999761675          112.19025      0.00439905346         -158.01788      0.00439905346         -158.01788        0.999947955         111.402979
        1.084e+009       0.999760712         112.114801      0.00441137369        -158.094116      0.00441137369        -158.094116        0.999947736         111.325585
        1.085e+009       0.999759746         112.039315      0.00442371598        -158.170389      0.00442371598        -158.170389        0.999947516         111.248153
        1.086e+009       0.999758777         111.963793      0.00443608035          -158.2467      0.00443608035          -158.2467        0.999947295         111.170682
        1.087e+009       0.999757805         111.888235       0.0044484668        -158.323047       0.0044484668        -158.323047        0.999947074         111.093173
        1.088e+009        0.99975683         111.812641      0.00446087534        -158.399432      0.00446087534        -158.399432        0.999946851         111.015625
        1.089e+009       0.999755852          111.73701      0.00447330599        -158.475855      0.00447330599        -158.475855        0.999946629         110.938039
         1.09e+009       0.999754871         111.661343      0.00448575874        -158.552315      0.00448575874        -158.552315        0.999946405         110.860415
        1.091e+009       0.999753886         111.585639      0.00449823361        -158.628812      0.00449823361        -158.628812         0.99994618         110.782752
        1.092e+009       0.999752899         111.509899       0.0045107306        -158.705346       0.0045107306        -158.705346        0.999945955         110.705051
        1.093e+009       0.999751908         111.434123      0.00452324973        -158.781918      0.00452324973        -158.781918        0.999945729         110.627311
        1.094e+009       0.999750914          111.35831        0.004535791        -158.858527        0.004535791        -158.858527        0.999945502         110.549532
        1.095e+009       0.999749917         111.282461      0.00454835442        -158.935174      0.00454835442        -158.935174        0.999945275         110.471715
        1.096e+009       0.999748917         111.206575         0.00456094        -159.011859         0.00456094        -159.011859        0.999945047         110.393859
        1.097e+009       0.999747914         111.130652      0.00457354775        -159.088581      0.00457354775        -159.088581        0.999944818         110.315965
        1.098e+009       0.999746907         111.054693      0.00458617767         -159.16534      0.00458617767         -159.16534        0.999944588         110.238031
        1.099e+009       0.999745897         110.978698      0.00459882978        -159.242137      0.00459882978        -159.242137        0.999944357         110.160059
          1.1e+009       0.999744884         110.902665      0.00461150407        -159.318972      0.00461150407        -159.318972        0.999944126         110.082049
        1.101e+009       0.999743868         110.826596      0.00462420057        -159.395844      0.00462420057        -159.395844        0.999943894         110.003999
        1.102e+009       0.999742849          110.75049      0.00463691927        -159.472755      0.00463691927        -159.472755        0.999943661         109.925911
        1.103e+009       0.999741826         110.674347      0.00464966018        -159.549702      0.00464966018        -159.549702        0.999943427         109.847784
        1.104e+009         0.9997408         110.598168      0.00466242331        -159.626688      0.00466242331        -159.626688        0.999943193         109.769618
        1.105e+009       0.999739771         110.521951      0.00467520867        -159.703711      0.00467520867        -159.703711        0.999942958         109.691413
        1.106e+009       0.999738739         110.445698      0.00468801627        -159.780773      0.00468801627        -159.780773        0.999942722         109.613169
        1.107e+009       0.999737703         110.369408       0.0047008461        -159.857872       0.0047008461        -159.857872        0.999942485         109.534887
        1.108e+009       0.999736665         110.293081      0.00471369819        -159.935009      0.00471369819        -159.935009        0.999942247         109.456565
        1.109e+009       0.999735622         110.216717      0.00472657253        -160.012184      0.00472657253        -160.012184        0.999942009         109.378204
         1.11e+009       0.999734577         110.140316      0.00473946914        -160.089397      0.00473946914        -160.089397         0.99994177         109.299804
        1.111e+009       0.999733528         110.063877      0.00475238801        -160.166647      0.00475238801        -160.166647         0.99994153         109.221366
        1.112e+009       0.999732477         109.987402      0.00476532917        -160.243936      0.00476532917        -160.243936        0.999941289         109.142888
        1.113e+009       0.999731421          109.91089       0.0047782926        -160.321263       0.0047782926        -160.321263        0.999941048         109.064371
        1.114e+009       0.999730363          109.83434      0.00479127832        -160.398628      0.00479127832        -160.398628        0.999940805         108.985815
        1.115e+009       0.999729301         109.757753      0.00480428634        -160.476031      0.00480428634        -160.476031        0.999940562         108.907219
