# GHz S RI R 50
50  0.05639  -0.1663  -0.2404  0.1462  0  0  0  0
50.1  -0.1041  -0.1418  0.08904  0.2896  0  0  0  0
50.2  -0.1674  0.003042  0.324  0.0004177  0  0  0  0
50.3  -0.08577  0.1259  0.1173  -0.3158  0  0  0  0
50.4  0.04122  0.1309  -0.2667  -0.2198  0  0  0  0
50.5  0.1071  0.053  -0.2944  0.184  0  0  0  0
50.6  0.1112  -0.02126  0.07077  0.338  0  0  0  0
50.7  0.07284  -0.1025  0.3287  0.04929  0  0  0  0
50.8  -0.02578  -0.1445  0.1467  -0.2753  0  0  0  0
50.9  -0.1464  -0.0995  -0.194  -0.2077  0  0  0  0
51  -0.2052  0.04548  -0.2257  0.117  0  0  0  0
51.1  -0.1223  0.2089  0.0655  0.2356  0  0  0  0
51.2  0.07404  0.2559  0.2591  -0.01095  0  0  0  0
51.3  0.2448  0.1306  0.07777  -0.2757  0  0  0  0
51.4  0.2627  -0.08173  -0.2472  -0.1909  0  0  0  0
51.5  0.1251  -0.229  -0.294  0.1596  0  0  0  0
51.6  -0.0567  -0.2319  0.02309  0.3528  0  0  0  0
51.7  -0.179  -0.1276  0.3449  0.1409  0  0  0  0
51.8  -0.2136  0.008148  0.2971  -0.2497  0  0  0  0
51.9  -0.1772  0.144  -0.07488  -0.3823  0  0  0  0
52  -0.05464  0.2601  -0.3509  -0.115  0  0  0  0
52.1  0.1617  0.2726  -0.2328  0.2207  0  0  0  0
52.2  0.359  0.08692  0.08023  0.2285  0  0  0  0
52.3  0.3398  -0.2362  0.1541  -0.02644  0  0  0  0
52.4  0.04454  -0.447  -0.06559  -0.1097  0  0  0  0
52.5  -0.3243  -0.33  -0.1538  0.1146  0  0  0  0
52.6  -0.4444  0.05903  0.09049  0.2606  0  0  0  0
52.7  -0.2543  0.3072  0.3432  0.03778  0  0  0  0
52.8  0.04414  0.3884  0.2239  -0.3245  0  0  0  0
52.9  0.2892  0.2353  -0.1859  -0.386  0  0  0  0
53  0.3623  -0.01585  -0.4501  -0.03785  0  0  0  0
53.1  0.271  -0.2489  -0.2737  0.3794  0  0  0  0
53.2  0.04633  -0.3843  0.1815  0.439  0  0  0  0
53.3  -0.2335  -0.341  0.4643  0.08057  0  0  0  0
53.4  -0.4261  -0.1021  0.3061  -0.3348  0  0  0  0
53.5  -0.3991  0.2229  -0.1079  -0.399  0  0  0  0
53.6  -0.1443  0.4444  -0.3353  -0.09525  0  0  0  0
53.7  0.1981  0.4209  -0.178  0.1909  0  0  0  0
53.8  0.4172  0.1678  0.08812  0.137  0  0  0  0
53.9  0.3981  -0.149  0.07284  -0.1007  0  0  0  0
54  0.1844  -0.3488  -0.1821  -0.09945  0  0  0  0
54.1  -0.07687  -0.3519  -0.2387  0.2119  0  0  0  0
54.2  -0.2536  -0.2064  0.09947  0.4  0  0  0  0
54.3  -0.3005  -0.01193  0.4613  0.1335  0  0  0  0
54.4  -0.2356  0.1569  0.3773  -0.3509  0  0  0  0
54.5  -0.1078  0.2601  -0.1018  -0.5062  0  0  0  0
54.6  0.08438  0.2771  -0.4634  -0.1597  0  0  0  0
54.7  0.2435  0.1584  -0.3247  0.3026  0  0  0  0
54.8  0.2861  -0.03606  0.1191  0.367  0  0  0  0
54.9  0.192  -0.2077  0.3269  0.01618  0  0  0  0
55  0.01595  -0.2766  0.08776  -0.2652  0  0  0  0
55.1  -0.1592  -0.2224  -0.2221  -0.1227  0  0  0  0
55.2  -0.2642  -0.07406  -0.1591  0.2038  0  0  0  0
55.3  -0.2567  0.1111  0.1874  0.2239  0  0  0  0
55.4  -0.1278  0.2598  0.3171  -0.1282  0  0  0  0
55.5  0.08259  0.2896  0.01732  -0.4032  0  0  0  0
55.6  0.2644  0.158  -0.401  -0.2374  0  0  0  0
55.7  0.2983  -0.06684  -0.4542  0.2458  0  0  0  0
55.8  0.1666  -0.2455  -0.03608  0.5439  0  0  0  0
55.9  -0.04344  -0.2763  0.4449  0.3223  0  0  0  0
56  -0.1994  -0.1665  0.4943  -0.1933  0  0  0  0
56.1  -0.2439  -0.004987  0.1012  -0.4839  0  0  0  0
56.2  -0.1903  0.1401  -0.3215  -0.3108  0  0  0  0
56.3  -0.06065  0.2331  -0.3781  0.1126  0  0  0  0
56.4  0.1125  0.2292  -0.05671  0.332  0  0  0  0
56.5  0.2524  0.09881  0.2293  0.1461  0  0  0  0
56.6  0.2608  -0.1033  0.1506  -0.1341  0  0  0  0
56.7  0.1206  -0.2544  -0.1042  -0.1109  0  0  0  0
56.8  -0.07843  -0.2612  -0.1102  0.1457  0  0  0  0
56.9  -0.2197  -0.1386  0.1797  0.2098  0  0  0  0
57  -0.2431  0.03439  0.3773  -0.09795  0  0  0  0
57.1  -0.1535  0.1742  0.1265  -0.4678  0  0  0  0
57.2  0.0005768  0.2161  -0.364  -0.4071  0  0  0  0
57.3  0.1285  0.1433  -0.5711  0.07593  0  0  0  0
57.4  0.1701  0.027  -0.2614  0.5136  0  0  0  0
57.5  0.1262  -0.07931  0.2678  0.483  0  0  0  0
57.6  0.04829  -0.1147  0.5104  0.03378  0  0  0  0
57.7  -0.01274  -0.113  0.2639  -0.3794  0  0  0  0
57.8  -0.07108  -0.09703  -0.1844  -0.369  0  0  0  0
57.9  -0.132  -0.04382  -0.3677  0.003495  0  0  0  0
58  -0.1484  0.0625  -0.1292  0.3035  0  0  0  0
58.1  -0.06819  0.1667  0.2106  0.2072  0  0  0  0
58.2  0.08051  0.1748  0.2349  -0.1198  0  0  0  0
58.3  0.1881  0.05771  -0.0555  -0.2346  0  0  0  0
58.4  0.1638  -0.09941  -0.2428  0.01379  0  0  0  0
58.5  0.03567  -0.1734  -0.04728  0.275  0  0  0  0
58.6  -0.08437  -0.131  0.2918  0.1672  0  0  0  0
58.7  -0.125  -0.04043  0.3246  -0.2214  0  0  0  0
58.8  -0.1083  0.02971  -0.03483  -0.4297  0  0  0  0
58.9  -0.07721  0.07531  -0.3933  -0.2028  0  0  0  0
59  -0.02714  0.1146  -0.3756  0.2172  0  0  0  0
59.1  0.05719  0.118  0.002916  0.4018  0  0  0  0
59.2  0.1314  0.0485  0.3162  0.1573  0  0  0  0
59.3  0.1279  -0.06343  0.234  -0.2051  0  0  0  0
59.4  0.02805  -0.1247  -0.1132  -0.2693  0  0  0  0
59.5  -0.04841  -0.09169  -0.2982  0.0237  0  0  0  0
59.6  -0.07966  -0.04116  -0.09122  0.3066  0  0  0  0
59.7  -0.0844  0.00437  0.2589  0.2209  0  0  0  0
59.8  -0.07641  0.04932  0.3244  -0.143  0  0  0  0
59.9  -0.04303  0.09818  0.01722  -0.3626  0  0  0  0
60  0.03424  0.126  -0.3286  -0.188  0  0  0  0
60.1  0.1332  0.08513  -0.3379  0.2081  0  0  0  0
60.2  0.1842  -0.04292  0.006458  0.4219  0  0  0  0
60.3  0.1061  -0.1914  0.3823  0.2394  0  0  0  0
60.4  -0.08148  -0.2273  0.4311  -0.1983  0  0  0  0
60.5  -0.2371  -0.09739  0.07918  -0.4717  0  0  0  0
60.6  -0.2393  0.1106  -0.3359  -0.3272  0  0  0  0
60.7  -0.08667  0.241  -0.4353  0.09061  0  0  0  0
60.8  0.08199  0.2204  -0.1493  0.3712  0  0  0  0
60.9  0.1731  0.1251  0.1995  0.2702  0  0  0  0
61  0.205  0.02922  0.251  -0.04319  0  0  0  0
61.1  0.2131  -0.07452  0.01369  -0.1718  0  0  0  0
61.2  0.1585  -0.2054  -0.1406  0.008705  0  0  0  0
61.3  -0.001817  -0.2928  0.01876  0.1921  0  0  0  0
61.4  -0.2103  -0.2345  0.2692  0.06105  0  0  0  0
61.5  -0.3254  -0.02458  0.2332  -0.2718  0  0  0  0
61.6  -0.2443  0.2114  -0.1343  -0.4122  0  0  0  0
61.7  -0.02355  0.3082  -0.484  -0.143  0  0  0  0
61.8  0.1792  0.2167  -0.4499  0.3256  0  0  0  0
61.9  0.244  0.03401  -0.03088  0.5814  0  0  0  0
62  0.1861  -0.1026  0.4495  0.3895  0  0  0  0
62.1  0.09574  -0.1744  0.5846  -0.114  0  0  0  0
62.2  -0.007068  -0.2137  0.2645  -0.509  0  0  0  0
62.3  -0.1552  -0.2075  -0.2165  -0.4818  0  0  0  0
62.4  -0.3108  -0.06534  -0.4485  -0.1016  0  0  0  0
62.5  -0.3027  0.205  -0.2775  0.2581  0  0  0  0
62.6  -0.05938  0.3935  0.07075  0.2881  0  0  0  0
62.7  0.2572  0.324  0.2261  0.02649  0  0  0  0
62.8  0.4132  0.03614  0.05228  -0.1816  0  0  0  0
62.9  0.3009  -0.2661  -0.1785  -0.06812  0  0  0  0
63  0.0197  -0.3764  -0.1196  0.1944  0  0  0  0
63.1  -0.2183  -0.2692  0.1823  0.2187  0  0  0  0
63.2  -0.3148  -0.07085  0.3392  -0.08644  0  0  0  0
63.3  -0.2924  0.1237  0.1162  -0.3929  0  0  0  0
63.4  -0.1702  0.2796  -0.2909  -0.3498  0  0  0  0
63.5  0.03513  0.3426  -0.4888  0.03933  0  0  0  0
63.6  0.2453  0.2611  -0.2408  0.4259  0  0  0  0
63.7  0.3602  0.06312  0.1985  0.4159  0  0  0  0
63.8  0.3376  -0.1688  0.4066  0.07086  0  0  0  0
63.9  0.1396  -0.3347  0.2361  -0.2568  0  0  0  0
64  -0.04748  -0.3312  -0.09874  -0.2644  0  0  0  0
64.1  -0.2126  -0.2674  -0.2328  0.005626  0  0  0  0
64.2  -0.3454  -0.1172  -0.04681  0.2151  0  0  0  0
64.3  -0.3767  0.1156  0.2109  0.1208  0  0  0  0
64.4  -0.2365  0.3496  0.23  -0.1619  0  0  0  0
64.5  0.05403  0.435  -0.02511  -0.3196  0  0  0  0
64.6  0.334  0.2806  -0.3097  -0.177  0  0  0  0
64.7  0.4039  -0.02685  -0.3623  0.1608  0  0  0  0
64.8  0.2314  -0.2444  -0.09422  0.433  0  0  0  0
64.9  0.04009  -0.2322  0.3374  0.3531  0  0  0  0
65  0.01977  -0.1978  0.4914  -0.09661  0  0  0  0
65.1  -0.09557  -0.3175  0.197  -0.4447  0  0  0  0
65.2  -0.4176  -0.1781  -0.2257  -0.3905  0  0  0  0
65.3  -0.4134  0.2428  -0.3951  -0.04599  0  0  0  0
65.4  -0.0609  0.4024  -0.2232  0.2423  0  0  0  0
65.5  0.1434  0.2823  0.06482  0.2367  0  0  0  0
65.6  0.239  0.1894  0.155  0.0144  0  0  0  0
65.7  0.3618  0.04182  -0.01389  -0.1061  0  0  0  0
65.8  0.3518  -0.2418  -0.1601  0.0489  0  0  0  0
65.9  0.08544  -0.4498  -0.01843  0.261  0  0  0  0
66  -0.2579  -0.3649  0.2824  0.1933  0  0  0  0
66.1  -0.3974  -0.06703  0.37  -0.1492  0  0  0  0
66.2  -0.28  0.1913  0.1031  -0.4199  0  0  0  0
66.3  -0.06321  0.2574  -0.2905  -0.3536  0  0  0  0
66.4  0.08024  0.1808  -0.4719  0.02964  0  0  0  0
66.5  0.1223  0.08224  -0.254  0.4008  0  0  0  0
66.6  0.1249  0.01804  0.1706  0.4381  0  0  0  0
66.7  0.1341  -0.04252  0.4413  0.1246  0  0  0  0
66.8  0.09536  -0.1481  0.3501  -0.2617  0  0  0  0
66.9  -0.03011  -0.2027  0.00612  -0.4029  0  0  0  0
67  -0.1855  -0.1477  -0.2799  -0.2104  0  0  0  0
67.1  -0.2629  0.01968  -0.2655  0.09483  0  0  0  0
67.2  -0.1918  0.1961  -0.02607  0.2041  0  0  0  0
67.3  -0.02751  0.2597  0.1341  0.04645  0  0  0  0
67.4  0.1045  0.2106  0.03355  -0.1319  0  0  0  0
67.5  0.1713  0.1333  -0.1734  -0.07349  0  0  0  0
67.6  0.2181  0.05014  -0.1824  0.1745  0  0  0  0
67.7  0.2288  -0.07194  0.07979  0.2988  0  0  0  0
67.8  0.153  -0.1959  0.3374  0.09564  0  0  0  0
67.9  0.008493  -0.2526  0.2775  -0.2545  0  0  0  0
68  -0.1484  -0.2157  -0.06971  -0.3828  0  0  0  0
68.1  -0.2767  -0.07338  -0.3583  -0.1473  0  0  0  0
68.2  -0.2577  0.1519  -0.3105  0.2094  0  0  0  0
68.3  -0.06571  0.2753  -0.001098  0.3542  0  0  0  0
68.4  0.1184  0.2081  0.2685  0.185  0  0  0  0
68.5  0.1662  0.07278  0.2711  -0.1087  0  0  0  0
68.6  0.1403  0.01197  0.04423  -0.2501  0  0  0  0
68.7  0.1574  -0.02478  -0.1706  -0.1328  0  0  0  0
68.8  0.1689  -0.1285  -0.1634  0.09298  0  0  0  0
68.9  0.0667  -0.2602  0.0378  0.1793  0  0  0  0
69  -0.1522  -0.2774  0.206  0.02514  0  0  0  0
69.1  -0.3436  -0.09829  0.1336  -0.2127  0  0  0  0
69.2  -0.3341  0.1818  -0.1372  -0.268  0  0  0  0
69.3  -0.1204  0.3618  -0.3436  -0.04541  0  0  0  0
69.4  0.1445  0.3363  -0.2689  0.2723  0  0  0  0
69.5  0.3025  0.1505  0.05202  0.4048  0  0  0  0
69.6  0.2977  -0.0599  0.362  0.2132  0  0  0  0
69.7  0.1891  -0.1917  0.3852  -0.155  0  0  0  0
69.8  0.05644  -0.2356  0.1076  -0.3773  0  0  0  0
69.9  -0.0607  -0.2136  -0.2083  -0.2874  0  0  0  0
70  -0.1505  -0.1599  -0.308  -0.01119  0  0  0  0
70.1  -0.2288  -0.06796  -0.1544  0.1971  0  0  0  0
70.2  -0.2536  0.0877  0.06631  0.1651  0  0  0  0
70.3  -0.1576  0.2473  0.1037  -0.02037  0  0  0  0
70.4  0.03911  0.3171  -0.05876  -0.08464  0  0  0  0
70.5  0.264  0.2338  -0.161  0.08296  0  0  0  0
70.6  0.3814  -0.02341  -0.002081  0.2665  0  0  0  0
70.7  0.2461  -0.2994  0.28  0.1912  0  0  0  0
70.8  -0.04346  -0.3636  0.3739  -0.1385  0  0  0  0
70.9  -0.2535  -0.2072  0.1191  -0.425  0  0  0  0
71  -0.2837  0.005493  -0.2878  -0.374  0  0  0  0
71.1  -0.2001  0.1429  -0.4939  -0.002739  0  0  0  0
71.2  -0.09765  0.218  -0.3181  0.3924  0  0  0  0
71.3  0.03202  0.2458  0.1013  0.4954  0  0  0  0
71.4  0.1644  0.2033  0.4342  0.2276  0  0  0  0
71.5  0.2606  0.0957  0.4166  -0.1817  0  0  0  0
71.6  0.2917  -0.05483  0.09483  -0.3877  0  0  0  0
71.7  0.2362  -0.2189  -0.2136  -0.2478  0  0  0  0
71.8  0.06678  -0.3415  -0.249  0.03877  0  0  0  0
71.9  -0.1656  -0.3015  -0.05465  0.1742  0  0  0  0
72  -0.2753  -0.1101  0.1087  0.06908  0  0  0  0
72.1  -0.2287  0.04574  0.05751  -0.09185  0  0  0  0
72.2  -0.1645  0.1276  -0.1154  -0.07235  0  0  0  0
72.3  -0.07854  0.2083  -0.1478  0.1333  0  0  0  0
72.4  0.08326  0.2389  0.06839  0.2642  0  0  0  0
72.5  0.2622  0.1262  0.3264  0.1101  0  0  0  0
72.6  0.3027  -0.1111  0.3259  -0.2304  0  0  0  0
72.7  0.1479  -0.3091  0.02222  -0.428  0  0  0  0
72.8  -0.09135  -0.3344  -0.3225  -0.2854  0  0  0  0
72.9  -0.2719  -0.2054  -0.4018  0.0724  0  0  0  0
73  -0.3163  -0.004151  -0.1621  0.3322  0  0  0  0
73.1  -0.2409  0.1383  0.1615  0.2787  0  0  0  0
73.2  -0.1408  0.2125  0.2793  0.0008443  0  0  0  0
73.3  -0.02599  0.2504  0.1128  -0.219  0  0  0  0
73.4  0.1174  0.2406  -0.1358  -0.1748  0  0  0  0
73.5  0.2553  0.1267  -0.1955  0.05108  0  0  0  0
73.6  0.2922  -0.07525  -0.02031  0.1898  0  0  0  0
73.7  0.1713  -0.2746  0.1777  0.08526  0  0  0  0
73.8  -0.07247  -0.34  0.1728  -0.1471  0  0  0  0
73.9  -0.3052  -0.2124  -0.04623  -0.2706  0  0  0  0
74  -0.3859  0.04539  -0.2902  -0.1429  0  0  0  0
74.1  -0.2729  0.2921  -0.3327  0.1491  0  0  0  0
74.2  -0.03152  0.3927  -0.1109  0.3798  0  0  0  0
74.3  0.2011  0.317  0.2301  0.3429  0  0  0  0
74.4  0.3202  0.1208  0.4094  0.03398  0  0  0  0
74.5  0.288  -0.07506  0.2567  -0.2872  0  0  0  0
74.6  0.1796  -0.1993  -0.0744  -0.3255  0  0  0  0
74.7  0.03137  -0.2446  -0.2405  -0.09248  0  0  0  0
74.8  -0.1026  -0.2081  -0.137  0.0978  0  0  0  0
74.9  -0.1914  -0.1112  0.007625  0.07511  0  0  0  0
75  -0.2132  0.01181  0.0005624  -0.02364  0  0  0  0