!HP8510      
!L 
!          
!N      
!2-port         
! 9 Sep 2015    
!10:31:55  
!MEASLP    
!150122    
!BFR       
!c050211.a2     
!               
! 1
! 3
! 1
!  4
!  53
!  7
!CHECK STANDARD 20 dB ATTEN                                  
!CTN208              
# GHz S MA R 50
0.1	0.0154	169.1	0.1039	-7.217	0.1039	-7.217	0.00485	154.9
0.1	0.0154	169.1	0.1039	-7.214	0.1039	-7.214	0.00485	155.1
0.1	0.01543	169.1	0.1039	-7.215	0.1039	-7.215	0.00484	155.1
0.15	0.01481	168.1	0.1039	-10.79	0.1039	-10.79	0.00478	134.7
0.15	0.01481	168	0.1039	-10.79	0.1039	-10.79	0.00477	134.9
0.15	0.01484	168.1	0.1039	-10.79	0.1039	-10.79	0.00477	134.9
0.2	0.01498	160.9	0.1039	-14.36	0.1039	-14.36	0.00521	125.6
0.2	0.01499	160.9	0.1039	-14.36	0.1039	-14.36	0.0052	125.8
0.2	0.01502	161	0.1039	-14.36	0.1039	-14.36	0.0052	125.7
0.25	0.01483	158.3	0.1038	-17.92	0.1038	-17.92	0.00557	118.3
0.25	0.01484	158.3	0.1038	-17.92	0.1038	-17.92	0.00556	118.5
0.25	0.01487	158.4	0.1038	-17.92	0.1038	-17.92	0.00556	118.5
0.3	0.01507	153.3	0.1038	-21.49	0.1038	-21.49	0.00621	109.4
0.3	0.01508	153.3	0.1038	-21.49	0.1038	-21.49	0.0062	109.6
0.3	0.01512	153.4	0.1038	-21.49	0.1038	-21.49	0.0062	109.6
0.35	0.01517	149.6	0.1038	-25.05	0.1038	-25.05	0.00687	102.5
0.35	0.01518	149.7	0.1038	-25.05	0.1038	-25.05	0.00686	102.7
0.35	0.01521	149.8	0.1038	-25.06	0.1038	-25.06	0.00685	102.6
0.4	0.01536	145.8	0.1038	-28.62	0.1038	-28.62	0.00745	96.29
0.4	0.01535	145.9	0.1038	-28.62	0.1038	-28.62	0.00744	96.5
0.4	0.01538	146	0.1038	-28.62	0.1038	-28.62	0.00743	96.44
0.45	0.01541	141.8	0.1038	-32.18	0.1038	-32.18	0.00812	90.73
0.45	0.01538	142	0.1038	-32.17	0.1038	-32.17	0.0081	90.96
0.45	0.01541	142.1	0.1038	-32.18	0.1038	-32.18	0.0081	90.91
0.5	0.01575	137.7	0.1038	-35.73	0.1038	-35.73	0.00869	86.35
0.5	0.01569	137.8	0.1038	-35.73	0.1038	-35.73	0.00867	86.6
0.5	0.01572	138	0.1038	-35.74	0.1038	-35.74	0.00866	86.52
0.55	0.01588	134.3	0.1038	-39.3	0.1038	-39.3	0.00935	81.01
0.55	0.01579	134.4	0.1038	-39.3	0.1038	-39.3	0.00931	81.26
0.55	0.01583	134.5	0.1038	-39.3	0.1038	-39.3	0.00931	81.16
0.6	0.01612	130.1	0.1038	-42.86	0.1038	-42.86	0.00995	76.86
0.6	0.01603	130.1	0.1037	-42.86	0.1037	-42.86	0.00991	77.03
0.6	0.01606	130.3	0.1038	-42.86	0.1038	-42.86	0.0099	76.96
0.65	0.01635	127.1	0.1037	-46.41	0.1037	-46.41	0.01047	72.34
0.65	0.01624	127.1	0.1037	-46.41	0.1037	-46.41	0.01043	72.5
0.65	0.01627	127.2	0.1037	-46.4	0.1037	-46.4	0.01043	72.39
0.7	0.01659	123.3	0.1037	-49.96	0.1037	-49.96	0.01118	68.65
0.7	0.01648	123.2	0.1037	-49.94	0.1037	-49.94	0.01113	68.8
0.7	0.01651	123.3	0.1037	-49.95	0.1037	-49.95	0.01113	68.7
0.75	0.01689	119.7	0.1037	-53.5	0.1037	-53.5	0.01167	64.89
0.75	0.0168	119.5	0.1037	-53.52	0.1037	-53.52	0.01162	65.01
0.75	0.01682	119.6	0.1037	-53.49	0.1037	-53.49	0.01161	64.89
0.8	0.01726	116.4	0.1037	-57.06	0.1037	-57.06	0.01227	60.8
0.8	0.01719	116.1	0.1037	-57.06	0.1037	-57.06	0.01223	60.91
0.8	0.01721	116.2	0.1037	-57.09	0.1037	-57.09	0.01223	60.78
0.85	0.01737	113.3	0.1037	-60.62	0.1037	-60.62	0.01277	57.28
0.85	0.01733	113	0.1037	-60.62	0.1037	-60.62	0.01272	57.37
0.85	0.01735	113.1	0.1037	-60.62	0.1037	-60.62	0.01273	57.26
0.9	0.01773	109.9	0.1037	-64.17	0.1037	-64.17	0.01321	53.19
0.9	0.01771	109.6	0.1037	-64.17	0.1037	-64.17	0.01316	53.29
0.9	0.01774	109.7	0.1037	-64.18	0.1037	-64.18	0.01318	53.18
0.95	0.01804	106.7	0.1037	-67.73	0.1037	-67.73	0.01385	49.84
0.95	0.01805	106.5	0.1036	-67.73	0.1036	-67.73	0.0138	49.94
0.95	0.01808	106.6	0.1037	-67.74	0.1037	-67.74	0.01382	49.84
1	0.01836	103.5	0.1036	-71.3	0.1036	-71.3	0.0143	46.08
1	0.01839	103.3	0.1036	-71.31	0.1036	-71.31	0.01425	46.19
1	0.01843	103.5	0.1036	-71.3	0.1036	-71.3	0.01428	46.1
1.5	0.02102	73.87	0.1035	-106.8	0.1035	-106.8	0.01956	9.693
1.5	0.02085	73.46	0.1035	-106.8	0.1035	-106.8	0.01947	9.834
1.5	0.02084	73.55	0.1035	-106.9	0.1035	-106.9	0.01947	9.891
2	0.02315	46.25	0.1034	-142.4	0.1034	-142.4	0.02483	-21.17
2	0.02316	46.29	0.1034	-142.4	0.1034	-142.4	0.02474	-21.09
2	0.02315	46.41	0.1034	-142.4	0.1034	-142.4	0.02471	-21.13
2.5	0.0245	22.18	0.1032	-177.9	0.1032	-177.9	0.02788	-49.61
2.5	0.02457	21.21	0.1032	-177.9	0.1032	-177.9	0.02775	-49.53
2.5	0.02457	21.17	0.1032	-178	0.1032	-178	0.02772	-49.7
3	0.02349	0.37	0.1032	146.5	0.1032	146.5	0.02778	-81.15
3	0.02328	-0.161	0.1031	146.5	0.1031	146.5	0.02766	-81
3	0.02324	-0.121	0.1031	146.5	0.1031	146.5	0.02771	-81.15
3.5	0.02157	-22.47	0.1031	111	0.1031	111	0.02666	-113.1
3.5	0.0219	-23.08	0.1031	110.9	0.1031	110.9	0.02647	-112.9
3.5	0.02193	-23.12	0.1031	110.9	0.1031	110.9	0.0265	-113
4	0.01823	-43.24	0.1031	75.41	0.1031	75.41	0.02586	-143.7
4	0.01819	-44.08	0.1031	75.38	0.1031	75.38	0.02564	-143.5
4	0.01815	-44.26	0.1031	75.33	0.1031	75.33	0.02568	-143.6
4.5	0.0134	-66.66	0.1031	39.75	0.1031	39.75	0.02197	-171
4.5	0.01387	-64.86	0.1031	39.73	0.1031	39.73	0.02171	-170.8
4.5	0.01392	-64.88	0.1031	39.65	0.1031	39.65	0.02179	-171
5	0.00848	-102	0.1031	4.102	0.1031	4.102	0.01668	157.4
5	0.00906	-104.2	0.1031	4.066	0.1031	4.066	0.01636	157.7
5	0.0092	-104.9	0.1031	3.99	0.1031	3.99	0.0165	157.7
5.5	0.0052	170.8	0.1032	-31.58	0.1032	-31.58	0.00971	119.8
5.5	0.00479	170.8	0.1032	-31.6	0.1032	-31.6	0.00939	119.5
5.5	0.00482	171.7	0.1032	-31.66	0.1032	-31.66	0.00958	120
6	0.01225	102	0.1033	-67.35	0.1033	-67.35	0.00348	71.3
6	0.01239	102.6	0.1033	-67.41	0.1033	-67.41	0.00314	68.53
6	0.01233	103.4	0.1033	-67.49	0.1033	-67.49	0.00315	72.25
6.5	0.02289	73.36	0.1033	-103.1	0.1033	-103.1	0.0043	-93.27
6.5	0.02338	70.59	0.1033	-103.2	0.1033	-103.2	0.00467	-93.69
6.5	0.02335	70.58	0.1033	-103.3	0.1033	-103.3	0.00456	-95.32
7	0.03515	50.91	0.1033	-139	0.1033	-139	0.01328	-145.8
7	0.03482	49.57	0.1033	-139.1	0.1033	-139.1	0.01365	-145.6
7	0.03463	49.58	0.1033	-139.2	0.1033	-139.2	0.01367	-146.4
7.5	0.04777	32.35	0.1033	-174.9	0.1033	-174.9	0.02323	-171.1
7.5	0.04781	30.88	0.1033	-175	0.1033	-175	0.02359	-171
7.5	0.04765	30.99	0.1033	-175.1	0.1033	-175.1	0.02362	-171.4
8	0.06082	13.31	0.1032	149.1	0.1032	149.1	0.02915	159.3
8	0.05998	12.55	0.1032	149	0.1032	149	0.02955	159.4
8	0.0597	12.54	0.1032	148.9	0.1032	148.9	0.02971	159
8.5	0.07242	-5.957	0.1032	113.1	0.1032	113.1	0.03276	122.8
8.5	0.07292	-5.9	0.1032	112.9	0.1032	112.9	0.03316	122.9
8.5	0.07267	-5.867	0.1031	112.8	0.1031	112.8	0.03335	122.9
9	0.08152	-23.35	0.1031	76.99	0.1031	76.99	0.03948	89.31
9	0.08245	-24.83	0.1031	76.84	0.1031	76.84	0.03998	89.46
9	0.08226	-25.01	0.1031	76.64	0.1031	76.64	0.04011	89.61
9.5	0.08692	-40.41	0.103	40.87	0.103	40.87	0.04174	57.41
9.5	0.08721	-41.6	0.103	40.68	0.103	40.68	0.04223	57.64
9.5	0.08695	-41.81	0.103	40.47	0.103	40.47	0.04219	57.78
10	0.0891	-56.62	0.1029	4.658	0.1029	4.658	0.0417	27.61
10	0.08933	-59.18	0.1029	4.459	0.1029	4.459	0.04227	27.97
10	0.08903	-59.66	0.1029	4.166	0.1029	4.166	0.04217	28.09
10.5	0.08774	-72.92	0.1028	-31.62	0.1028	-31.62	0.03948	-7.695
10.5	0.08654	-74	0.1028	-31.78	0.1028	-31.78	0.03985	-7.253
10.5	0.08601	-74.33	0.1028	-32.09	0.1028	-32.09	0.03963	-7.266
11	0.08331	-88.51	0.1028	-67.94	0.1028	-67.94	0.03588	-43.82
11	0.0838	-88.77	0.1028	-68.12	0.1028	-68.12	0.0364	-43.09
11	0.08351	-89.01	0.1028	-68.4	0.1028	-68.4	0.03622	-43.21
11.5	0.07565	-103.5	0.1028	-104.4	0.1028	-104.4	0.03138	-82.03
11.5	0.07439	-105.4	0.1028	-104.6	0.1028	-104.6	0.03165	-80.99
11.5	0.07385	-106	0.1028	-105	0.1028	-105	0.03138	-81.47
12	0.06278	-119.3	0.1028	-140.9	0.1028	-140.9	0.02473	-132.1
12	0.06324	-118.7	0.1028	-141.2	0.1028	-141.2	0.02483	-130.7
12	0.06313	-119	0.1028	-141.5	0.1028	-141.5	0.0249	-131.7
12.5	0.04592	-135.4	0.1028	-177.6	0.1028	-177.6	0.02421	170.2
12.5	0.04803	-139.3	0.1028	-177.8	0.1028	-177.8	0.02399	171.2
12.5	0.0485	-140.8	0.1028	-178.1	0.1028	-178.1	0.02429	170.7
13	0.02882	-151.9	0.1027	145.6	0.1027	145.6	0.03222	113
13	0.02693	-154.2	0.1027	145.4	0.1027	145.4	0.03189	113.6
13	0.02622	-156.8	0.1027	145	0.1027	145	0.03215	113.7
13.5	0.01055	173.8	0.1026	108.7	0.1026	108.7	0.03985	70.84
13.5	0.01104	177	0.1026	108.5	0.1026	108.5	0.03957	71.12
13.5	0.01096	176.3	0.1026	108	0.1026	108	0.03982	71.21
14	0.01182	41.13	0.1024	71.71	0.1024	71.71	0.05068	29.68
14	0.01249	30.81	0.1024	71.5	0.1024	71.5	0.05037	29.94
14	0.0127	27.66	0.1024	71.07	0.1024	71.07	0.05052	30.17
14.5	0.02984	5.952	0.102	34.69	0.102	34.69	0.06378	-6.738
14.5	0.02858	2.667	0.1021	34.46	0.1021	34.46	0.06356	-6.606
14.5	0.02831	1.204	0.1021	34.02	0.1021	34.02	0.06359	-6.408
15	0.04484	-11.64	0.1018	-2.36	0.1018	-2.36	0.07708	-36.19
15	0.04517	-13.26	0.1018	-2.581	0.1018	-2.581	0.07664	-36.01
15	0.04451	-14.98	0.1018	-3.041	0.1018	-3.041	0.07645	-35.95
15.5	0.05667	-26.87	0.1016	-39.53	0.1016	-39.53	0.08405	-64.9
15.5	0.05633	-27.61	0.1017	-39.73	0.1017	-39.73	0.08364	-64.69
15.5	0.05643	-26.89	0.1017	-40.17	0.1017	-40.17	0.08357	-64.77
16	0.06235	-38.48	0.1015	-76.76	0.1015	-76.76	0.08897	-93.98
16	0.06418	-38.05	0.1016	-76.98	0.1016	-76.98	0.08824	-93.72
16	0.06614	-38.73	0.1016	-77.45	0.1016	-77.45	0.08818	-93.8
16.5	0.06523	-46.79	0.1015	-114	0.1015	-114	0.09509	-121.5
16.5	0.06593	-48.87	0.1015	-114.2	0.1015	-114.2	0.09425	-121.3
16.5	0.06652	-49.99	0.1015	-114.7	0.1015	-114.7	0.09419	-121.4
17	0.06519	-53.82	0.1014	-151.4	0.1014	-151.4	0.09788	-146.6
17	0.06489	-54.29	0.1015	-151.6	0.1015	-151.6	0.09695	-146.5
17	0.06514	-56.87	0.1015	-152.1	0.1015	-152.1	0.09686	-146.7
17.5	0.06375	-59.66	0.1015	171.2	0.1015	171.2	0.1011	-170.5
17.5	0.06346	-62.11	0.1016	171	0.1016	171	0.1001	-170.3
17.5	0.06077	-64.79	0.1016	170.5	0.1016	170.5	0.1001	-170.5
18	0.0629	-64.16	0.1017	133.9	0.1017	133.9	0.1006	167.8
18	0.06094	-63.07	0.1018	133.7	0.1018	133.7	0.09941	167.9
18	0.0591	-61.95	0.1018	133.2	0.1018	133.2	0.09949	167.6