! libcommonfunc Library of common functions for microwave filters synthesis; version 1.5.2
! [S] parameters file in TouchStone format.

# GHZ S DB R 50

  !Freq                   S11(dB)                 S11(ang)                S12(dB)                 S12(ang)                S21(dB)                 S21(ang)                S22(dB)                 S22(ang)              
12.65                   -0.062219065560121       -31.100091726467        -59.503319557759         -122.43653563709        -59.503319557759         -122.43653563709        -0.062219065560122       -46.084634897886        
12.6500750375           -0.062359506052531       -31.13419807607         -59.48691813432          -122.47161467762        -59.48691813432          -122.47161467762        -0.062359506052532       -46.135556985788        
12.650150075            -0.062500435103583       -31.168381218124        -59.470504863969         -122.50677037418        -59.470504863969         -122.50677037418        -0.062500435103582       -46.186594567537        
12.6502251126           -0.062641855042325       -31.202641419556        -59.454079746553         -122.54200297901        -59.454079746553         -122.54200297901        -0.062641855042325       -46.237748046675        
12.6503001501           -0.062783768212079       -31.236978948572        -59.437642782071         -122.57731274547        -59.437642782071         -122.57731274547        -0.062783768212079       -46.289017828679        
12.6503751876           -0.062926176970482       -31.271394074656        -59.421193970687         -122.61269992799        -59.421193970687         -122.61269992799        -0.062926176970482       -46.34040432096         
12.6504502251           -0.063069083689654       -31.305887068577        -59.404733312724         -122.64816478211        -59.404733312724         -122.64816478211        -0.063069083689654       -46.391907932874        
12.6505252626           -0.06321249075626        -31.340458202401        -59.388260808671         -122.6837075645         -59.388260808671         -122.6837075645         -0.06321249075626        -46.443529075745        
12.6506003002           -0.063356400571663       -31.375107749498        -59.371776459179         -122.71932853293        -59.371776459179         -122.71932853293        -0.063356400571663       -46.495268162868        
12.6506753377           -0.063500815551993       -31.409835984547        -59.355280265073         -122.7550279463         -59.355280265073         -122.7550279463         -0.063500815551994       -46.547125609519        
12.6507503752           -0.063645738128297       -31.44464318355         -59.338772227341         -122.79080606464        -59.338772227341         -122.79080606464        -0.063645738128297       -46.599101832979        
12.6508254127           -0.06379117074663        -31.479529623834        -59.322252347148         -122.82666314911        -59.322252347148         -122.82666314911        -0.06379117074663        -46.651197252533        
12.6509004502           -0.063937115868168       -31.514495584062        -59.305720625831         -122.86259946203        -59.305720625831         -122.86259946203        -0.063937115868168       -46.703412289494        
12.6509754877           -0.064083575969337       -31.549541344243        -59.289177064903         -122.89861526683        -59.289177064903         -122.89861526683        -0.064083575969337       -46.755747367203        
12.6510505253           -0.064230553541901       -31.584667185735        -59.272621666057         -122.93471082813        -59.272621666057         -122.93471082813        -0.064230553541901       -46.808202911052        
12.6511255628           -0.064378051093137       -31.61987339126         -59.256054431166         -122.97088641169        -59.256054431166         -122.97088641169        -0.064378051093137       -46.860779348494        
12.6512006003           -0.064526071145865       -31.655160244907        -59.239475362285         -123.00714228443        -59.239475362285         -123.00714228443        -0.064526071145865       -46.913477109051        
12.6512756378           -0.064674616238653       -31.690528032142        -59.222884461656         -123.04347871446        -59.222884461656         -123.04347871446        -0.064674616238652       -46.966296624332        
12.6513506753           -0.064823688925904       -31.725977039822        -59.206281731704         -123.07989597105        -59.206281731704         -123.07989597105        -0.064823688925904       -47.019238328048        
12.6514257129           -0.064973291777943       -31.761507556192        -59.18966717505          -123.11639432467        -59.18966717505          -123.11639432467        -0.064973291777943       -47.072302656015        
12.6515007504           -0.065123427381194       -31.797119870907        -59.173040794503         -123.15297404696        -59.173040794503         -123.15297404696        -0.065123427381195       -47.125490046178        
12.6515757879           -0.065274098338287       -31.83281427503         -59.156402593066         -123.18963541078        -59.156402593066         -123.18963541078        -0.065274098338287       -47.178800938621        
12.6516508254           -0.06542530726815        -31.868591061047        -59.13975257394          -123.22637869016        -59.13975257394          -123.22637869016        -0.06542530726815        -47.232235775572        
12.6517258629           -0.065577056806189       -31.904450522874        -59.123090740526         -123.26320416038        -59.123090740526         -123.26320416038        -0.065577056806189       -47.285795001433        
12.6518009005           -0.065729349604366       -31.940392955867        -59.106417096424         -123.30011209789        -59.106417096424         -123.30011209789        -0.065729349604366       -47.339479062777        
12.651875938            -0.065882188331361       -31.976418656826        -59.089731645441         -123.3371027804         -59.089731645441         -123.3371027804         -0.065882188331361       -47.39328840837         
12.6519509755           -0.066035575672696       -32.012527924016        -59.073034391588         -123.37417648683        -59.073034391588         -123.37417648683        -0.066035575672697       -47.447223489186        
12.652026013            -0.066189514330842       -32.048721057161        -59.056325339086         -123.41133349732        -59.056325339086         -123.41133349732        -0.066189514330842       -47.501284758419        
12.6521010505           -0.066344007025371       -32.084998357464        -59.039604492368         -123.44857409329        -59.039604492368         -123.44857409329        -0.066344007025371       -47.555472671491        
12.652176088            -0.066499056493093       -32.121360127613        -59.022871856081         -123.48589855737        -59.022871856081         -123.48589855737        -0.066499056493092       -47.609787686076        
12.6522511256           -0.066654665488183       -32.15780667179         -59.006127435088         -123.52330717346        -59.006127435088         -123.52330717346        -0.066654665488183       -47.664230262109        
12.6523261631           -0.066810836782305       -32.194338295682        -58.989371234474         -123.56080022672        -58.989371234474         -123.56080022672        -0.066810836782305       -47.718800861798        
12.6524012006           -0.066967573164773       -32.230955306487        -58.972603259542         -123.59837800358        -58.972603259542         -123.59837800358        -0.066967573164773       -47.773499949644        
12.6524762381           -0.067124877442664       -32.267658012929        -58.955823515823         -123.63604079173        -58.955823515823         -123.63604079173        -0.067124877442664       -47.82832799245         
12.6525512756           -0.067282752440993       -32.304446725264        -58.939032009075         -123.67378888016        -58.939032009075         -123.67378888016        -0.067282752440993       -47.883285459345        
12.6526263132           -0.067441201002796       -32.341321755288        -58.922228745286         -123.71162255912        -58.922228745286         -123.71162255912        -0.067441201002796       -47.938372821782        
12.6527013507           -0.067600225989327       -32.378283416354        -58.905413730677         -123.74954212019        -58.905413730677         -123.74954212019        -0.067600225989328       -47.99359055357         
12.6527763882           -0.067759830280188       -32.415332023375        -58.888586971705         -123.78754785623        -58.888586971705         -123.78754785623        -0.067759830280188       -48.048939130882        
12.6528514257           -0.067920016773445       -32.452467892834        -58.871748475068         -123.8256400614         -58.871748475068         -123.8256400614         -0.067920016773444       -48.104419032264        
12.6529264632           -0.06808078838581        -32.4896913428          -58.854898247702         -123.86381903119        -58.854898247702         -123.86381903119        -0.06808078838581        -48.160030738661        
12.6530015008           -0.068242148052765       -32.527002692934        -58.838036296792         -123.90208506241        -58.838036296792         -123.90208506241        -0.068242148052765       -48.215774733427        
12.6530765383           -0.068404098728731       -32.564402264499        -58.821162629767         -123.94043845319        -58.821162629767         -123.94043845319        -0.068404098728731       -48.271651502339        
12.6531515758           -0.068566643387188       -32.601890380372        -58.804277254309         -123.978879503          -58.804277254309         -123.978879503          -0.068566643387188       -48.327661533617        
12.6532266133           -0.068729785020875       -32.639467365054        -58.787380178352         -124.01740851267        -58.787380178352         -124.01740851267        -0.068729785020874       -48.383805317936        
12.6533016508           -0.06889352664187        -32.677133544678        -58.770471410091         -124.05602578434        -58.770471410091         -124.05602578434        -0.06889352664187        -48.44008334844         
12.6533766883           -0.069057871281829       -32.714889247023        -58.753550957977         -124.09473162154        -58.753550957977         -124.09473162154        -0.069057871281829       -48.496496120765        
12.6534517259           -0.069222821992078       -32.752734801525        -58.736618830725         -124.13352632916        -58.736618830725         -124.13352632916        -0.069222821992078       -48.55304413305         
12.6535267634           -0.069388381843797       -32.790670539283        -58.719675037318         -124.17241021345        -58.719675037318         -124.17241021345        -0.069388381843797       -48.60972788595         
12.6536018009           -0.069554553928177       -32.828696793076        -58.702719587008         -124.21138358204        -58.702719587008         -124.21138358204        -0.069554553928176       -48.666547882661        
12.6536768384           -0.06972134135658        -32.866813897369        -58.685752489319         -124.25044674397        -58.685752489319         -124.25044674397        -0.06972134135658        -48.723504628932        
12.6537518759           -0.069888747260691       -32.905022188325        -58.668773754053         -124.28960000963        -58.668773754053         -124.28960000963        -0.069888747260691       -48.780598633076        
12.6538269135           -0.070056774792702       -32.94332200382         -58.651783391291         -124.32884369084        -58.651783391291         -124.32884369084        -0.070056774792702       -48.837830405996        
12.653901951            -0.070225427125463       -32.981713683451        -58.634781411397         -124.36817810084        -58.634781411397         -124.36817810084        -0.070225427125463       -48.895200461202        
12.6539769885           -0.070394707452633       -33.020197568541        -58.617767825022         -124.40760355424        -58.617767825022         -124.40760355424        -0.070394707452634       -48.952709314812        
12.654052026            -0.070564618988886       -33.058774002166        -58.600742643107         -124.44712036712        -58.600742643107         -124.44712036712        -0.070564618988887       -49.010357485591        
12.6541270635           -0.070735164970059       -33.097443329151        -58.583705876885         -124.48672885697        -58.583705876885         -124.48672885697        -0.070735164970059       -49.068145494956        
12.6542021011           -0.070906348653326       -33.136205896092        -58.566657537889         -124.52642934272        -58.566657537889         -124.52642934272        -0.070906348653326       -49.126073866996        
12.6542771386           -0.071078173317355       -33.175062051358        -58.549597637952         -124.56622214473        -58.549597637952         -124.56622214473        -0.071078173317355       -49.184143128482        
12.6543521761           -0.071250642262513       -33.214012145113        -58.532526189211         -124.60610758485        -58.532526189211         -124.60610758485        -0.071250642262513       -49.242353808899        
12.6544272136           -0.071423758811032       -33.253056529323        -58.51544320411          -124.64608598635        -58.51544320411          -124.64608598635        -0.071423758811031       -49.300706440458        
12.6545022511           -0.071597526307173       -33.292195557764        -58.498348695409         -124.686157674          -58.498348695409         -124.686157674          -0.071597526307173       -49.359201558106        
12.6545772886           -0.071771948117414       -33.331429586042        -58.481242676179         -124.72632297404        -58.481242676179         -124.72632297404        -0.071771948117414       -49.417839699552        
12.6546523262           -0.071947027630658       -33.370758971599        -58.464125159814         -124.76658221417        -58.464125159814         -124.76658221417        -0.071947027630658       -49.476621405288        
12.6547273637           -0.07212276825836        -33.410184073728        -58.446996160031         -124.80693572361        -58.446996160031         -124.80693572361        -0.07212276825836        -49.535547218596        
12.6548024012           -0.07229917343477        -33.449705253583        -58.429855690874         -124.84738383308        -58.429855690874         -124.84738383308        -0.072299173434771       -49.594617685579        
12.6548774387           -0.0724762466171         -33.489322874198        -58.412703766718         -124.88792687479        -58.412703766718         -124.88792687479        -0.072476246617099       -49.653833355176        
12.6549524762           -0.072653991285667       -33.529037300487        -58.395540402276         -124.92856518247        -58.395540402276         -124.92856518247        -0.072653991285668       -49.713194779169        
12.6550275138           -0.072832410944192       -33.568848899272        -58.378365612599         -124.96929909139        -58.378365612599         -124.96929909139        -0.072832410944192       -49.772702512224        
12.6551025513           -0.073011509119864       -33.608758039284        -58.36117941308          -125.01012893834        -58.36117941308          -125.01012893834        -0.073011509119864       -49.832357111891        
12.6551775888           -0.073191289363636       -33.648765091178        -58.343981819465         -125.05105506165        -58.343981819465         -125.05105506165        -0.073191289363635       -49.892159138631        
12.6552526263           -0.073371755250362       -33.688870427551        -58.326772847849         -125.0920778012         -58.326772847849         -125.0920778012         -0.073371755250362       -49.952109155837        
12.6553276638           -0.073552910379041       -33.729074422953        -58.309552514684         -125.13319749842        -58.309552514684         -125.13319749842        -0.073552910379041       -50.012207729851        
12.6554027014           -0.073734758372954       -33.769377453893        -58.292320836785         -125.17441449631        -58.292320836785         -125.17441449631        -0.073734758372954       -50.07245542998         
12.6554777389           -0.073917302879946       -33.809779898865        -58.275077831329         -125.21572913945        -58.275077831329         -125.21572913945        -0.073917302879946       -50.132852828529        
12.6555527764           -0.074100547572573       -33.850282138351        -58.257823515866         -125.257141774          -58.257823515866         -125.257141774          -0.074100547572573       -50.193400500805        
12.6556278139           -0.074284496148316       -33.890884554839        -58.24055790832          -125.29865274769        -58.24055790832          -125.29865274769        -0.074284496148316       -50.254099025145        
12.6557028514           -0.07446915232981        -33.931587532834        -58.223281026994         -125.34026240988        -58.223281026994         -125.34026240988        -0.07446915232981        -50.314948982936        
12.6557778889           -0.074654519865041       -33.972391458876        -58.205992890574         -125.3819711115         -58.205992890574         -125.3819711115         -0.074654519865041       -50.375950958641        
12.6558529265           -0.074840602527579       -34.013296721553        -58.188693518135         -125.42377920512        -58.188693518135         -125.42377920512        -0.074840602527579       -50.437105539809        
12.655927964            -0.075027404116729       -34.054303711506        -58.171382929148         -125.46568704494        -58.171382929148         -125.46568704494        -0.075027404116728       -50.498413317098        
12.6560030015           -0.075214928457846       -34.095412821458        -58.154061143477         -125.50769498676        -58.154061143477         -125.50769498676        -0.075214928457846       -50.559874884307        
12.656078039            -0.075403179402488       -34.136624446217        -58.136728181393         -125.54980338804        -58.136728181393         -125.54980338804        -0.075403179402487       -50.621490838388        
12.6561530765           -0.07559216082863        -34.177938982692        -58.119384063575         -125.59201260791        -58.119384063575         -125.59201260791        -0.07559216082863        -50.683261779461        
12.6562281141           -0.075781876640932       -34.219356829914        -58.102028811111         -125.63432300711        -58.102028811111         -125.63432300711        -0.075781876640931       -50.745188310854        
12.6563031516           -0.075972330770949       -34.260878389043        -58.084662445513         -125.67673494809        -58.084662445513         -125.67673494809        -0.07597233077095        -50.807271039111        
12.6563781891           -0.076163527177325       -34.302504063383        -58.067284988711         -125.71924879495        -58.067284988711         -125.71924879495        -0.076163527177325       -50.869510574012        
12.6564532266           -0.076355469846087       -34.344234258403        -58.049896463068         -125.76186491348        -58.049896463068         -125.76186491348        -0.076355469846086       -50.931907528607        
12.6565282641           -0.076548162790818       -34.386069381749        -58.032496891378         -125.80458367118        -58.032496891378         -125.80458367118        -0.076548162790818       -50.994462519232        
