!Agilent Technologies,N5245A,MY52451605,A.09.90.02
!Agilent N5245A: A.09.90.02
!Date: Thursday, October 03, 2013 09:00:32
!Correction: S11(Full 2 Port(1,2)) 
!S21(Full 2 Port(1,2)) 
!S12(Full 2 Port(1,2)) 
!S22(Full 2 Port(1,2)) 
!S2P File: Measurements: S11, S21, S12, S22:
# Hz S  MA   R 50
500000000 1.0037197 -7.5264792 5.8579254 176.85683 0.0081123281 84.137253 0.73140407 -2.8450332
600000000 0.99865079 -8.6253815 5.8824887 175.97424 0.0097987298 84.112083 0.73213398 -4.0382996
700000000 0.99919802 -10.337319 5.8977523 174.7101 0.011375926 82.836601 0.73064548 -4.3848181
800000000 0.99535668 -11.599438 5.8949361 173.44545 0.012994755 82.19207 0.73194498 -5.3273888
900000000 0.99790913 -13.114565 5.9218745 172.23805 0.014591162 81.322311 0.73021734 -5.9524245
1000000000 0.99395227 -14.459338 5.8866568 171.37312 0.016091634 80.693802 0.72887546 -6.7872725
1100000000 0.9922539 -15.656133 5.8845282 170.2337 0.017722623 79.882645 0.7291624 -7.689333
1200000000 0.99497175 -17.182652 5.8534708 169.33759 0.019328006 79.178551 0.72595644 -8.2136726
1300000000 0.99152082 -18.526644 5.8220835 167.79843 0.020880261 78.263214 0.72493529 -9.0122118
1400000000 0.99051279 -19.975466 5.7379346 167.49216 0.02242318 77.456924 0.72272664 -9.565547
1500000000 0.98973352 -21.339916 5.7222519 166.49597 0.023943553 76.701126 0.7207098 -10.345828
1600000000 0.98855597 -22.553961 5.6995153 165.62236 0.025468662 75.907806 0.72048676 -11.046766
1700000000 0.98551577 -24.018778 5.6848192 164.42383 0.027009623 75.229866 0.71884251 -11.758172
1800000000 0.98391575 -25.403597 5.627563 163.46484 0.028507341 74.366669 0.71585542 -12.446243
1900000000 0.98169845 -26.790989 5.5839558 162.44696 0.030076953 73.595825 0.7138291 -13.017991
2000000000 0.97938597 -28.060555 5.5397654 161.41043 0.031433363 72.830399 0.71241963 -13.746265
2100000000 0.97881019 -29.50304 5.5726476 160.09377 0.03292254 72.032082 0.7089113 -14.348868
2200000000 0.9742257 -30.940378 5.5453472 158.94978 0.03439432 71.228149 0.70724928 -15.084414
2300000000 0.97200179 -32.255932 5.5082102 157.86391 0.035782263 70.524208 0.70510048 -15.707548
2400000000 0.97042078 -33.486557 5.4857249 156.80795 0.037213236 69.669884 0.70239139 -16.413069
2500000000 0.96717769 -34.824089 5.4659896 155.84326 0.038722802 68.918846 0.70133066 -17.076834
2600000000 0.96547312 -36.283382 5.4329634 154.70779 0.040083203 68.165718 0.69825256 -17.6991
2700000000 0.96358848 -37.589722 5.4185905 153.65829 0.04146817 67.399437 0.69506109 -18.444948
2800000000 0.96011519 -38.89592 5.4105487 152.59576 0.042833969 66.550621 0.6922484 -19.008247
2900000000 0.95662796 -40.299152 5.4063568 151.3819 0.044154182 65.872215 0.6901257 -19.771629
3000000000 0.95572466 -41.620586 5.3558297 150.44124 0.04539451 65.131668 0.68539143 -20.231012
3100000000 0.95187557 -42.87558 5.3711572 149.3887 0.046816949 64.42907 0.68391192 -21.02388
3200000000 0.94814873 -44.277534 5.3214245 148.34744 0.048142627 63.468182 0.68071914 -21.703547
3300000000 0.94620913 -45.683014 5.2753887 147.44566 0.049257584 62.71912 0.67526394 -22.221085
3400000000 0.94395357 -46.86919 5.247138 146.3598 0.050347321 62.098141 0.67112261 -22.766033
3500000000 0.93985969 -48.108833 5.2426481 145.36702 0.051777255 61.394672 0.67072731 -23.39991
3600000000 0.9381004 -49.5326 5.2376456 144.39319 0.053118326 60.711529 0.66892177 -24.08626
3700000000 0.93553674 -50.844872 5.2308941 143.41193 0.054338761 59.955025 0.66575205 -24.757393
3800000000 0.93265539 -52.141052 5.2076755 142.22151 0.05566708 58.814255 0.66097397 -25.800253
3900000000 0.92891049 -53.433037 5.1343641 141.12125 0.056500044 58.224865 0.65592098 -26.167854
4000000000 0.92670113 -54.756763 5.1423578 140.18915 0.057712819 57.885944 0.65374148 -26.450138
4100000000 0.92376548 -56.025291 5.1442485 139.23267 0.058879722 56.991707 0.65108466 -27.310322
4200000000 0.92096221 -57.327526 5.1255698 138.33264 0.06013054 56.24334 0.64858723 -27.96397
4300000000 0.917247 -58.678963 5.0923519 137.20528 0.061112512 55.508091 0.64332944 -28.530197
4400000000 0.91355735 -59.906845 5.0549326 136.11545 0.061964709 54.865013 0.63931292 -29.040705
4500000000 0.91063297 -61.180244 5.0481033 135.27283 0.06311924 54.262901 0.63650388 -29.656071
4600000000 0.90635592 -62.380062 5.0086813 134.25699 0.064222038 53.772526 0.63498968 -30.128464
4700000000 0.9045344 -63.889599 5.0422263 133.2464 0.065181457 53.096817 0.62939388 -30.613541
4800000000 0.90124279 -64.974609 4.9708495 132.51366 0.066159084 52.143372 0.62598199 -31.533274
4900000000 0.89715898 -66.160538 4.9402413 131.31763 0.067172103 51.692169 0.62298274 -31.841427
5000000000 0.8930366 -67.458511 4.9308672 130.1834 0.068192616 50.936413 0.61892211 -32.656876
5100000000 0.89130282 -68.816948 4.9285407 129.31607 0.068927199 50.525909 0.61609602 -32.99781
5200000000 0.88971007 -69.929733 4.899457 128.57942 0.07008528 49.665916 0.6117202 -33.801167
5300000000 0.88423604 -71.170113 4.871829 127.46445 0.071141623 49.108986 0.60951841 -34.404854
5400000000 0.88139069 -72.713615 4.8593612 126.54234 0.071758017 48.424751 0.60350251 -34.77866
5500000000 0.87820244 -73.775757 4.8062382 125.56808 0.072703876 47.687298 0.60062671 -35.528866
5600000000 0.8739416 -74.876045 4.7988954 124.41547 0.073620677 47.159435 0.59790349 -35.982567
5700000000 0.87021601 -76.308472 4.801846 123.65698 0.075059965 46.349205 0.59557432 -36.915924
5800000000 0.86851138 -77.669945 4.7638092 122.65251 0.075199492 45.586388 0.58828747 -37.313412
5900000000 0.86561596 -78.660835 4.7222419 121.94101 0.075673647 44.949356 0.58219677 -37.856392
6000000000 0.86059707 -79.836044 4.6956654 120.97261 0.076845318 44.569668 0.58275825 -38.376335
6100000000 0.85898435 -81.099266 4.6822443 120.11875 0.07800474 44.180042 0.58079219 -38.803738
6200000000 0.85510856 -82.322922 4.6687183 118.96539 0.078795828 43.245865 0.57581699 -39.708584
6300000000 0.85147852 -83.726509 4.6633549 118.11989 0.079436995 42.34132 0.5705716 -40.299107
6400000000 0.84858727 -84.925774 4.6069832 117.25483 0.079735249 42.049896 0.5654043 -40.639515
6500000000 0.84660906 -86.039787 4.5813956 116.32356 0.080211528 41.795658 0.56290889 -40.828438
6600000000 0.84284461 -87.067986 4.5580668 115.74058 0.081207469 41.050987 0.55944127 -41.602615
6700000000 0.83813536 -88.314644 4.5237522 114.56892 0.081945442 40.262798 0.55599511 -42.333477
6800000000 0.83680195 -89.694542 4.5286837 113.77342 0.08258073 39.743858 0.55189323 -42.789204
6900000000 0.83448178 -90.917091 4.5027261 113.00598 0.08283221 38.650951 0.54434478 -43.578434
7000000000 0.83203995 -91.97538 4.4740739 111.97559 0.083054177 38.734585 0.54173547 -43.574162
7100000000 0.82749957 -92.900742 4.4406099 111.02947 0.084098577 38.478607 0.54055703 -44.061127
7200000000 0.82451928 -94.325951 4.4329295 110.22567 0.085046761 37.39761 0.53720242 -45.05724
7300000000 0.82278454 -95.4795 4.3889656 109.55401 0.085009873 36.8074 0.52984774 -45.327538
7400000000 0.81975812 -96.541374 4.3731189 108.59225 0.085525937 36.548382 0.52823091 -45.786747
7500000000 0.81657785 -97.684471 4.3659983 107.86581 0.08636684 35.936081 0.52557206 -46.304146
7600000000 0.81459892 -98.897018 4.3348918 106.9586 0.086684801 35.326477 0.52086085 -46.992069
7700000000 0.81156975 -99.955902 4.3083463 105.87528 0.087092988 35.091888 0.51816243 -47.147224
7800000000 0.80748641 -101.08407 4.2788167 105.13202 0.087711588 34.495594 0.5134508 -47.843819
7900000000 0.80621529 -102.30997 4.2592487 104.2669 0.08828181 33.902328 0.51120341 -48.369438
8000000000 0.80462199 -103.23872 4.2284045 103.71892 0.08904212 33.685028 0.50849843 -48.720863
8100000000 0.79976225 -104.45448 4.2160873 102.73081 0.089506976 33.047951 0.50605214 -49.400135
8200000000 0.79757291 -105.71731 4.1895576 101.84814 0.089948595 32.354229 0.50097871 -49.903316
8300000000 0.79534984 -106.78085 4.1705513 100.88062 0.090479635 31.979681 0.49874988 -50.431534
8400000000 0.79238003 -107.66423 4.1300178 100.27559 0.090884306 31.510996 0.49529552 -50.853493
8500000000 0.78820902 -108.95418 4.1147528 99.330231 0.091134131 30.973078 0.49083728 -51.356396
8600000000 0.78804886 -109.94461 4.0888467 98.508255 0.09193036 30.775934 0.48988152 -51.70311
8700000000 0.78534853 -110.89288 4.0713005 98.048317 0.092775285 30.031464 0.48681033 -52.44249
8800000000 0.78033274 -112.17833 4.0405369 97.020813 0.092836902 29.263054 0.48139456 -53.125385
8900000000 0.77908045 -113.41733 4.0131669 96.19989 0.092763931 28.713886 0.47649336 -53.32299
9000000000 0.77685541 -114.23064 3.9906194 95.387634 0.093241893 28.517811 0.47393429 -53.796585
9100000000 0.77325338 -115.09131 3.9586816 94.831573 0.093609959 28.02533 0.47174993 -54.192966
9200000000 0.76885843 -116.38857 3.9396553 93.880562 0.094273798 27.355755 0.46787545 -54.851688
9300000000 0.76823336 -117.45527 3.920387 93.126205 0.094596565 26.861925 0.46594098 -55.337124
9400000000 0.76573032 -118.65103 3.9099586 92.484741 0.094628006 25.922157 0.45878255 -55.996891
9500000000 0.76482153 -119.61208 3.8594875 91.752449 0.093975134 25.669107 0.45519796 -56.142143
9600000000 0.76649076 -120.43117 3.842936 91.052719 0.094558343 25.592659 0.45402989 -56.507927
9700000000 0.75864434 -121.19309 3.8316987 90.337891 0.095665216 25.110971 0.45294076 -57.201794
9800000000 0.75380093 -122.51667 3.7981493 89.550468 0.09588439 24.173983 0.44867745 -57.758656
9900000000 0.75359637 -123.79498 3.7795103 88.688629 0.095159441 23.618959 0.44267857 -58.06094
10000000000 0.75453925 -124.57668 3.7647216 88.147713 0.094998546 23.656799 0.44080821 -58.199715
10100000000 0.7513501 -125.41553 3.7425704 87.400848 0.095372051 23.18866 0.43790224 -58.823658
10200000000 0.74834329 -126.38365 3.711143 86.732445 0.095933184 22.855692 0.43625939 -59.367802
10300000000 0.74643147 -127.45741 3.6943643 85.90863 0.096016787 22.367052 0.43348941 -59.780056
10400000000 0.74694526 -128.51112 3.6789465 85.252022 0.096117556 21.85914 0.42877683 -60.384556
10500000000 0.74468422 -129.39143 3.6489637 84.527138 0.096092492 21.659067 0.42711106 -60.62883
10600000000 0.74297065 -130.34547 3.6282885 83.849503 0.096145168 21.331926 0.42314273 -60.949131
10700000000 0.7421028 -131.32881 3.6208196 83.114861 0.096329182 21.009878 0.4220514 -61.444176
10800000000 0.74028617 -132.14659 3.5902283 82.483688 0.096501976 20.659807 0.41822934 -61.775482
10900000000 0.73716295 -133.15936 3.5752606 81.775192 0.096841328 20.285006 0.41646227 -62.362934
11000000000 0.73627096 -134.0712 3.5371976 80.898758 0.096606568 19.918997 0.41277331 -62.514851
11100000000 0.73597455 -134.89928 3.5292118 80.372223 0.096751072 19.623825 0.41069612 -63.153687
11200000000 0.73351443 -135.73648 3.4984391 79.799301 0.097419739 19.390711 0.41005284 -63.335812
11300000000 0.73180908 -136.92815 3.4933219 79.029495 0.097415216 18.792414 0.40560082 -64.221458
11400000000 0.72976333 -137.78412 3.4677639 78.346474 0.09713503 18.414391 0.40251821 -64.277245
11500000000 0.73131299 -138.67131 3.4527667 77.824646 0.097475447 18.147745 0.40058687 -64.908417
11600000000 0.73069489 -139.39528 3.4201462 76.948853 0.097212926 17.950848 0.39908099 -65.104271
11700000000 0.72953779 -140.07155 3.402463 76.350441 0.097491629 17.824972 0.39646918 -65.524643
11800000000 0.72720629 -141.03891 3.3954422 75.780632 0.098179057 17.344082 0.39625308 -66.162163
11900000000 0.72572511 -142.11337 3.3651793 75.215202 0.098576464 16.871418 0.39291844 -66.677406
12000000000 0.72519833 -143.19641 3.3453155 74.378014 0.098135471 16.347736 0.3885704 -67.124367
12100000000 0.72614628 -143.95335 3.320035 73.726944 0.097737573 16.031103 0.38531235 -67.384735
12200000000 0.72555244 -144.27286 3.3111062 73.160858 0.098239228 16.244909 0.38585615 -67.552361
12300000000 0.72158188 -144.85724 3.3020456 72.622742 0.099011406 16.114338 0.38577062 -68.249763
12400000000 0.71776861 -146.34158 3.2814653 71.867203 0.099348761 15.09386 0.38175267 -69.074631
12500000000 0.72033131 -147.53712 3.2540801 71.201576 0.098834381 14.530565 0.3768965 -69.637108
12600000000 0.72147435 -147.99187 3.2260864 70.602638 0.098728135 14.666512 0.37478611 -69.537079
12700000000 0.71904415 -148.75127 3.2189374 69.995232 0.099167101 14.370374 0.37250343 -70.227997
12800000000 0.71540248 -149.65907 3.202327 69.299301 0.099030934 13.44101 0.37035599 -70.562904
12900000000 0.71360713 -150.49799 3.1911628 68.791992 0.09897171 13.335958 0.36744508 -70.970634
13000000000 0.7133705 -151.34109 3.1695814 68.337906 0.098540887 13.14111 0.36674419 -71.198822
13100000000 0.71494746 -152.00322 3.1410131 67.654533 0.098434098 12.912852 0.36307448 -71.581627
13200000000 0.71386933 -152.55937 3.134618 66.986565 0.098366916 12.959644 0.36382136 -71.864693
13300000000 0.71184361 -153.52536 3.1276953 66.304451 0.099281713 12.567494 0.36140859 -72.47554
13400000000 0.71102178 -154.40649 3.1125524 65.725517 0.098721169 12.149878 0.35979745 -72.980431
13500000000 0.71060306 -155.10786 3.0948977 65.113831 0.098651424 11.511492 0.35694844 -73.462212
13600000000 0.70968318 -155.963 3.0720475 64.573097 0.098860972 11.579456 0.35604906 -73.858292
13700000000 0.71122563 -156.84636 3.0496426 64.030678 0.098506019 11.409523 0.35430643 -74.069504
13800000000 0.71067083 -157.18401 3.0374503 63.214447 0.098841116 11.329929 0.35396069 -74.487755
13900000000 0.70706666 -158.062 3.0397172 62.788586 0.099115923 10.708979 0.35144562 -75.217674
14000000000 0.70419908 -159.19504 3.0244842 62.104836 0.099005379 10.32881 0.35070527 -75.524719
14100000000 0.70842743 -160.06824 3.0030904 61.398239 0.098232523 10.276735 0.34804493 -76.18605
14200000000 0.7103284 -160.50661 2.9879889 60.768097 0.098560743 10.05606 0.34790263 -76.574875
14300000000 0.70708865 -161.25816 2.9575825 60.250214 0.098915547 9.968646 0.3431446 -77.067368
14400000000 0.70802951 -161.95128 2.9498012 59.715858 0.098528862 9.6943674 0.34450564 -77.142601
14500000000 0.70790774 -162.14597 2.9483051 59.181068 0.098754585 9.5471773 0.34164649 -77.478638
14600000000 0.70288074 -163.46869 2.940407 58.447304 0.098971471 9.1909475 0.34344202 -78.610939
14700000000 0.7079283 -164.64499 2.8969636 57.833714 0.098365292 8.7027903 0.33675805 -78.411163
14800000000 0.71525466 -164.3105 2.8905151 57.416107 0.098006129 9.2270746 0.33851027 -79.031097
14900000000 0.70834482 -164.51686 2.8822949 56.871471 0.099030666 9.1058235 0.33879173 -79.082237
15000000000 0.70089185 -166.24471 2.8688905 56.108505 0.099102616 8.4986086 0.33635396 -80.371315
15100000000 0.70767486 -166.96002 2.8500063 55.554104 0.098458506 8.1559477 0.33578783 -80.314819
15200000000 0.71033531 -167.26158 2.8340321 55.012825 0.098504722 8.0251436 0.33243266 -80.902504
15300000000 0.70562702 -168.15451 2.8214998 54.246567 0.098507732 8.1005764 0.33310023 -81.341629
15400000000 0.70932871 -168.95113 2.8153663 53.628971 0.098531216 7.8691735 0.32988152 -82.050888
15500000000 0.70962667 -169.43646 2.7969203 53.20826 0.0985438 7.6641502 0.32921916 -82.60688
15600000000 0.7086454 -169.94427 2.7813258 52.820644 0.098556459 7.5562487 0.3289566 -82.853622
15700000000 0.70969748 -170.39389 2.7608113 52.155952 0.098809756 7.7587414 0.32664576 -83.455368
15800000000 0.7074104 -171.32213 2.7566118 51.508614 0.099312305 7.3236551 0.32642713 -84.30143
15900000000 0.70813942 -172.27679 2.736897 50.813259 0.099322341 6.7066526 0.32161841 -84.756866
16000000000 0.70821357 -172.52254 2.7364049 50.505768 0.098658875 7.026917 0.32203466 -85.367874
16100000000 0.70643699 -173.25914 2.7265012 49.805527 0.099044636 7.0569353 0.32095808 -85.413986
16200000000 0.71118224 -174.07346 2.7032979 49.417912 0.099359393 6.8708615 0.31918845 -86.794487
16300000000 0.71111065 -173.92389 2.6854148 48.773499 0.0996335 6.6481919 0.31916311 -86.644943
16400000000 0.70128077 -174.50108 2.6841407 48.22086 0.10008709 6.7397413 0.3161056 -87.749077
16500000000 0.70266771 -176.34509 2.6773379 47.463921 0.10024855 6.0812063 0.31687805 -88.31633
16600000000 0.71115071 -176.89922 2.6591461 46.958103 0.10024186 5.768105 0.31109941 -89.036957
16700000000 0.70680857 -176.7932 2.6440921 46.637196 0.10014731 5.8996496 0.31237 -89.496277
16800000000 0.70261514 -177.94296 2.6304011 45.986061 0.10046846 5.6984591 0.30898041 -89.594337
16900000000 0.71106189 -178.44099 2.6268997 45.352215 0.10028861 5.6254191 0.30987003 -90.441383
17000000000 0.70940435 -177.97336 2.6253612 44.950413 0.10123706 5.7305059 0.31029087 -90.800095
17100000000 0.69626135 -179.0555 2.6141701 44.300312 0.10201579 5.4193597 0.30924672 -92.059349
17200000000 0.69967175 178.60269 2.5937979 43.495445 0.10190798 4.3980145 0.30706567 -93.057564
17300000000 0.71170723 178.00844 2.5765023 42.803352 0.10084663 4.2046494 0.30172971 -93.091057
17400000000 0.70720458 178.46982 2.5577323 42.503147 0.10116985 4.470511 0.30228698 -93.994926
17500000000 0.70409375 177.53114 2.5521207 41.766041 0.10152922 4.2736197 0.30089211 -93.808441
17600000000 0.70822662 176.96878 2.5433941 41.437271 0.10163797 3.8399963 0.29893762 -95.151802
17700000000 0.70690352 176.90018 2.5286868 40.812664 0.10172933 3.6730974 0.30145237 -94.881531
17800000000 0.69998997 175.75107 2.5189905 40.209057 0.10197947 3.4765346 0.29586995 -96.271011
17900000000 0.70426297 174.74266 2.5058279 39.667248 0.10183149 3.2118566 0.29968709 -96.484177
18000000000 0.7108084 174.50476 2.4973526 39.083611 0.10173734 3.0653007 0.29235515 -96.880394
18100000000 0.70353496 173.72993 2.4803162 38.332626 0.10181433 2.710809 0.29623049 -98.080673
18200000000 0.70873564 173.09795 2.4678376 37.931217 0.10157359 2.781533 0.29038575 -97.76683
18300000000 0.71384919 173.46001 2.4585638 37.591267 0.1020015 2.7439141 0.29266813 -99.220306
18400000000 0.70109063 172.97604 2.4541721 36.999149 0.10279147 2.4400203 0.29244274 -99.216408
18500000000 0.70115662 171.98915 2.4500661 36.312469 0.10211176 2.1273749 0.28981254 -100.48856
18600000000 0.7056852 170.94781 2.4268863 35.86422 0.1022686 2.0216374 0.29075262 -100.8782
18700000000 0.71069264 170.40036 2.4195745 35.089233 0.1021404 1.9074951 0.28750744 -101.54016
18800000000 0.71164978 170.4008 2.4008701 34.748394 0.10215564 1.8680011 0.28741914 -102.28744
18900000000 0.70805705 169.79974 2.4000604 34.178444 0.10263865 1.9913993 0.28683758 -102.35139
19000000000 0.70881313 168.63963 2.3862405 33.545742 0.10355575 1.4396793 0.28488359 -103.76971
19100000000 0.7137059 168.43744 2.3758488 33.142174 0.10294972 1.0275112 0.28577524 -104.05208
19200000000 0.70948631 168.17287 2.3565903 32.416397 0.10235824 0.96536094 0.28031132 -104.95252
19300000000 0.71069449 167.18959 2.3502426 31.999228 0.10266078 1.0950811 0.28473783 -105.67927
19400000000 0.71611208 166.90758 2.3364031 31.319778 0.10265498 0.75594032 0.27839303 -106.02375
19500000000 0.71152109 167.32982 2.320055 31.058468 0.10275853 0.85920769 0.28192624 -107.51907
19600000000 0.70466286 166.22186 2.3180099 30.451538 0.10314818 0.89888501 0.27911714 -106.8278
19700000000 0.71740115 165.2157 2.3119996 30.033455 0.10356029 0.4819245 0.27846986 -109.12424
19800000000 0.71720052 165.83096 2.2986097 29.606644 0.1034853 0.58030128 0.27926165 -108.65389
19900000000 0.70627403 164.9364 2.2848811 28.92454 0.10357337 0.31451574 0.2743049 -110.39871
20000000000 0.71127099 163.53137 2.2810783 28.333611 0.10391042 0.19258921 0.27813587 -110.79013
20100000000 0.71707141 163.96826 2.2773271 27.877386 0.10443196 0.13262436 0.27343497 -111.48617
20200000000 0.70589375 163.24821 2.2681077 27.212603 0.10486616 -0.19817425 0.27647901 -112.94228
20300000000 0.7084918 161.40639 2.2539253 26.66032 0.10412622 -0.59711528 0.27293733 -112.97059
20400000000 0.7250371 161.56024 2.2352693 26.411291 0.10417288 -0.45055354 0.27129534 -114.32059
20500000000 0.7237488 163.10928 2.2334712 26.219805 0.10454802 -0.026792107 0.27410373 -114.25002
20600000000 0.70559102 162.30467 2.2328169 25.565172 0.10524824 -0.25290996 0.26915792 -115.55206
20700000000 0.70532387 160.21686 2.2223926 24.787424 0.10553499 -0.80789024 0.27383569 -116.80282
20800000000 0.71862054 159.93126 2.2178764 24.100107 0.10566031 -1.007291 0.26759568 -116.73791
