# GHZ S RI R 50
50	1.5545406320565E-17	9.72384781320218E-19	0.798700116943382	-0.568620884594249	0.798700116943381	-0.568620884594248	-3.12666291231991E-18	9.50521574620435E-18
50.1	-2.36235940585322E-17	1.29293838764718E-17	0.672054875967744	-0.679363961886428	0.672054875967745	-0.679363961886428	-6.34474716400844E-18	-7.23482589029762E-19
50.2	3.03462197120873E-17	1.45524924197949E-17	0.564817976311151	-0.776491249400362	0.564817976311151	-0.776491249400361	5.0133198296938E-18	5.10142466605762E-18
50.3	1.21513654784289E-17	8.64343435326446E-19	0.438402867243183	-0.887021895680113	0.438402867243183	-0.887021895680113	-5.83401989964048E-18	1.19425059814899E-17
50.4	3.41815878701366E-18	1.40227810863196E-17	0.245626402343504	-0.90970217488899	0.245626402343504	-0.90970217488899	-1.60876815997724E-17	-1.82831783740613E-17
50.5	5.05069901605916E-19	1.38547581486452E-17	0.129706387063045	-0.967835351848941	0.129706387063045	-0.967835351848941	7.83596545111586E-18	-9.86357538969307E-18
50.6	-6.37461795980954E-18	-1.47804804741049E-17	-0.0488630075605502	-0.963853544788386	-0.04886300756055	-0.963853544788385	-4.49552037036295E-18	3.70507933858416E-18
50.7	-1.37538383589458E-17	8.42234793042805E-18	-0.190764518818952	-0.939693544975895	-0.190764518818951	-0.939693544975895	-6.94624222604416E-18	8.13762393203394E-18
50.8	-6.03271921290019E-18	-1.63937262670247E-17	-0.362542568101859	-0.919503281695799	-0.36254256810186	-0.919503281695798	1.45357094761757E-17	-4.29786174103218E-18
50.9	4.11626287648367E-18	2.87717276137149E-17	-0.488012339675441	-0.813989888578284	-0.488012339675441	-0.813989888578284	1.43478611289927E-17	-1.35932873634396E-17
51	5.89666924613926E-18	-5.33353041530557E-18	-0.633102542694018	-0.744036172194194	-0.633102542694017	-0.744036172194193	-4.10781507235228E-18	-5.69790767127404E-18
51.1	7.59115367866385E-18	-4.16902918025783E-18	-0.740862714892668	-0.627349126776574	-0.740862714892668	-0.627349126776574	7.25837536662678E-18	3.75990024131142E-18
51.2	6.89945676877008E-18	-1.10095041397016E-17	-0.826957217148594	-0.495114911607396	-0.826957217148594	-0.495114911607396	4.81946098449988E-18	-8.06686386668836E-18
51.3	1.05064702480034E-17	-7.76076842543344E-19	-0.90187707146999	-0.356429674424733	-0.90187707146999	-0.356429674424733	-1.50673353385712E-19	-4.61176805474335E-18
51.4	-1.18545756335055E-17	-5.81516585460091E-18	-0.965378686675137	-0.224028074102715	-0.965378686675138	-0.224028074102716	3.13314571624224E-18	-1.30960751820575E-18
51.5	-1.25847604711908E-17	9.57992517167555E-18	-0.953881721825684	-0.034774489210675	-0.953881721825684	-0.0347744892106746	-2.02618667766804E-17	-4.64871481414761E-18
51.6	2.19171057232984E-17	6.07562124361322E-18	-0.972382104803159	0.088258411376738	-0.972382104803159	0.0882584113767384	2.8743433864911E-17	-2.2073296660363E-17
51.7	-1.28644242776021E-18	-1.29416188357329E-17	-0.960844770137984	0.247376524131419	-0.960844770137983	0.247376524131419	-1.75706503512433E-17	-2.34628954839712E-17
51.8	2.22281132437922E-18	7.89873134120951E-18	-0.849616363739173	0.390846318468174	-0.849616363739173	0.390846318468175	2.81846303417259E-17	2.01548054085734E-17
51.9	-1.85672858793276E-17	-1.73513338824955E-18	-0.850904833435375	0.529557174881571	-0.850904833435376	0.529557174881571	-6.10776667158067E-18	2.02991836893029E-17
52	-4.94914989273186E-18	3.39173291071318E-18	-0.693426187131743	0.66443276273864	-0.693426187131743	0.664432762738641	7.77584986086098E-18	2.4153245277467E-17
52.1	-1.07192029690406E-17	-6.30662631051288E-19	-0.589094233576133	0.750431093416159	-0.589094233576132	0.750431093416159	-2.33129031095674E-17	-8.93009764706111E-18
52.2	-2.29288119312289E-18	2.01900436365026E-17	-0.490860921806347	0.841070279664204	-0.490860921806347	0.841070279664204	-1.37329918170147E-17	1.24817606640261E-17
52.3	-6.62545976338176E-18	2.54092969793354E-17	-0.356159017253366	0.90897368612052	-0.356159017253367	0.90897368612052	1.32128786532765E-17	3.92691620318569E-17
52.4	-2.97619084599808E-18	1.1998885826041E-17	-0.192075906176724	0.985364985405666	-0.192075906176724	0.985364985405666	3.18775048716087E-17	-1.34914606927133E-17
52.5	-2.88578173227551E-18	-1.16616869194135E-18	-0.0648154743661756	0.930661940489952	-0.0648154743661751	0.930661940489952	-3.22353613408784E-17	3.96986993987277E-17
52.6	-5.75442939762456E-18	1.95397295960627E-17	0.0793070444617498	1.0016898798224	0.07930704446175	1.0016898798224	-1.39752534685906E-17	1.34009212989762E-18
52.7	-1.04663230376578E-18	-7.80991711298829E-18	0.296322792716511	0.963273113835348	0.29632279271651	0.963273113835347	-5.66033837374295E-18	2.30190634505096E-17
52.8	-3.78587789697417E-18	3.60897295817505E-18	0.322632989890039	0.806036321340449	0.322632989890039	0.80603632134045	-9.6593182267827E-18	-2.15034404994028E-17
52.9	1.00541432180818E-18	-4.30961868911727E-17	0.61628604647852	0.890469799980554	0.61628604647852	0.890469799980554	-3.3865051585969E-17	4.37701091747121E-17
53	1.82298523999305E-17	1.24081198807641E-17	0.621235437334956	0.689229921051458	0.621235437334956	0.689229921051458	2.31739173473736E-17	-2.06759787499884E-17
53.1	-2.56130413669135E-17	-1.14739116455063E-17	0.746399079038798	0.650272899027214	0.746399079038798	0.650272899027213	-7.42531831631521E-18	2.07627172224446E-17
53.2	8.21974574374903E-18	1.74249549420439E-17	0.891763874882835	0.50767742794569	0.891763874882835	0.50767742794569	2.35607570086803E-17	-1.39863755395158E-17
53.3	1.34679906160995E-17	1.25450263240402E-17	0.905007782548822	0.380156222503732	0.905007782548823	0.380156222503733	4.2924094456865E-17	-3.73963255518973E-17
53.4	-1.34882134754355E-18	-3.57974378880099E-17	0.934726867222721	0.173585208848798	0.934726867222722	0.173585208848798	1.12093318168249E-19	8.44278031468937E-18
53.5	-9.589081576908E-18	-2.17437760685675E-17	1.01165076047274	0.119793161314818	1.01165076047274	0.119793161314818	-2.32797653337486E-17	-1.4849078109301E-17
53.6	-3.62121828415842E-18	4.25729538769622E-18	0.998587145828696	-0.0957659776166226	0.998587145828696	-0.0957659776166229	-6.30206791255085E-18	2.25577023643906E-17
53.7	9.18639131741297E-19	-7.66997443870304E-18	0.902195323214543	-0.251633571863021	0.902195323214543	-0.251633571863021	1.26864583903174E-17	2.61191783462671E-17
53.8	-1.94019411196397E-17	-9.31069791110402E-18	1.0084188488349	-0.339514202789133	1.0084188488349	-0.339514202789133	2.55790266054958E-17	7.70228524025698E-18
53.9	-1.00108210328051E-18	1.11834509330853E-17	0.854167950232583	-0.515927690556544	0.854167950232584	-0.515927690556544	3.50308547966756E-18	8.18470960746969E-18
54	-7.03734021356312E-18	-1.58860273233017E-17	0.746040794322084	-0.632489393541415	0.746040794322084	-0.632489393541415	-1.22978836895249E-18	-2.72719815918471E-18
54.1	2.49535947046553E-17	3.06179244337534E-18	0.668610991556611	-0.709434126426462	0.668610991556612	-0.709434126426462	1.70290217082347E-17	-1.9175975638115E-17
54.2	1.95748570612055E-17	8.13816701564941E-18	0.564268836145016	-0.817779007144695	0.564268836145016	-0.817779007144696	7.50070072122066E-18	-2.84913649811954E-17
54.3	-7.85926785617364E-20	7.19906793613885E-18	0.383474615702066	-0.911682621042716	0.383474615702067	-0.911682621042716	-7.63657075015188E-19	1.49915088104091E-17
54.4	1.02139030803982E-18	-1.21309007709701E-18	0.32776842831291	-0.898182031135046	0.32776842831291	-0.898182031135046	0	0
54.5	6.0028482366228E-18	-1.02407932071729E-17	0.108209181407501	-1.03452493972926	0.108209181407501	-1.03452493972926	-5.01472012081963E-18	-1.25711186579815E-17
54.6	-3.3101019395159E-17	2.01838161409617E-18	-0.0294007885565777	-0.965228618769577	-0.0294007885565776	-0.965228618769578	-8.07341936467294E-18	4.92288198560041E-19
54.7	-7.54847398360779E-18	2.3591971556371E-18	-0.154021747163208	-1.00912248133344	-0.154021747163207	-1.00912248133343	-4.63630457351062E-18	1.84941371905084E-17
54.8	5.94761717758551E-18	-1.59303209909741E-17	-0.327835464953373	-0.965179958131554	-0.327835464953373	-0.965179958131553	0	0
54.9	8.94269461588278E-18	-7.98696448954971E-18	-0.462168248695288	-0.879394196668141	-0.462168248695288	-0.879394196668142	6.35779823350291E-18	-1.2251630050097E-17
55	3.09299806168447E-19	-8.34533767771029E-19	-0.578580222697363	-0.831476681572528	-0.578580222697363	-0.831476681572528	7.04973274510548E-18	-8.77720598857856E-18
55.1	-1.72312234447206E-18	-3.81667239657867E-18	-0.713447857065057	-0.728953960497178	-0.713447857065057	-0.728953960497177	-7.27562832166496E-18	2.55134072887942E-18
55.2	-5.26782963107711E-19	1.47306826428798E-18	-0.788271632386335	-0.615726355521148	-0.788271632386335	-0.615726355521148	-9.25865193626721E-18	-4.84462723067069E-18
55.3	2.24443667984091E-18	1.25921048381005E-17	-0.890963847341702	-0.469068446603203	-0.890963847341702	-0.469068446603203	3.39760822990673E-18	-1.26575783099649E-18
55.4	-4.27680908840611E-18	5.86418443684956E-18	-0.947148324837829	-0.375276659302606	-0.947148324837829	-0.375276659302606	-2.24332406238791E-18	-1.07575882505495E-17
55.5	-5.11882629912977E-18	-2.10854577471794E-18	-1.01177599248836	-0.200224472047862	-1.01177599248836	-0.200224472047863	-2.63568221839742E-19	6.39853287391221E-19
55.6	-2.97701731839296E-18	-9.2607929762075E-18	-1.00429029544195	-0.0665900749723447	-1.00429029544195	-0.0665900749723442	-1.85974290468113E-18	-1.26576811190569E-17
55.7	-4.70398625094611E-18	-2.17804020796614E-19	-1.02891861009382	0.077896798421571	-1.02891861009382	0.0778967984215712	1.35083735548733E-17	1.66261097416818E-17
55.8	-1.65485381248504E-18	-1.19934519060919E-18	-0.997108983853876	0.244013670770986	-0.997108983853876	0.244013670770986	-9.79537833489554E-18	9.7788951375904E-19
55.9	1.61673607521317E-17	1.24144598491299E-18	-0.956751557840137	0.375906900990431	-0.956751557840136	0.375906900990431	9.88093209891043E-18	-4.17723070360549E-18
56	-1.35195515349337E-18	-6.73875738800612E-18	-0.865471927007779	0.515297757728302	-0.865471927007778	0.515297757728302	-6.7100474804119E-18	1.23783134676731E-17
56.1	1.75407398597222E-18	4.26569326718707E-18	-0.815507711806915	0.631237853029085	-0.815507711806915	0.631237853029085	-8.00507259343842E-18	-5.88431274733533E-18
56.2	5.77352238526435E-18	-1.54333947685425E-17	-0.717155697051499	0.757296764474464	-0.717155697051499	0.757296764474463	-2.2128043913662E-17	-5.92694628435231E-17
56.3	-3.91865728629604E-18	-1.1430976185841E-18	-0.547796794694178	0.849021155349235	-0.547796794694178	0.849021155349235	3.38103714688732E-18	-5.41690139266901E-18
56.4	-1.72025693976244E-17	-1.66406573303095E-18	-0.479390513749493	0.922394926174927	-0.479390513749493	0.922394926174927	6.02344428514533E-18	2.32574101802831E-17
56.5	-9.87437720178905E-18	8.8565941863728E-18	-0.321300577875479	1.00129221418043	-0.321300577875479	1.00129221418043	-1.6945719881112E-17	-2.68889793291158E-18
56.6	8.43971494907689E-18	8.54532374328833E-18	-0.165849941511532	1.00229621894812	-0.165849941511531	1.00229621894812	2.33642588179355E-17	-2.42008901069679E-17
56.7	-3.88518856845667E-18	3.50052134339511E-18	-0.0268575772450287	1.0320437502721	-0.0268575772450288	1.0320437502721	-5.7700083759234E-19	1.10785648677777E-17
56.8	-1.14062472441418E-18	-5.64414639537137E-18	0.104701766709493	1.04666394750858	0.104701766709494	1.04666394750858	-1.76928556690569E-17	-3.40890090338375E-19
56.9	-2.36969593939952E-17	2.78680419546539E-18	0.260385357622874	0.995107197651092	0.260385357622874	0.995107197651092	-2.08022685962012E-17	1.16866497935047E-17
57	2.26279786342663E-17	-1.30551890793449E-17	0.422463195075706	0.913528215802013	0.422463195075706	0.913528215802013	5.01777938595337E-19	-1.68707628281187E-17
57.1	3.81881425923699E-18	-1.54844051455186E-17	0.535405538522458	0.875322366392386	0.535405538522458	0.875322366392385	1.1321892868207E-19	-1.22513453874657E-17
57.2	-9.76665461391134E-18	-4.96845031485766E-18	0.664523139162624	0.816356055725986	0.664523139162623	0.816356055725986	-1.44131573409106E-17	1.27167765515474E-17
57.3	-9.90532322220869E-18	9.86799683096806E-18	0.805829107498061	0.637727169618292	0.805829107498061	0.637727169618292	1.04498699410022E-17	1.63561112427242E-17
57.4	-5.3298713427697E-18	1.31301436266404E-17	0.820432596359041	0.556649095560538	0.820432596359041	0.556649095560538	1.45778100105739E-17	7.35695555915402E-17
57.5	-6.26502638152451E-18	8.93602542080559E-18	0.950949623038395	0.446361619886461	0.950949623038395	0.446361619886461	2.14603714249418E-17	2.88356049476005E-17
57.6	2.55919126585774E-17	-1.7669079736813E-17	1.00564013089669	0.280310743910943	1.00564013089669	0.280310743910943	2.18182447473079E-17	-2.87867894484413E-17
57.7	-9.46921212275357E-18	2.26080518921247E-17	0.991472793097261	0.135823596127006	0.991472793097261	0.135823596127006	-1.09201207766668E-18	1.68304241683292E-17
57.8	5.01367097964077E-18	5.75391542561657E-18	1.03963902362557	0.0130942112882292	1.03963902362557	0.0130942112882289	-5.76572304043202E-18	5.48234028486133E-18
57.9	-2.33880799416884E-19	5.44705256255887E-20	1.04547490247995	-0.120137250950763	1.04547490247995	-0.120137250950763	-1.06815731157545E-17	4.95339322419709E-18
58	4.2083248949074E-18	1.39741996170942E-17	0.97349934780989	-0.324745794972679	0.97349934780989	-0.32474579497268	4.71276998702833E-18	1.84499804573111E-17
58.1	1.35089051285799E-18	-9.19331858079034E-18	0.90933201145149	-0.404390710602632	0.909332011451491	-0.404390710602632	-1.95903806008677E-18	-4.08071741914266E-18
58.2	-6.39583883758966E-18	1.15434342615826E-17	0.877638379417267	-0.560153846367925	0.877638379417267	-0.560153846367925	-1.34011852675855E-17	2.07132809351218E-18
58.3	1.18614277501711E-17	-6.19902514359817E-18	0.769266900244093	-0.691465823841383	0.769266900244093	-0.691465823841384	-2.10339859595004E-17	-3.02450055372986E-17
58.4	-7.5025041763085E-18	1.07852936863643E-17	0.665389570352326	-0.725918722043635	0.665389570352326	-0.725918722043635	6.91814723375305E-18	-1.74885253584777E-17
58.5	-3.20294922966782E-18	-2.89278881018104E-18	0.594816469802676	-0.871114572833983	0.594816469802676	-0.871114572833983	-2.80606639902648E-17	1.30396562473007E-17
58.6	-3.66311389843573E-18	2.13124425116984E-17	0.432337443789039	-0.936563280775733	0.432337443789039	-0.936563280775734	-4.4455779950021E-18	1.47032527958149E-17
58.7	-3.63993479950344E-17	-7.88206832905624E-18	0.292050987658519	-0.954664817398095	0.292050987658519	-0.954664817398095	-1.77336035353758E-18	-4.32602792806144E-18
58.8	2.16787904026052E-17	-1.77926176446494E-18	0.174722386013966	-1.00359674446654	0.174722386013966	-1.00359674446654	7.48524789752127E-18	-2.21775654822859E-17
58.9	9.14306613662489E-20	-9.32707678071045E-19	0.0507655586920889	-1.03822727834966	0.0507655586920887	-1.03822727834966	-1.21436008793321E-17	-1.06071060398379E-17
59	-1.44566900200861E-17	-2.11162792462909E-18	-0.133534214949472	-1.00625060210331	-0.133534214949473	-1.00625060210331	-9.32700286958722E-18	-2.57388710282165E-19
59.1	-6.44166742939997E-18	2.72727182467865E-17	-0.238016623570793	-0.983337647502121	-0.238016623570793	-0.983337647502121	-2.97770069692047E-18	3.36993595204113E-20
59.2	-1.39492391886567E-18	4.1546001533173E-18	-0.376728038822237	-0.979300625850268	-0.376728038822237	-0.979300625850268	2.85844491911699E-17	1.45563866986838E-17
59.3	2.51437952227377E-18	-7.55580835473245E-18	-0.533161361316899	-0.860290344369637	-0.533161361316898	-0.860290344369636	1.35922802594352E-18	-1.27184535625721E-17
59.4	-1.08509385592676E-17	-1.06385625081724E-17	-0.613505434762455	-0.815051372325691	-0.613505434762455	-0.815051372325691	-8.60853726418366E-18	-4.35702854621947E-18
59.5	7.52083419984011E-18	2.01095030717124E-17	-0.750194904136004	-0.71371002157221	-0.750194904136004	-0.71371002157221	-5.23698624366648E-18	7.01181812560411E-18
59.6	-1.16285385275827E-17	9.78422872972754E-18	-0.827034533391437	-0.584261436218744	-0.827034533391438	-0.584261436218744	-2.22884662269206E-18	-6.28669491831392E-18
59.7	-2.63588748263996E-19	2.02666374485331E-17	-0.912549796443364	-0.490409580109226	-0.912549796443364	-0.490409580109226	-5.16008034818708E-18	-1.05055114010538E-18
59.8	-4.20063662049872E-18	5.0838655721629E-18	-0.980690503852689	-0.352740111889534	-0.980690503852689	-0.352740111889533	-1.33897501254686E-17	-6.46018108599747E-20
59.9	1.64535524965024E-17	4.20391069142058E-18	-1.00815514400762	-0.22660673068843	-1.00815514400762	-0.226606730688431	1.76424699048295E-17	1.69283032695601E-18
60	5.23778358951915E-18	2.4770740797155E-18	-1.02586769926032	-0.0616274055127805	-1.02586769926032	-0.0616274055127806	1.62238880354253E-18	-5.80221614320734E-18
60.1	-3.55116283536432E-18	7.72811657484505E-18	-1.01742091626708	0.0651341956219471	-1.01742091626708	0.065134195621947	9.60590622639079E-18	-3.05287163657957E-18
60.2	1.77291338750396E-17	-1.48085757149602E-17	-1.02878431437432	0.18781436975087	-1.02878431437432	0.18781436975087	8.65712732630332E-18	-1.24182152496242E-18
60.3	-8.71081385601668E-19	3.22441157025416E-18	-0.967390721104805	0.363543482889524	-0.967390721104805	0.363543482889523	9.5862350678583E-19	3.9204087134875E-19
60.4	6.67629360840405E-18	1.41737932649966E-17	-0.908284803271307	0.444468479410187	-0.908284803271307	0.444468479410187	2.0651662591682E-18	8.90570949214308E-18
60.5	8.8301866476637E-19	-1.06806321244354E-17	-0.852642437891657	0.597234214046888	-0.852642437891656	0.597234214046888	2.6501053240267E-18	9.63579269670837E-19
60.6	-8.78900292200735E-18	4.05996147287095E-17	-0.758594985942204	0.700796886230041	-0.758594985942204	0.700796886230041	-1.58971485010711E-17	1.52289180940293E-18
60.7	8.67122012684846E-18	-8.40805284727522E-18	-0.652850631410241	0.801130789884058	-0.652850631410241	0.801130789884057	2.52792057729124E-19	-3.36252535337645E-18
60.8	-1.30510223862921E-17	2.1842816381469E-17	-0.541262078426955	0.889535567473882	-0.541262078426955	0.889535567473882	-1.0621329393316E-17	-6.2767285569448E-20
60.9	-6.48870065798542E-18	1.18918337159329E-17	-0.424934990197265	0.954345326546254	-0.424934990197265	0.954345326546254	3.51745301271857E-18	-3.16676050142603E-18
61	-4.67409286103986E-18	5.96802616461445E-18	-0.27773819870745	1.00344169868068	-0.27773819870745	1.00344169868069	7.06237096620221E-18	2.0677896223309E-17
61.1	1.61485197081277E-18	7.80037943861912E-18	-0.139297176865997	1.01667658902911	-0.139297176865997	1.01667658902911	-4.59269024747206E-18	-2.23089736632737E-18
61.2	-1.28128114546888E-17	2.27369295472346E-17	-0.0163551642981286	1.03527303117396	-0.0163551642981285	1.03527303117396	-4.56939220902449E-18	2.68350476288791E-17
61.3	-2.85681651306874E-17	-1.65630190481802E-17	0.13118893627736	1.04540792379792	0.13118893627736	1.04540792379792	3.271266696086E-19	1.28286477486077E-18
61.4	-1.87206868572908E-17	3.70249547034397E-17	0.299394423491564	0.991880770070611	0.299394423491564	0.991880770070611	-1.06221026418998E-17	2.0188860350331E-17
61.5	-1.33462493517931E-17	-3.45965049369432E-18	0.381119790925773	0.946632565087708	0.381119790925773	0.946632565087708	0	0
61.6	-4.40333833827921E-18	-1.75453486718918E-19	0.542198778266905	0.917663707988723	0.542198778266906	0.917663707988723	1.95263405367187E-18	-1.57993819717895E-17
61.7	-8.20850422701524E-18	2.08748465758743E-17	0.66521053690729	0.815631148371487	0.66521053690729	0.815631148371487	-2.8260899469782E-17	-8.96903992388811E-19
61.8	-1.39397907740501E-17	1.72604509742162E-17	0.745760110991765	0.711311711174077	0.745760110991765	0.711311711174077	-1.63897274688866E-17	4.46451163700829E-18
61.9	1.68393896662724E-18	-8.26762310089599E-19	0.843460256416266	0.601361155664676	0.843460256416266	0.601361155664675	9.61812780586098E-18	-2.08577429809575E-18
62	3.39437869903881E-18	1.8129213220263E-18	0.918216955065557	0.507419892078749	0.918216955065557	0.50741989207875	-5.25359281006786E-18	3.30179312103329E-18
62.1	2.1217026963258E-17	5.29634013778538E-18	0.995957065894142	0.368229683655779	0.995957065894142	0.368229683655778	-5.82122418974645E-19	3.68633968582064E-18
