# GHz S RI R 50
5e+10  0.9759  0.029  -1.12e-05  -1.958e-05  -5.094e-06  -2.053e-06  0.9714  0.04527
5.01e+10  0.9942  0.02734  5.378e-06  -3.179e-06  -1.432e-05  -4.093e-06  0.9933  0.04543
5.02e+10  0.9949  0.02252  1.495e-05  1.575e-05  -6.368e-09  4.438e-06  0.9969  0.03033
5.03e+10  0.9655  0.005556  5.693e-06  -2.642e-07  4.459e-06  2.957e-06  0.9653  0.02745
5.04e+10  0.9971  -0.01264  1.235e-05  1.69e-06  -1.02e-05  1.101e-05  0.9987  0.005207
5.05e+10  0.9985  0.0006936  3.603e-06  6.605e-07  1.413e-06  -1.457e-05  0.991  0.01159
5.06e+10  0.9791  -0.01953  1.029e-05  8.508e-06  -2.677e-06  -1.199e-05  0.9809  0.00805
5.07e+10  0.9736  -0.02962  -3.064e-06  6.794e-06  3.005e-06  -4.446e-06  0.9757  -0.01394
5.08e+10  1.008  -0.02982  -1.283e-05  7.593e-06  -2.807e-05  1.137e-05  0.991  -0.0203
5.09e+10  0.9879  -0.04077  -5.17e-06  -1.52e-06  -1.23e-05  -4.726e-06  0.9896  -0.02037
5.1e+10  0.9784  -0.04638  8.722e-06  1.335e-05  2.271e-05  4.557e-07  0.983  -0.03218
5.11e+10  0.9837  -0.04725  -5.952e-06  -7.442e-06  1.395e-06  -7.418e-07  0.9741  -0.03133
5.12e+10  0.9855  -0.06283  -4.314e-07  2.135e-06  1.91e-05  -5.785e-06  0.9946  -0.04663
5.13e+10  0.9695  -0.08756  3.219e-06  2.757e-06  -4.885e-06  3.085e-05  0.9778  -0.07461
5.14e+10  0.9812  -0.07175  5.575e-06  3.288e-06  1.091e-05  4.839e-06  0.9768  -0.0499
5.15e+10  0.994  -0.08179  7.444e-07  -2.57e-06  2.796e-05  -1.946e-05  0.9965  -0.06805
5.16e+10  0.974  -0.1021  -2.076e-07  5.617e-06  1.077e-05  -7.253e-06  0.9673  -0.09567
5.17e+10  0.9804  -0.1124  -5.013e-06  2.882e-06  -7.062e-06  -1.514e-06  0.9757  -0.08704
5.18e+10  0.9962  -0.09952  1.756e-06  -6.839e-06  -2.698e-07  -2.555e-06  0.996  -0.08633
5.19e+10  0.9836  -0.1181  4.114e-06  -5.466e-06  6.413e-06  4.162e-06  0.9706  -0.119
5.2e+10  0.969  -0.1328  -4.678e-06  1.639e-06  -3.262e-06  -1.07e-06  0.9709  -0.1099
5.21e+10  0.9767  -0.1295  -7.858e-06  5.585e-06  -8.539e-06  1.98e-05  0.989  -0.111
5.22e+10  0.9869  -0.1498  -4.67e-06  9.185e-06  6.66e-06  -1.45e-05  0.9789  -0.1437
5.23e+10  0.966  -0.1563  1.342e-05  7.976e-06  -9.604e-07  -1.209e-05  0.9704  -0.1381
5.24e+10  0.9828  -0.1557  8.419e-07  -9.097e-06  -7.422e-06  -8.249e-06  0.989  -0.1368
5.25e+10  0.9947  -0.1656  -5.669e-07  4.286e-06  2.495e-05  -9.61e-06  0.9892  -0.1456
5.26e+10  0.9475  -0.1885  5.886e-06  -2.59e-06  -1.875e-06  3.417e-05  0.9536  -0.1751
5.27e+10  0.9747  -0.181  -3.284e-06  -3.871e-06  2.42e-06  2.344e-05  0.9713  -0.1682
5.28e+10  1  -0.2015  4.797e-07  -1.086e-06  1.317e-05  -2.869e-05  0.9977  -0.176
5.29e+10  0.9401  -0.2007  5.547e-06  -1.291e-06  2.644e-05  -3.086e-05  0.9457  -0.1867
5.3e+10  0.9821  -0.2026  -3.57e-06  -1.778e-06  2.188e-05  -2.129e-05  0.9753  -0.1941
5.31e+10  0.9583  -0.2296  -3.25e-06  -6.193e-06  -9.698e-06  3.878e-06  0.9587  -0.2071
5.32e+10  0.9625  -0.2257  -2.968e-07  1.062e-05  -1.039e-05  -1.922e-05  0.9763  -0.2111
5.33e+10  0.9667  -0.1961  8.979e-06  4.226e-06  -2.41e-05  -5.297e-06  0.9662  -0.1937
5.34e+10  0.9589  -0.2559  -1.281e-06  -7.742e-06  1.176e-05  -2.006e-05  0.9533  -0.2387
5.35e+10  0.9558  -0.2537  6.48e-06  1.039e-05  -1.175e-05  -1.353e-06  0.9651  -0.2277
5.36e+10  0.9599  -0.2389  1.302e-05  2.157e-07  -1.05e-05  -2.502e-06  0.961  -0.2328
5.37e+10  0.9634  -0.2601  4.904e-08  -6.54e-06  -1.366e-05  9.64e-07  0.9574  -0.2541
5.38e+10  0.9515  -0.2698  -4.652e-06  3.071e-06  -1.521e-05  -6.161e-06  0.9508  -0.2475
5.39e+10  0.9531  -0.2871  -1.463e-06  -1.361e-06  3.324e-06  6.715e-06  0.9524  -0.2676
5.4e+10  0.9642  -0.2775  4.297e-06  -1.116e-05  6.13e-06  1.379e-05  0.9639  -0.2714
5.41e+10  0.9451  -0.2966  -4.166e-06  3.151e-06  2.057e-06  -4.179e-06  0.9463  -0.289
5.42e+10  0.9417  -0.2896  2.635e-06  1.23e-05  -2.025e-06  2.637e-06  0.9405  -0.2717
5.43e+10  0.9502  -0.3235  5.971e-06  -7.01e-06  8.472e-06  3.218e-06  0.9568  -0.3072
5.44e+10  0.94  -0.3074  -1.214e-05  -6.585e-06  7.246e-06  8.28e-06  0.9424  -0.3033
5.45e+10  0.9396  -0.3108  -1.699e-06  -5.294e-06  -3.219e-06  -6.595e-07  0.9351  -0.2998
5.46e+10  0.9312  -0.355  5.091e-06  1.477e-05  5.585e-07  -6.492e-06  0.9379  -0.3326
5.47e+10  0.93  -0.3298  7.089e-06  6.36e-06  -2.68e-06  -1.629e-05  0.9377  -0.3193
5.48e+10  0.9465  -0.3418  -6.028e-06  -3.399e-06  4.775e-06  -8.697e-06  0.941  -0.3342
5.49e+10  0.9227  -0.3602  -9.011e-06  -1.074e-06  -2.798e-07  7.441e-06  0.9235  -0.3436
5.5e+10  0.9185  -0.3632  3.359e-06  3.602e-06  2.386e-06  2.342e-06  0.9239  -0.3487
5.51e+10  0.9359  -0.3802  -5.545e-06  2.71e-06  1.985e-06  -3.088e-06  0.9371  -0.3655
5.52e+10  0.9188  -0.3683  -7.016e-06  -4.347e-06  1.348e-05  1.01e-05  0.9229  -0.3578
5.53e+10  0.9201  -0.3827  -9.963e-06  3.082e-06  -7.091e-06  -4.757e-06  0.919  -0.3771
5.54e+10  0.9237  -0.3988  -1.666e-07  3.604e-07  3.774e-06  2.08e-06  0.9236  -0.3835
5.55e+10  0.9075  -0.3907  2.863e-06  -1.037e-06  -7.238e-06  -5.139e-06  0.9189  -0.3756
5.56e+10  0.9144  -0.4132  1.971e-06  -4.545e-07  -2.494e-07  1.032e-05  0.9184  -0.4101
5.57e+10  0.9167  -0.4081  1.981e-06  -3.272e-07  -6.706e-06  -8.708e-06  0.9135  -0.3988
5.58e+10  0.888  -0.4178  -4.621e-06  -1.624e-06  2.08e-06  1.917e-06  0.897  -0.4019
5.59e+10  0.9189  -0.4464  7.171e-06  6.601e-06  1.343e-06  -2.707e-06  0.9244  -0.4358
5.6e+10  0.8914  -0.4229  -7.961e-06  4.944e-06  4.053e-06  -5.417e-06  0.8829  -0.4093
5.61e+10  0.8824  -0.4549  1.691e-06  6.645e-06  5.958e-06  -1.346e-05  0.8877  -0.4397
5.62e+10  0.8962  -0.4385  7.251e-07  -3.394e-06  6.671e-06  8.226e-06  0.9065  -0.4352
5.63e+10  0.8756  -0.4746  4.903e-06  -1.935e-06  -4.79e-06  -8.719e-06  0.8688  -0.4626
5.64e+10  0.8864  -0.4621  -6.693e-06  -3.16e-07  3.795e-06  -2.085e-06  0.8842  -0.4467
5.65e+10  0.8772  -0.4708  2.029e-06  -2.103e-07  6.546e-07  -7.477e-07  0.8859  -0.4692
5.66e+10  0.8615  -0.4811  2.913e-06  -1.064e-06  -3.835e-06  -1.209e-05  0.8641  -0.4715
5.67e+10  0.8696  -0.5005  -1.871e-07  -7.23e-07  -4.424e-06  -3.056e-06  0.8749  -0.4833
5.68e+10  0.8711  -0.4872  1.957e-06  -8.713e-06  -1.828e-06  8.442e-06  0.8759  -0.4879
5.69e+10  0.8503  -0.4848  2.162e-06  -2.902e-06  -3.95e-06  -2.762e-06  0.848  -0.4807
5.7e+10  0.8623  -0.5351  2.526e-07  -1.088e-06  -4.014e-06  2.473e-06  0.8722  -0.5109
5.71e+10  0.8393  -0.5037  -7.617e-06  1.005e-06  -2.983e-06  2.251e-06  0.85  -0.4928
5.72e+10  0.8483  -0.5417  -1.493e-06  -1.905e-06  -5.856e-06  4.401e-06  0.8422  -0.5385
5.73e+10  0.8455  -0.5218  5.276e-06  7.316e-07  4.688e-06  2.344e-06  0.8489  -0.5081
5.74e+10  0.8267  -0.5257  -1.569e-06  -1.714e-06  -4.105e-06  -4.534e-06  0.8393  -0.5152
5.75e+10  0.8344  -0.5595  3.824e-06  5.226e-06  -1.669e-06  -1.928e-06  0.8325  -0.5502
5.76e+10  0.8251  -0.5428  5.337e-06  1.402e-06  3.3e-06  2.889e-06  0.8239  -0.5276
5.77e+10  0.8173  -0.5553  7.309e-07  4.676e-07  -9.976e-06  5.658e-06  0.8321  -0.552
5.78e+10  0.8227  -0.5523  -2.094e-06  -2.016e-06  -1.309e-06  2.334e-06  0.8255  -0.5505
5.79e+10  0.8102  -0.5711  -3.309e-06  5.955e-06  -8.166e-07  -3.612e-06  0.8057  -0.5511
5.8e+10  0.8053  -0.5811  -2.411e-06  -1.394e-06  7.192e-06  -1.167e-05  0.8157  -0.5715
5.81e+10  0.8034  -0.5781  3.955e-06  -8.651e-07  -1.216e-06  2.518e-07  0.8107  -0.5815
5.82e+10  0.8016  -0.5911  -6.084e-06  -1.506e-06  -8.736e-06  -3.011e-06  0.8006  -0.5743
5.83e+10  0.8086  -0.6092  -4.657e-06  -1.131e-06  6.657e-06  -1.115e-05  0.8148  -0.5912
5.84e+10  0.7877  -0.5956  -1.375e-06  -4.363e-06  2.996e-07  1.405e-06  0.7885  -0.5975
5.85e+10  0.7806  -0.6015  -2.369e-06  1.237e-06  1.441e-07  -6.772e-06  0.7782  -0.5955
5.86e+10  0.79  -0.633  7.242e-06  -3.155e-06  5.906e-06  1.269e-06  0.7997  -0.6182
5.87e+10  0.763  -0.6163  3.197e-07  -3.048e-06  -2.374e-06  5.893e-07  0.7663  -0.6102
5.88e+10  0.7809  -0.629  -5.719e-06  -8.291e-07  4.09e-07  -2.956e-06  0.7763  -0.6234
5.89e+10  0.7581  -0.6399  -2.65e-06  4.328e-06  -7.507e-06  2.824e-06  0.7666  -0.635
5.9e+10  0.7542  -0.6454  -7.867e-07  7.866e-06  1.209e-06  1.92e-06  0.7605  -0.6431
5.91e+10  0.763  -0.6499  -5.081e-06  1.077e-07  5.408e-06  7.294e-07  0.7603  -0.6417
5.92e+10  0.7401  -0.6547  -5.119e-07  1.099e-05  -2.197e-06  2.735e-06  0.7476  -0.6461
5.93e+10  0.7368  -0.6735  -1.79e-06  6.629e-06  -1.432e-06  2.645e-06  0.7461  -0.6732
5.94e+10  0.7428  -0.6729  -4.666e-06  -4.688e-06  3.343e-06  -3.096e-08  0.741  -0.6664
5.95e+10  0.7308  -0.6741  6.732e-07  4.141e-06  -2.919e-06  6.658e-06  0.7323  -0.6637
5.96e+10  0.7316  -0.6752  -2.553e-06  1.811e-06  2.455e-06  -3.436e-06  0.7373  -0.6716
5.97e+10  0.7096  -0.6904  -1.898e-06  2.94e-06  -4.39e-06  -4.596e-06  0.7116  -0.6886
5.98e+10  0.7067  -0.7076  2.988e-06  -1.074e-06  1.828e-06  -3.53e-06  0.7113  -0.6986
5.99e+10  0.7124  -0.7082  3.103e-06  5.677e-06  -2.763e-06  -2.874e-06  0.719  -0.6987
6e+10  0.7124  -0.7123  4.325e-07  -9.093e-07  2.485e-06  -2.624e-06  0.7127  -0.7083
6.01e+10  0.7121  -0.6969  1.219e-05  -4.915e-06  -6.706e-06  -8.019e-06  0.7113  -0.6929
6.02e+10  0.6621  -0.7201  -7.673e-06  -2.568e-06  1.14e-05  1.677e-05  0.6687  -0.7124
6.03e+10  0.6854  -0.7458  -3.564e-06  -7.462e-07  5.689e-06  -9.296e-06  0.6929  -0.7384
6.04e+10  0.6907  -0.7389  5.112e-07  -4.761e-06  2.096e-06  4.542e-06  0.6902  -0.7348
6.05e+10  0.6851  -0.7498  -6.94e-06  2.24e-06  -6.933e-07  -5.694e-06  0.692  -0.7414
6.06e+10  0.6831  -0.7264  7.442e-07  9.287e-07  -4.139e-06  -1.516e-05  0.6931  -0.7164
6.07e+10  0.6381  -0.7519  4.085e-06  -6.396e-07  -2.015e-06  -1.238e-06  0.6369  -0.7481
6.08e+10  0.6377  -0.7773  1.11e-05  1.079e-06  -3.759e-07  -1.285e-06  0.6374  -0.7693
6.09e+10  0.649  -0.7497  5.535e-06  -7.564e-06  -1.196e-05  4.317e-06  0.6674  -0.7456
6.1e+10  0.6469  -0.7604  -4.068e-06  -6.987e-06  3.084e-06  -6.853e-06  0.6477  -0.7546
6.11e+10  0.6226  -0.7706  6.366e-06  5.11e-06  1.193e-05  4.409e-06  0.6245  -0.7503
6.12e+10  0.6143  -0.7745  -5.318e-06  6.703e-06  1.774e-05  -5.622e-07  0.6213  -0.7735
6.13e+10  0.6191  -0.7918  -1.283e-05  3.492e-07  -1.023e-05  3.373e-07  0.6183  -0.7956
6.14e+10  0.6234  -0.7855  3.655e-06  3.974e-06  6.846e-06  1.109e-06  0.6317  -0.7691
6.15e+10  0.5961  -0.7765  -4.944e-06  -7.053e-06  -6.508e-06  9.191e-06  0.6116  -0.7637
6.16e+10  0.5984  -0.8349  7.051e-06  -5.445e-07  2.562e-05  7.144e-06  0.5999  -0.8311
6.17e+10  0.6004  -0.7768  -3.356e-06  -2.897e-06  1.987e-06  1.669e-05  0.5995  -0.769
6.18e+10  0.5791  -0.8336  -2.854e-06  5.901e-06  1.102e-05  1.657e-05  0.5886  -0.822
6.19e+10  0.5889  -0.8188  -7.103e-06  6.04e-06  -8.915e-06  -1.156e-05  0.5984  -0.8059
6.2e+10  0.5434  -0.8319  3.678e-06  -6.451e-07  1.333e-06  -3.238e-06  0.5453  -0.8191
6.21e+10  0.6006  -0.8353  1.219e-06  2.636e-06  8.191e-06  7.282e-06  0.5965  -0.8292
6.22e+10  0.5552  -0.828  5.572e-06  5.626e-06  2.131e-06  1.575e-05  0.555  -0.8192
6.23e+10  0.5601  -0.8485  -5.395e-06  -2.318e-06  -2.523e-06  -1.105e-05  0.5764  -0.833
6.24e+10  0.5474  -0.8366  8.891e-06  -6.679e-08  -2.658e-06  -3.877e-06  0.5594  -0.8282
6.25e+10  0.5288  -0.8535  3.282e-06  -5.219e-07  -5.509e-06  1.318e-05  0.509  -0.8492
6.26e+10  0.5716  -0.8759  3.985e-06  9.759e-06  -1.989e-06  -1.521e-05  0.5592  -0.8606
6.27e+10  0.5119  -0.8461  6.878e-07  -3.324e-06  1.956e-06  -8.437e-09  0.5365  -0.8371
6.28e+10  0.5339  -0.8714  -9.62e-06  -1.517e-06  8.164e-06  2.065e-06  0.5506  -0.8748
6.29e+10  0.5281  -0.8358  1.053e-06  -1.031e-06  -8.168e-06  -2.667e-05  0.5094  -0.8294
6.3e+10  0.4736  -0.8748  -6.76e-06  -3.416e-06  2.37e-05  8.961e-07  0.4645  -0.8548
6.31e+10  0.5028  -0.8988  1.599e-06  -6.291e-06  -5.899e-06  9.081e-07  0.522  -0.8932
6.32e+10  0.4968  -0.8656  -8.43e-06  -2.326e-06  1.883e-06  -6.337e-07  0.5094  -0.8713
6.33e+10  0.5052  -0.8781  4.889e-07  -3.617e-06  -2.72e-06  -7.289e-07  0.4944  -0.8735
6.34e+10  0.5062  -0.8743  6.795e-07  2.059e-06  4.371e-06  9.764e-06  0.5028  -0.8591
6.35e+10  0.4219  -0.8813  3.592e-06  -2.499e-06  -1.926e-05  -1.626e-05  0.4405  -0.8748
6.36e+10  0.4572  -0.9003  1.423e-06  -4.792e-06  -1.103e-05  1.438e-05  0.4719  -0.9008
6.37e+10  0.4384  -0.8919  1.086e-06  2.569e-06  2.035e-06  1.652e-05  0.4335  -0.8873
6.38e+10  0.495  -0.9254  2.539e-06  -2.667e-06  4.58e-06  1.831e-06  0.4873  -0.916
6.39e+10  0.4432  -0.8892  -4.024e-06  3.074e-06  1.088e-05  1.693e-05  0.4543  -0.8797
6.4e+10  0.4068  -0.8971  5.66e-06  9.605e-06  1.095e-05  2.255e-06  0.4296  -0.8976
6.41e+10  0.3916  -0.8948  9.568e-06  -6.141e-06  3.436e-06  -1.774e-05  0.4009  -0.8988
6.42e+10  0.4022  -0.9261  -5.892e-06  -1.714e-06  7.349e-06  -7.238e-06  0.3896  -0.9174
6.43e+10  0.4399  -0.9407  1.082e-05  5.213e-06  1.678e-05  1.973e-05  0.4397  -0.9234
6.44e+10  0.4086  -0.9134  -1.107e-05  5.701e-07  -6.81e-06  1.201e-05  0.4295  -0.9082
6.45e+10  0.4138  -0.922  -3.627e-06  -6.167e-06  1.262e-05  1.852e-05  0.4248  -0.9307
6.46e+10  0.3678  -0.8997  -4.125e-06  8.858e-06  7.738e-06  2.031e-05  0.3575  -0.8988
6.47e+10  0.3571  -0.9565  2.193e-06  -7.632e-06  9.079e-06  -1.474e-05  0.3565  -0.9405
6.48e+10  0.3583  -0.9382  -2.347e-06  -5.792e-06  2.911e-06  5.222e-06  0.3738  -0.9289
6.49e+10  0.3872  -0.9448  -4.613e-06  -4.755e-06  -4.455e-07  1.385e-05  0.3953  -0.9428
6.5e+10  0.3931  -0.9331  7.206e-06  2.681e-06  -3.838e-06  -1.375e-06  0.3936  -0.9309
6.51e+10  0.3487  -0.8997  2.724e-06  -4.248e-06  -7.874e-06  -3.253e-06  0.3398  -0.9038
6.52e+10  0.3253  -0.9512  -1.076e-05  -1.79e-07  -1.718e-05  3.029e-05  0.3269  -0.9462
6.53e+10  0.2772  -0.9535  1.261e-05  1.005e-05  -3.179e-05  8.513e-06  0.2909  -0.942
6.54e+10  0.3172  -0.9693  4.411e-06  -1.736e-06  1.917e-06  6.622e-06  0.3315  -0.9597
6.55e+10  0.3624  -0.94  -4.509e-06  -1.049e-05  9.936e-06  -1.71e-05  0.368  -0.9432
6.56e+10  0.297  -0.9397  1.002e-05  -6.484e-06  -1.233e-05  1.138e-05  0.2946  -0.9445
6.57e+10  0.2952  -0.9478  4.513e-07  1.015e-08  -2.302e-05  8.619e-07  0.2907  -0.9427
6.58e+10  0.2222  -0.947  7.314e-06  1.718e-06  6.099e-06  -4.312e-05  0.23  -0.9383
6.59e+10  0.2697  -1.002  1.501e-05  2.215e-06  2.191e-05  -1.93e-06  0.2884  -0.9926
6.6e+10  0.2817  -0.9844  1.292e-06  -2.972e-06  -9.717e-08  6.749e-06  0.3074  -0.9757
6.61e+10  0.2931  -0.9681  1.263e-06  -1.172e-05  -5.714e-06  -1.633e-05  0.3092  -0.9788
6.62e+10  0.2773  -0.958  4.969e-06  4.691e-07  1.799e-06  1.314e-05  0.2663  -0.9647
6.63e+10  0.2222  -0.9553  3.978e-06  -1.006e-05  1.142e-05  2.221e-05  0.2165  -0.9348
6.64e+10  0.1962  -0.998  -3.797e-06  -7.479e-08  -1.12e-05  2.887e-05  0.2227  -0.9792
6.65e+10  0.2072  -0.9752  -1.206e-06  -1.785e-06  4.975e-06  3.008e-05  0.2365  -0.9793
6.66e+10  0.2467  -0.9775  -5.438e-06  2.284e-06  -3.804e-05  -2.539e-05  0.2517  -0.9818
6.67e+10  0.2413  -0.9609  -1.752e-06  -8.324e-06  1.9e-05  3.988e-07  0.2397  -0.9494
6.68e+10  0.2061  -0.9647  -3.183e-06  1.484e-06  -1.904e-07  4.024e-06  0.2177  -0.9536
6.69e+10  0.1807  -0.9823  1.165e-05  -3.279e-06  -2.645e-05  1.433e-06  0.1916  -0.9801
6.7e+10  0.1818  -0.9617  5.849e-06  1.548e-05  2.129e-08  3.351e-05  0.1862  -0.9587
6.71e+10  0.1622  -1.019  2.916e-06  -4.286e-06  1.665e-05  6.314e-06  0.1745  -1.011
6.72e+10  0.1869  -0.9772  -1.668e-06  5.434e-06  6.846e-06  -2.057e-05  0.2009  -0.9722
6.73e+10  0.1826  -1  -2.674e-05  6.269e-06  1.617e-05  1.106e-05  0.1887  -0.9937
6.74e+10  0.1568  -0.9755  3.176e-06  6.981e-06  -1.274e-05  3.315e-05  0.1625  -0.9667
6.75e+10  0.1481  -1.011  1.25e-05  -1.725e-05  7.127e-06  2.275e-06  0.1488  -0.9987
6.76e+10  0.1218  -1.01  1.872e-05  4.958e-06  -5.572e-06  -2.889e-05  0.1217  -0.9924
6.77e+10  0.1357  -0.9913  -1.296e-05  -1.936e-06  3.096e-05  1.106e-05  0.1514  -0.9759
6.78e+10  0.1228  -1.009  1.369e-05  -1.688e-06  -4.092e-05  -1.853e-06  0.1422  -1.012
6.79e+10  0.1378  -0.9822  -2.504e-06  -4.043e-06  -1.675e-05  1.912e-05  0.1343  -0.9835
6.8e+10  0.1192  -1.001  3.993e-06  -1.43e-06  -2.923e-05  2.541e-06  0.1114  -0.983
6.81e+10  0.09977  -0.9964  1.782e-06  -4.326e-06  -2.403e-05  1.113e-05  0.1139  -0.9754
6.82e+10  0.08735  -1.009  -1.233e-05  -7.734e-06  -9.074e-06  -2.791e-06  0.1078  -1.001
6.83e+10  0.06237  -1.011  -2.681e-06  -8.028e-06  2.693e-05  3.548e-05  0.07185  -1.005
6.84e+10  0.0741  -1.014  -4.035e-06  -2.793e-06  3.393e-05  6.085e-06  0.08458  -1.003
6.85e+10  0.07129  -0.9937  8.181e-06  -2.221e-06  2.727e-05  -1.365e-05  0.08422  -0.9937
6.86e+10  0.06889  -0.9912  2.114e-05  -5.83e-06  -1.102e-06  7.951e-06  0.07506  -0.9904
6.87e+10  0.04454  -1.025  1.58e-06  -1.533e-05  -1.798e-05  4.142e-06  0.05446  -0.999
6.88e+10  0.03513  -1.021  9.114e-06  -1.062e-05  -1.901e-05  2.841e-05  0.05509  -0.9902
6.89e+10  0.02588  -1.015  -3.52e-06  -2.017e-05  1.061e-05  -2.625e-06  0.04871  -1.021
6.9e+10  0.01213  -0.9912  7.975e-06  2.624e-07  3.783e-05  -1.293e-05  0.02261  -1.008
6.91e+10  0.04111  -1.022  2.279e-06  -3.348e-06  4.347e-06  -8.498e-06  0.04493  -1.012
6.92e+10  0.008653  -1.009  -4.808e-06  3.029e-06  1.53e-05  -2.759e-05  0.01283  -0.988
6.93e+10  0.01346  -1.008  1.852e-06  -1.086e-05  2.881e-05  -1.028e-05  0.02065  -1.001
6.94e+10  -0.0205  -0.979  -4.559e-06  -1.287e-05  2.915e-05  -4.856e-06  -0.009347  -0.9821
6.95e+10  -0.03017  -1.028  5.871e-06  -1.483e-05  2.557e-05  2.418e-05  -0.01335  -1.027
6.96e+10  -0.01468  -0.9869  1.36e-05  9.577e-07  4.143e-06  -1.605e-05  -0.007767  -0.9798
6.97e+10  -0.01007  -1.065  4.523e-06  -1.719e-05  1.43e-05  -1.223e-05  -0.01703  -1.052
6.98e+10  -0.02687  -0.987  -1.058e-05  2.206e-05  1.218e-05  8.672e-06  -0.0284  -0.9905
6.99e+10  -0.03853  -1.011  1.586e-06  5.034e-06  8.983e-06  1.245e-05  -0.03192  -1.02
7e+10  -0.05994  -0.9857  3.038e-05  1.382e-05  -3.38e-05  -5.097e-06  -0.05767  -0.9734
7.01e+10  -0.06533  -1.064  2.24e-06  6.544e-06  1.877e-05  1.592e-05  -0.06695  -1.032
7.02e+10  -0.08475  -1.001  1.355e-05  -1.052e-05  -1.703e-06  -5.854e-06  -0.07328  -0.9961
7.03e+10  -0.07504  -0.9885  -4.757e-06  -3.309e-05  -1.658e-05  1.013e-05  -0.06661  -1.012
7.04e+10  -0.06598  -1.01  -1.212e-06  -6.859e-06  2.099e-05  -1.543e-05  -0.07859  -1.014
7.05e+10  -0.06682  -1.015  5.164e-07  -3.392e-05  9.312e-06  1.836e-05  -0.07996  -0.9955
7.06e+10  -0.1065  -0.9935  6.503e-06  8.21e-06  -1.264e-05  -2.829e-05  -0.1087  -0.9861
7.07e+10  -0.1017  -1.01  1.137e-05  7.128e-06  1.826e-05  2.321e-05  -0.09827  -1.013
7.08e+10  -0.1415  -0.9947  1.44e-05  -7.891e-07  4.538e-06  -1.896e-05  -0.1286  -0.989
7.09e+10  -0.131  -1.029  1.91e-06  -9.844e-06  2.235e-05  -1.846e-05  -0.1166  -1.027
7.1e+10  -0.1175  -0.9705  7.712e-06  1.306e-05  6.77e-06  3.216e-06  -0.1273  -0.978
7.11e+10  -0.1363  -1.019  -1.23e-05  1.492e-05  6.109e-07  -1.467e-05  -0.1588  -1.021
7.12e+10  -0.1534  -0.976  1.481e-05  -1.275e-05  5.066e-06  1.414e-05  -0.1608  -0.9663
7.13e+10  -0.1674  -1.021  7.705e-07  9.501e-06  1.843e-05  -2.294e-05  -0.1639  -1.011
7.14e+10  -0.1751  -0.999  2.578e-05  -6.967e-06  -1.312e-05  -2.795e-06  -0.1752  -0.9942
7.15e+10  -0.1623  -0.9881  -3.618e-06  -1.019e-05  -1.217e-05  -4.599e-05  -0.1589  -0.9891
7.16e+10  -0.1855  -0.975  -3.447e-07  -1.736e-05  -5.028e-06  -2.099e-05  -0.1796  -0.9891
7.17e+10  -0.1886  -0.9824  -3.318e-06  -3.334e-06  2.532e-05  -3.15e-05  -0.1952  -0.9968
7.18e+10  -0.1947  -0.9916  -7.518e-06  -3.861e-06  -1.757e-05  -1.228e-05  -0.2106  -0.9889
7.19e+10  -0.2046  -0.9951  1.141e-05  4.093e-06  1.391e-05  2.317e-05  -0.2159  -0.985
7.2e+10  -0.2057  -0.9853  3.868e-06  -6.829e-06  -1.302e-05  -2.049e-05  -0.2038  -0.9829
7.21e+10  -0.2229  -0.9794  7.401e-06  9.095e-06  -1.002e-05  1.498e-05  -0.2142  -0.9817
7.22e+10  -0.2428  -0.9772  4.356e-06  -1.725e-05  1.516e-05  -5.866e-06  -0.2385  -0.9759
7.23e+10  -0.2283  -0.9915  2.774e-05  2.032e-05  1.714e-05  -2.553e-05  -0.2333  -0.9897
7.24e+10  -0.2593  -0.9967  -1.081e-06  2.797e-06  8.473e-06  -2.697e-05  -0.2691  -1.001
