# GHZ S RI R 50
50	0.00262709426711405	-0.00491972481484983	0	0	0.52121319167354	0.190008903409226	0	0
0	0	-0.00148032633498557	0.00649663135068288	0	0	-0.159353671524792	0.642969337600656
0.52121319167354	0.190008903409226	0	0	-0.00117707248879905	-0.0064220652186306	0	0
0	0	-0.369237608133662	0.491047423332901	0	0	0.010367596801282	-0.0152601188023976
50.1	-0.000603022379069927	-0.00518345749499602	0	0	0.538262329053321	-0.0904239730473687	0	0
0	0	0.00369010021786306	0.0066217542604798	0	0	0.243433760391589	0.624622551363725
0.538262329053321	-0.0904239730473687	0	0	0.000776895958077513	-0.00480571267054259	0	0
0	0	-0.125308288138318	0.587770679699784	0	0	-0.000650136304909673	-0.0214459206642156
50.2	-0.00360682689246615	-0.00354622368907978	0	0	0.421305753412666	-0.33770193348055	0	0
0	0	0.00832743706864183	0.0029380864162345	0	0	0.541496279402133	0.415120889587381
0.421305753412666	-0.33770193348055	0	0	0.00117986414911741	-0.00883320591175527	0	0
0	0	0.168079915285206	0.568786948587602	0	0	-0.00492606259982273	-0.0141364883404539
50.3	-0.00497278454356172	-0.000305945281251854	0	0	0.207077432819225	-0.502856925937236	0	0
0	0	0.00896941860339756	-0.00367510625905582	0	0	0.697683263813423	0.0966650910734619
0.207077432819225	-0.502856925937236	0	0	-0.00438916923967227	-0.0113293788700363	0	0
0	0	0.431695021944635	0.408795090623095	0	0	-0.00358914324810866	-0.0202520588091728
50.4	-0.00418199641897842	0.00296459406192689	0	0	0.0607914701522024	0.531315400518654	0	0
0	0	0.00439698559791729	-0.00917644158715067	0	0	-0.649692224062746	0.284294495762595
0.0607914701522024	0.531315400518654	0	0	-0.00855549217042237	-0.00734721423043094	0	0
0	0	-0.55500282948925	-0.164410213287928	0	0	-0.0167376652253677	-0.0201748549306981
50.5	-0.00141049117328137	0.0043574371383742	0	0	0.316007634040885	0.429206477048898	0	0
0	0	-0.0028938865189819	-0.0099426144919269	0	0	-0.373668882196449	0.620722851269503
0.316007634040885	0.429206477048898	0	0	-0.00694520312469131	-0.00363161322530334	0	0
0	0	-0.566505684513672	0.0862899080825024	0	0	-0.0180444994183919	-0.00679168017428307
50.6	0.00125625757335241	0.00359367261206116	0	0	0.486454173693449	0.222146888844783	0	0
0	0	-0.00828584426931405	-0.00569658549435104	0	0	0.0387321642821883	0.738749417157161
0.486454173693449	0.222146888844783	0	0	-0.00504644777931522	-0.00555887315896228	0	0
0	0	-0.474320938119907	0.315772412432756	0	0	-0.0128643173486748	-0.00842977501620831
50.7	0.00220381273331752	0.00139473224353645	0	0	0.533477047716151	-0.0453329332885617	0	0
0	0	-0.00857217741328675	0.000547114785997775	0	0	0.418704042700271	0.627958004267706
0.533477047716151	-0.0453329332885617	0	0	-0.0081976359804276	-0.00791929662466397	0	0
0	0	-0.273673637375285	0.499590741083291	0	0	-0.0179316679654413	-0.00642235355490622
50.8	0.00154353481339236	0.000423557375829089	0	0	0.433486559528536	-0.295672763342157	0	0
0	0	-0.00474467720535283	0.00421946242271908	0	0	0.67639285223706	0.337889404766682
0.433486559528536	-0.295672763342157	0	0	-0.0118567877790016	-0.00561754294729603	0	0
0	0	0.00781319268948666	0.560315950518097	0	0	-0.0132877764142515	-0.000309297248907023
50.9	0.000683310662437339	0.0010337858638543	0	0	0.235441242428825	-0.469021229465181	0	0
0	0	-0.000677058514874467	0.00388537121827999	0	0	0.763292326942061	-0.0789688550814407
0.235441242428825	-0.469021229465181	0	0	-0.0126449260083075	-0.000711071588385765	0	0
0	0	0.255821075951706	0.49531232302814	0	0	-0.0126613491125644	-0.00296118172322277
51	0.00132435025151815	0.00228757057434136	0	0	0.023525345204547	0.521052550537509	0	0
0	0	0.00076116514373407	0.00155174084653808	0	0	-0.595244970083782	0.508688659210686
0.023525345204547	0.521052550537509	0	0	-0.00938813221579959	0.00350623223254763	0	0
0	0	-0.435142263340334	-0.346072086169763	0	0	-0.0139793800211012	0.00414759878675834
51.1	0.00300499748013003	0.00253084417961111	0	0	0.272068440549539	0.437982321457522	0	0
0	0	-0.000664179490686134	0.000150224409893823	0	0	-0.228443340512611	0.76211209796649
0.272068440549539	0.437982321457522	0	0	-0.00327303893959452	0.0036892963161291	0	0
0	0	-0.541750525261758	-0.115181504590286	0	0	-0.00356144027372922	0.00545354000782962
51.2	0.00444415216472403	0.000831005828642557	0	0	0.443349135613303	0.248927591609282	0	0
0	0	-0.00212748054529191	0.00117788925848721	0	0	0.161168667564718	0.783368601213691
0.443349135613303	0.248927591609282	0	0	-0.000827124469131649	-0.000878908421023146	0	0
0	0	-0.524189616570579	0.160334592753662	0	0	-0.00326982797975172	-0.00105664798919292
51.3	0.00439665571570554	-0.00124175385036271	0	0	0.50514637468287	0.00492181022733169	0	0
0	0	-0.00192822267661194	0.00293976113020862	0	0	0.511886115622779	0.633892081296514
0.50514637468287	0.00492181022733169	0	0	-0.00382194995863985	-0.00230535115590334	0	0
0	0	-0.374281295665894	0.398393227442541	0	0	-0.00448352171502721	0.00106297527965682
51.4	0.00318190152805858	-0.00295095487278664	0	0	0.434734554599005	-0.24458212534579	0	0
0	0	-4.02654359044654E-05	0.00392560702160693	0	0	0.782172449200033	0.264804162184762
0.434734554599005	-0.24458212534579	0	0	-0.00290612550907823	0.00138522136446944	0	0
0	0	-0.146057127523762	0.521184791881617	0	0	-0.00251472624884534	-0.000567567265882725
51.5	0.00182101079254631	-0.00332759639884491	0	0	0.257691018179978	-0.419259009801899	0	0
0	0	0.00184199206812834	0.0031260242014612	0	0	0.805076342718489	-0.218239900576907
0.257691018179978	-0.419259009801899	0	0	0.000836752490687528	0.000469248615093994	0	0
0	0	0.0730665497518323	0.527136256985107	0	0	-0.00680629927495118	0.00306058133656978
51.6	0.000827273812868788	-0.0033908757153086	0	0	0.0250666365653968	-0.494318659836781	0	0
0	0	0.00257994956345704	0.00170065144488056	0	0	0.582123713093427	-0.633836921863615
0.0250666365653968	-0.494318659836781	0	0	0.000708033707673068	-0.00252626961937172	0	0
0	0	0.286809746616019	0.445894282940937	0	0	0.00401421700093799	0.0113307124541989
51.7	0.000179228191385793	-0.0035217989338113	0	0	0.211951040711854	0.439885954908471	0	0
0	0	0.00238986299538543	0.000718529940218948	0	0	-0.209539318588682	0.833303073787452
0.211951040711854	0.439885954908471	0	0	-0.000607136445110989	-0.00132818450714584	0	0
0	0	-0.468080643259556	-0.240890670580769	0	0	0.0144692094997659	-0.00409055012435923
51.8	-0.00111411224676195	-0.00353611409975996	0	0	0.394954943028724	0.273700240557676	0	0
0	0	0.00220863240519688	0.000458560442948706	0	0	0.203406456919215	0.830679934258741
0.394954943028724	0.273700240557676	0	0	0.0016815105782855	-9.80513865848261E-05	0	0
0	0	-0.524486474700883	0.0311548390378105	0	0	-0.000771022249833214	-0.0120343424472252
51.9	-0.0024823597428039	-0.00305492680991239	0	0	0.475159926636586	0.0512548197886197	0	0
0	0	0.00288926344222129	0.000154512230371845	0	0	0.59292312930721	0.632204764439592
0.475159926636586	0.0512548197886197	0	0	0.00425836197173734	-0.00237409805783032	0	0
0	0	-0.453385038059592	0.272892699685032	0	0	-0.002326466384632	0.0011004339877674
52	-0.00364376902078485	-0.0015527937234627	0	0	0.436639402405718	-0.181464462625262	0	0
0	0	0.00375761981268093	-0.00161446678850266	0	0	0.846249820484138	0.211193064576839
0.436639402405718	-0.181464462625262	0	0	0.00378961654081965	-0.00603798228997658	0	0
0	0	-0.289488935716553	0.438487163448996	0	0	0.00907833736251528	-0.0027975401811454
52.1	-0.00365278964988983	0.000334230128679731	0	0	0.287715691928028	-0.364341338397995	0	0
0	0	0.00308132686004689	-0.00462474895165865	0	0	0.830614595355297	-0.286704243457124
0.287715691928028	-0.364341338397995	0	0	0.00154268978031047	-0.00739935470958043	0	0
0	0	-0.0759219033381171	0.513221816348675	0	0	0.00640167397321567	-0.0104296803248163
52.2	-0.00238900615454445	0.00212371976799204	0	0	0.0809275299622237	-0.45001600229423	0	0
0	0	-0.0002977502982044	-0.00715313101224873	0	0	0.577426210019141	-0.684014780793563
0.0809275299622237	-0.45001600229423	0	0	0.000605846396577462	-0.00858104754533511	0	0
0	0	0.150230893475867	0.489170434406177	0	0	0.00750648770710232	-0.0148037815146502
52.3	-0.000396585746921385	0.00272802143858631	0	0	0.139868496552396	0.433532261405754	0	0
0	0	-0.00574788742380759	-0.00659647856591728	0	0	-0.16073295878334	0.899187333403684
0.139868496552396	0.433532261405754	0	0	-0.00257661208162136	-0.0106636017847852	0	0
0	0	-0.355655528553048	-0.362195570540353	0	0	-0.0018514776143667	-0.0261457423448332
52.4	0.00153205768332203	0.00190251237357762	0	0	0.320295424563868	0.307871321596473	0	0
0	0	-0.00994479783668367	-0.00147945599160105	0	0	0.314135949535818	0.862524602104117
0.320295424563868	0.307871321596473	0	0	-0.00546555197557986	-0.00903145853718462	0	0
0	0	-0.475254518068333	-0.155138585858887	0	0	-0.0163328137024861	-0.0181970565788017
52.5	0.00205207251140656	0.000247924090826393	0	0	0.419684759014893	0.121855303271978	0	0
0	0	-0.00962427042205668	0.00586414251318881	0	0	0.719441394397345	0.58077130134744
0.419684759014893	0.121855303271978	0	0	-0.00477631434489112	-0.00888212297134541	0	0
0	0	-0.49250842270598	0.0638396862808308	0	0	-0.0131925173944356	-0.0100461431164579
52.6	0.00130817623226923	-0.001299369533574	0	0	0.433976685233414	-0.0786125030944609	0	0
0	0	-0.00379589403728341	0.0116746038041239	0	0	0.938131333615859	0.133248148290173
0.433976685233414	-0.0786125030944609	0	0	-0.00750039712030417	-0.0134391738560344	0	0
0	0	-0.428726993698012	0.261956250079133	0	0	-0.0128064899818515	-0.0124640746869344
52.7	-0.000241947826101863	-0.0015962966099424	0	0	0.339706939941609	-0.265505332244686	0	0
0	0	0.00453987609490335	0.0117737416030502	0	0	0.853525133162702	-0.39398861626669
0.339706939941609	-0.265505332244686	0	0	-0.0150698175782254	-0.0113086120229182	0	0
0	0	-0.274015451185898	0.410458351347926	0	0	-0.015444636060796	-0.0119858137394476
52.8	-0.00128702483956887	-0.000814170874688506	0	0	0.179540419736859	-0.382436296870971	0	0
0	0	0.0106178641709628	0.00636787212963489	0	0	0.497595032435435	-0.775829357097477
0.179540419736859	-0.382436296870971	0	0	-0.0183145545017088	-0.00453629250883118	0	0
0	0	-0.0844941799182583	0.477288178162829	0	0	-0.0214748389153616	-0.0121335268211768
52.9	-0.00121502608610904	0.000596810788596319	0	0	0.0126632063386155	0.434467305768579	0	0
0	0	0.011583659611936	-0.0013984471692708	0	0	-0.0129983515295106	0.937375890419786
0.0126632063386155	0.434467305768579	0	0	-0.0179678521969916	0.00171034311225736	0	0
0	0	-0.116243945114517	-0.486907157797624	0	0	-0.0319539044262749	0.000188540236176257
53	-0.000211932021299103	0.0012692557227426	0	0	0.206906779687558	0.373151096286031	0	0
0	0	0.00776339174296173	-0.00726883786970121	0	0	0.468936745803557	0.779566643694659
0.206906779687558	0.373151096286031	0	0	-0.0143511899628411	0.00700968037834267	0	0
0	0	-0.305973979524309	-0.387351944177668	0	0	-0.0197290473457403	0.0181075348486531
53.1	0.00100265997679675	0.00108170661242074	0	0	0.355110726789987	0.246679856911339	0	0
0	0	0.00217361071288299	-0.00916428403524838	0	0	0.785481086192889	0.433648049192029
0.355110726789987	0.246679856911339	0	0	-0.00831853357871316	0.011022308246963	0	0
0	0	-0.445350925258884	-0.224685999461427	0	0	-0.00240913617974314	0.0137031109807991
53.2	0.00149853471468628	9.63618620494626E-05	0	0	0.43233088150413	0.0586650713738342	0	0
0	0	-0.0024441375232861	-0.00785655551753046	0	0	0.87214469956794	-0.0208858020700051
0.43233088150413	0.0586650713738342	0	0	0.000100086487770802	0.0101745020672558	0	0
0	0	-0.501235966938679	-0.0107793819230997	0	0	-0.00403580022080923	0.00425781707811014
53.3	0.00143230691155504	-0.000715831646672924	0	0	0.416062004447286	-0.153380979938797	0	0
0	0	-0.00515873338086953	-0.00500812487562909	0	0	0.72309689739508	-0.458805812074647
0.416062004447286	-0.153380979938797	0	0	0.00427416578201419	0.00418286683113572	0	0
0	0	-0.46374627249836	0.212804889732629	0	0	-0.00732739927140598	0.0105901273389684
53.4	0.000922688332072912	-0.00130330114929263	0	0	0.312391238332506	-0.324610831844451	0	0
0	0	-0.00614687245211884	-0.00195251222330956	0	0	0.401906197103235	-0.723856578790532
0.312391238332506	-0.324610831844451	0	0	0.0022944640940018	0.00121147303108574	0	0
0	0	-0.341182694335124	0.389433247648222	0	0	0.00131436507149427	0.0157725378245809
53.5	0.000767134857985319	-0.00145271035307592	0	0	0.126066409181591	-0.441502203379573	0	0
0	0	-0.0061191297567129	0.000875847977452211	0	0	0.00369348962026224	-0.798787869831739
0.126066409181591	-0.441502203379573	0	0	0.0035468769110648	0.00402290020934027	0	0
0	0	-0.128354372083126	0.509601917036994	0	0	0.0116133002460527	0.0116545819090336
53.6	0.000503774403576193	-0.00202950664925675	0	0	0.0989704774899692	0.456735331726648	0	0
0	0	-0.00482599190279775	0.00366191397493128	0	0	0.353586550589569	0.684082115564814
0.0989704774899692	0.456735331726648	0	0	0.010668371286634	0.00214203012813577	0	0
0	0	-0.121476274538579	-0.524086005248898	0	0	0.0179688034942219	0.00372845067248377
53.7	-8.80362387556991E-05	-0.0028118218144316	0	0	0.301357893260526	0.365616985043878	0	0
0	0	-0.00224164208831723	0.00553766805885428	0	0	0.605152323806174	0.42655474260589
0.301357893260526	0.365616985043878	0	0	0.0135696568826568	-0.00680789743602193	0	0
0	0	-0.344548779103429	-0.423995847850345	0	0	0.0182520237930066	-0.00781855846142882
53.8	-0.0016831563291426	-0.00323199215487579	0	0	0.446961639519682	0.184626340451955	0	0
0	0	0.00118647853017579	0.0059865776473669	0	0	0.716134416028773	0.0855445162608941
0.446961639519682	0.184626340451955	0	0	0.00811883559663017	-0.0138311560835233	0	0
0	0	-0.507130819657838	-0.229656926909016	0	0	0.00931064265455596	-0.0146102478250166
53.9	-0.00370105179724594	-0.00253085429832247	0	0	0.486084248565911	-0.0463813431947008	0	0
0	0	0.0046870222739901	0.00416120281357577	0	0	0.653764458198646	-0.25080778595097
0.486084248565911	-0.0463813431947008	0	0	0.00266101334930841	-0.0145856915486055	0	0
0	0	-0.560064422102734	0.0113598642739121	0	0	0.0055579855889802	-0.0112615807494375
54	-0.00518456514859774	-6.40050577627479E-05	0	0	0.408714996817595	-0.273953756216373	0	0
0	0	0.00636948965565992	0.000378591368840714	0	0	0.45084543064505	-0.509841148339393
0.408714996817595	-0.273953756216373	0	0	-0.000665598217642282	-0.0147030825691329	0	0
0	0	-0.496171270534218	0.261211192954899	0	0	0.00784428202833213	-0.014963522351467
54.1	-0.00478186110525355	0.0029266941707941	0	0	0.240471885782155	-0.439028924613283	0	0
0	0	0.00547772994031229	-0.00385781965324408	0	0	0.17432491865295	-0.646155331277685
0.240471885782155	-0.439028924613283	0	0	-0.00489808151444197	-0.0153600104896472	0	0
0	0	-0.332457200304131	0.461073223247919	0	0	0.00189143428361212	-0.023327332151711
54.2	-0.00234670179096245	0.00549958955350581	0	0	0.0016795571453049	-0.506959172616957	0	0
0	0	0.00178323754828823	-0.00688791453767279	0	0	-0.137846516391427	-0.64288043234609
0.0016795571453049	-0.506959172616957	0	0	-0.00976213618825569	-0.0127303023825014	0	0
0	0	-0.081810501769143	0.566817043384014	0	0	-0.00955344407911102	-0.0235855004580572
54.3	0.00131128217178542	0.00581039670320745	0	0	0.23005621492498	0.452640596471346	0	0
0	0	-0.00317698187378966	-0.00669658932287182	0	0	0.395486813483601	0.502306172955994
0.23005621492498	0.452640596471346	0	0	-0.0112358411042273	-0.00945661003477979	0	0
0	0	-0.169584309864045	-0.540144469757441	0	0	-0.0176481617474185	-0.0187342927967917
54.4	0.00453247690355457	0.00382164295146724	0	0	0.424135268851458	0.297217702918744	0	0
0	0	-0.00698518733479444	-0.00336783173258904	0	0	0.584158180445626	0.258622624146287
0.424135268851458	0.297217702918744	0	0	-0.0124634026573573	-0.00686580572187394	0	0
0	0	-0.390473530340904	-0.412197047437627	0	0	-0.0217268611409442	-0.00839515901294725
54.5	0.00560196079332923	0.000194731642853057	0	0	0.519602745365785	0.0673729569257251	0	0
0	0	-0.00782844842408259	0.00188462895445874	0	0	0.636471228173906	-0.0489713524156169
0.519602745365785	0.0673729569257251	0	0	-0.0133106198428872	-0.00400522144273227	0	0
0	0	-0.529145802762725	-0.194330196783261	0	0	-0.016006444381452	-0.00181937221480244
54.6	0.00444959311261976	-0.00312953702387292	0	0	0.498136412111056	-0.170578673119092	0	0
0	0	-0.00491171638637633	0.00636777864394031	0	0	0.544485904035001	-0.321664952426741
0.498136412111056	-0.170578673119092	0	0	-0.0128253665014968	-0.00167373058364086	0	0
0	0	-0.554707453210059	0.0577491009601288	0	0	-0.0142251800519893	-0.00768491254984136
54.7	0.00149201130423128	-0.00471446766908758	0	0	0.365310671624443	-0.387595815665426	0	0
0	0	-0.000124591459203363	0.00777088002410339	0	0	0.345673166181764	-0.528788896492676
0.365310671624443	-0.387595815665426	0	0	-0.0122881938295527	0.00071894786455393	0	0
0	0	-0.46551386249782	0.311493296927734	0	0	-0.0250562907718753	-0.00414015812480087
54.8	-0.000983707298694761	-0.00421658699632301	0	0	0.148503077672137	-0.508563432998678	0	0
0	0	0.00414212926909829	0.00609822562455375	0	0	0.0790500132037615	-0.615924644773151
0.148503077672137	-0.508563432998678	0	0	-0.0115846206097315	0.00326167441631765	0	0
0	0	-0.278706424606548	0.485383831649274	0	0	-0.0240630474136954	0.0111770486819173
54.9	-0.00247395807247478	-0.00269889071292256	0	0	0.0959681188639824	0.526576432959399	0	0
0	0	0.00623555010453626	0.00246380426620557	0	0	0.195701307534648	0.58605759999018
0.0959681188639824	0.526576432959399	0	0	-0.00931537768356069	0.00714037693790613	0	0
0	0	0.0404204833765577	-0.56409783069025	0	0	-0.0114983224765645	0.0176252739929569
55	-0.00252495088844778	-0.00141181983937553	0	0	0.327658639111629	0.424717160663587	0	0
0	0	0.00573377615972452	-0.00101203917940344	0	0	0.440753562054272	0.423336413214803
0.327658639111629	0.424717160663587	0	0	-0.00296382668016686	0.00901295356466372	0	0
0	0	-0.199184980081898	-0.53175401565866	0	0	-0.000761098253083115	0.0137916711660069
55.1	-0.00253084479495593	-0.000821047220159967	0	0	0.480425504790703	0.225545892776955	0	0
0	0	0.00395918381778848	-0.0030920825684811	0	0	0.581183908063363	0.160274220823884
0.480425504790703	0.225545892776955	0	0	0.00346396182731707	0.0048890435044802	0	0
0	0	-0.390428934216352	-0.402769090826841	0	0	0.00299172444240066	0.00532245054958365
55.2	-0.00290298282672796	-0.000492924528373169	0	0	0.536751063042298	-0.023414016190124	0	0
0	0	0.0019260055530853	-0.00395304414789122	0	0	0.593096643162649	-0.135119751662292
0.536751063042298	-0.023414016190124	0	0	0.00402155612642089	-0.00185190993110281	0	0
0	0	-0.524073399748299	-0.208593527857817	0	0	-0.00316454782249277	0.00175122562365825
55.3	-0.00348697141188786	0.000694313576727149	0	0	0.466971501699096	-0.265467001850004	0	0
0	0	0.000196142097880965	-0.00399187855085911	0	0	0.464810909233755	-0.389640473129935
0.466971501699096	-0.265467001850004	0	0	-0.000514807710167646	-0.00371134016381178	0	0
0	0	-0.560139815913697	0.0226214847381887	0	0	-0.0030746439578058	0.0115213678466304
55.4	-0.00325935810246819	0.00220674636550343	0	0	0.296034882956549	-0.446788593385721	0	0
0	0	-0.00132652408233643	-0.00371260291581255	0	0	0.226008548964371	-0.55774643550673
0.296034882956549	-0.446788593385721	0	0	-0.00106052615655418	0.000113985040532142	0	0
0	0	-0.49847771426534	0.244189501526212	0	0	0.0127163127929632	0.0122352197824493
55.5	-0.00187241046594424	0.00373943427918938	0	0	0.0612108666670315	-0.539297106729186	0	0
0	0	-0.00305927751564295	-0.00299955432804921	0	0	-0.072655036344944	-0.59943825972796
0.0612108666670315	-0.539297106729186	0	0	0.00491266130347998	0.000781701162879432	0	0
0	0	-0.362443994889078	0.422751827006941	0	0	0.0193682346523144	-0.00384652456606769
55.6	0.000226586900321258	0.00373789474767885	0	0	0.18433345645036	0.507743477776096	0	0
0	0	-0.00446770351098377	-0.00120354190758283	0	0	0.340496667682545	0.49429845052085
0.18433345645036	0.507743477776096	0	0	0.00839566142341623	-0.00625040212430832	0	0
0	0	0.168727935591084	-0.524591131179864	0	0	0.0109310071446433	-0.0137142816829596
55.7	0.00174776413688701	0.00263155086046013	0	0	0.395932788208289	0.368823884633563	0	0
0	0	-0.00485909436379193	0.00122702918426365	0	0	0.526652292531501	0.290441177243871
